! Touchstone generated by fitter/viewer 
# HZ S  RI R 5.000000e+001
! 
1.000000000000000e+007 9.668233291622030e-003 2.536380899905774e-002 9.901029895908223e-001 -3.721437677446786e-002 9.901029895908223e-001 -3.721437677446786e-002 9.668233291622030e-003 2.536380899905774e-002
2.000000000000000e+007 1.381721925966717e-002 4.805319685058392e-002 9.855867104040460e-001 -7.161109925221709e-002 9.855867104040460e-001 -7.161109925221709e-002 1.381721925966717e-002 4.805319685058392e-002
3.000000000000000e+007 1.905513333248909e-002 6.998175564901189e-002 9.798472185075239e-001 -1.051951944267561e-001 9.798472185075239e-001 -1.051951944267561e-001 1.905513333248909e-002 6.998175564901189e-002
4.000000000000000e+007 2.550451212112115e-002 9.124074915354281e-002 9.727585064205107e-001 -1.380774076376167e-001 9.727585064205107e-001 -1.380774076376167e-001 2.550451212112115e-002 9.124074915354281e-002
5.000000000000000e+007 3.317387779739844e-002 1.118078035592360e-001 9.643132004548882e-001 -1.702430893603013e-001 9.643132004548882e-001 -1.702430893603013e-001 3.317387779739844e-002 1.118078035592360e-001
6.000000000000000e+007 4.203184390737791e-002 1.316285411708314e-001 9.545443206499036e-001 -2.016446628815442e-001 9.545443206499036e-001 -2.016446628815442e-001 4.203184390737791e-002 1.316285411708314e-001
7.000000000000000e+007 5.202572520833526e-002 1.506397730877261e-001 9.435047192084809e-001 -2.322248725179779e-001 9.435047192084809e-001 -2.322248725179779e-001 5.202572520833526e-002 1.506397730877261e-001
8.000000000000000e+007 6.308945255973808e-002 1.687787192034991e-001 9.312595677357088e-001 -2.619255563832424e-001 9.312595677357088e-001 -2.619255563832424e-001 6.308945255973808e-002 1.687787192034991e-001
9.000000000000000e+007 7.514794170296968e-002 1.859872000881074e-001 9.178826300134891e-001 -2.906919747451418e-001 9.178826300134891e-001 -2.906919747451418e-001 7.514794170296968e-002 1.859872000881074e-001
1.000000000000000e+008 8.811990901117683e-002 2.022137072294833e-001 9.034538109063943e-001 -3.184752325829711e-001 9.034538109063943e-001 -3.184752325829711e-001 8.811990901117683e-002 2.022137072294833e-001
1.100000000000000e+008 1.019199189638743e-001 2.174144598336682e-001 8.880572339902795e-001 -3.452336609474341e-001 8.880572339902795e-001 -3.452336609474341e-001 1.019199189638743e-001 2.174144598336682e-001
1.200000000000000e+008 1.164600154408291e-001 2.315539046404000e-001 8.717796088766215e-001 -3.709335449236767e-001 8.717796088766215e-001 -3.709335449236767e-001 1.164600154408291e-001 2.315539046404000e-001
1.300000000000000e+008 1.316510978583705e-001 2.446048634574376e-001 8.547088051827616e-001 -3.955494094563132e-001 8.547088051827616e-001 -3.955494094563132e-001 1.316510978583705e-001 2.446048634574376e-001
1.400000000000000e+008 1.474041138575613e-001 2.565484328520558e-001 8.369326012824218e-001 -4.190639928020210e-001 8.369326012824218e-001 -4.190639928020210e-001 1.474041138575613e-001 2.565484328520558e-001
1.500000000000000e+008 1.636310989782959e-001 2.673736990717170e-001 8.185375938964896e-001 -4.414679943068230e-001 8.185375938964896e-001 -4.414679943068230e-001 1.636310989782959e-001 2.673736990717170e-001
1.600000000000000e+008 1.802460757497792e-001 2.770773130737506e-001 7.996082608391967e-001 -4.627596585821365e-001 7.996082608391967e-001 -4.627596585821365e-001 1.802460757497792e-001 2.770773130737506e-001
1.700000000000000e+008 1.971658178485709e-001 2.856629615113905e-001 7.802261708712749e-001 -4.829442431488811e-001 7.802261708712749e-001 -4.829442431488811e-001 1.971658178485709e-001 2.856629615113905e-001
1.800000000000000e+008 2.143104834704620e-001 2.931407640786086e-001 7.604693342681477e-001 -5.020334067879197e-001 7.604693342681477e-001 -5.020334067879197e-001 2.143104834704620e-001 2.931407640786086e-001
1.900000000000000e+008 2.316041228653349e-001 2.995266235340581e-001 7.404116865590602e-001 -5.200445488268126e-001 7.404116865590602e-001 -5.200445488268126e-001 2.316041228653349e-001 2.995266235340581e-001
2.000000000000000e+008 2.489750666063557e-001 3.048415511392856e-001 7.201226965311580e-001 -5.370001241578205e-001 7.201226965311580e-001 -5.370001241578205e-001 2.489750666063557e-001 3.048415511392856e-001
2.100000000000000e+008 2.663562028650850e-001 3.091109868562668e-001 6.996670883462587e-001 -5.529269542699397e-001 6.996670883462587e-001 -5.529269542699397e-001 2.663562028650850e-001 3.091109868562668e-001
2.200000000000000e+008 2.836851533894742e-001 3.123641303863400e-001 6.791046666579048e-001 -5.678555506638393e-001 6.791046666579048e-001 -5.678555506638393e-001 2.836851533894742e-001 3.123641303863400e-001
2.300000000000000e+008 3.009043588871403e-001 3.146332960202630e-001 6.584902330160976e-001 -5.818194635514556e-001 6.584902330160976e-001 -5.818194635514556e-001 3.009043588871403e-001 3.146332960202630e-001
2.400000000000000e+008 3.179610850697988e-001 3.159533013589503e-001 6.378735816188009e-001 -5.948546656581730e-001 6.378735816188009e-001 -5.948546656581730e-001 3.179610850697988e-001 3.159533013589503e-001
2.500000000000000e+008 3.348073607451299e-001 3.163608973071231e-001 6.172995625864135e-001 -6.069989782215468e-001 6.172995625864135e-001 -6.069989782215468e-001 3.348073607451299e-001 3.163608973071231e-001
2.600000000000000e+008 3.513998591095272e-001 3.158942443760106e-001 5.968082013489655e-001 -6.182915439078838e-001 5.968082013489655e-001 -6.182915439078838e-001 3.513998591095272e-001 3.158942443760106e-001
2.700000000000000e+008 3.676997328715739e-001 3.145924382781051e-001 5.764348633865227e-001 -6.287723493393103e-001 5.764348633865227e-001 -6.287723493393103e-001 3.676997328715739e-001 3.145924382781051e-001
2.800000000000000e+008 3.836724130962276e-001 3.124950860628661e-001 5.562104543890764e-001 -6.384817982276894e-001 5.562104543890764e-001 -6.384817982276894e-001 3.836724130962276e-001 3.124950860628661e-001
2.900000000000000e+008 3.992873807732420e-001 3.096419326193647e-001 5.361616468441133e-001 -6.474603347299426e-001 5.361616468441133e-001 -6.474603347299426e-001 3.992873807732420e-001 3.096419326193647e-001
3.000000000000000e+008 4.145179191418278e-001 3.060725362418962e-001 5.163111250651312e-001 -6.557481155481252e-001 5.163111250651312e-001 -6.557481155481252e-001 4.145179191418278e-001 3.060725362418962e-001
3.100000000000000e+008 4.293408537984691e-001 3.018259910918723e-001 4.966778416978459e-001 -6.633847284686965e-001 4.966778416978459e-001 -6.633847284686965e-001 4.293408537984691e-001 3.018259910918723e-001
3.200000000000000e+008 4.437362866173499e-001 2.969406937635483e-001 4.772772797464974e-001 -6.704089544375440e-001 4.772772797464974e-001 -6.704089544375440e-001 4.437362866173499e-001 2.969406937635483e-001
3.300000000000000e+008 4.576873285543859e-001 2.914541507401928e-001 4.581217151228539e-001 -6.768585698683206e-001 4.581217151228539e-001 -6.768585698683206e-001 4.576873285543859e-001 2.914541507401928e-001
3.400000000000000e+008 4.711798355087706e-001 2.854028232787034e-001 4.392204756154683e-001 -6.827701856495734e-001 4.392204756154683e-001 -6.827701856495734e-001 4.711798355087706e-001 2.854028232787034e-001
3.500000000000000e+008 4.842021505949978e-001 2.788220061534965e-001 4.205801929935316e-001 -6.881791192207812e-001 4.205801929935316e-001 -6.881791192207812e-001 4.842021505949978e-001 2.788220061534965e-001
3.600000000000000e+008 4.967448554418610e-001 2.717457366960143e-001 4.022050456911802e-001 -6.931192961008067e-001 4.022050456911802e-001 -6.931192961008067e-001 4.967448554418610e-001 2.717457366960143e-001
3.700000000000000e+008 5.088005324862065e-001 2.642067306587618e-001 3.840969901619398e-001 -6.976231773494654e-001 3.840969901619398e-001 -6.976231773494654e-001 5.088005324862065e-001 2.642067306587618e-001
3.800000000000000e+008 5.203635396675888e-001 2.562363415898578e-001 3.662559795502429e-001 -7.017217096020827e-001 3.662559795502429e-001 -7.017217096020827e-001 5.203635396675888e-001 2.562363415898578e-001
3.900000000000000e+008 5.314297984519454e-001 2.478645406065787e-001 3.486801688015093e-001 -7.054442945194176e-001 3.486801688015093e-001 -7.054442945194176e-001 5.314297984519454e-001 2.478645406065787e-001
4.000000000000000e+008 5.419965957125171e-001 2.391199136883031e-001 3.313661057297249e-001 -7.088187747257311e-001 3.313661057297249e-001 -7.088187747257311e-001 5.419965957125171e-001 2.391199136883031e-001
4.100000000000000e+008 5.520623996677899e-001 2.300296738576186e-001 3.143089078886100e-001 -7.118714335533873e-001 3.143089078886100e-001 -7.118714335533873e-001 5.520623996677899e-001 2.300296738576186e-001
4.200000000000000e+008 5.616266898119222e-001 2.206196858729207e-001 2.975024253566686e-001 -7.146270061632464e-001 2.975024253566686e-001 -7.146270061632464e-001 5.616266898119222e-001 2.206196858729207e-001
4.300000000000000e+008 5.706898005653754e-001 2.109145013085549e-001 2.809393897552537e-001 -7.171086998584754e-001 2.809393897552537e-001 -7.171086998584754e-001 5.706898005653754e-001 2.109145013085549e-001
4.400000000000000e+008 5.792527782149531e-001 2.009374021436102e-001 2.646115499796091e-001 -7.193382216495512e-001 2.646115499796091e-001 -7.193382216495512e-001 5.792527782149531e-001 2.009374021436102e-001
4.500000000000000e+008 5.873172505960499e-001 1.907104512135519e-001 2.485097952427421e-001 -7.213358113560718e-001 2.485097952427421e-001 -7.213358113560718e-001 5.873172505960499e-001 1.907104512135519e-001
4.600000000000000e+008 5.948853088892377e-001 1.802545480971794e-001 2.326242661174343e-001 -7.231202787437279e-001 2.326242661174343e-001 -7.231202787437279e-001 5.948853088892377e-001 1.802545480971794e-001
4.700000000000000e+008 6.019594008523045e-001 1.695894892131701e-001 2.169444543186656e-001 -7.247090433909100e-001 2.169444543186656e-001 -7.247090433909100e-001 6.019594008523045e-001 1.695894892131701e-001
4.800000000000000e+008 6.085422347823641e-001 1.587340310848745e-001 2.014592920025093e-001 -7.261181761580290e-001 2.014592920025093e-001 -7.261181761580290e-001 6.085422347823641e-001 1.587340310848745e-001
4.900000000000000e+008 6.146366934959965e-001 1.477059558988689e-001 1.861572313728129e-001 -7.273624412937185e-001 1.861572313728129e-001 -7.273624412937185e-001 6.146366934959965e-001 1.477059558988689e-001
5.000000000000000e+008 6.202457576245718e-001 1.365221386323959e-001 1.710263153877788e-001 -7.284553383560126e-001 1.710263153877788e-001 -7.284553383560126e-001 6.202457576245718e-001 1.365221386323959e-001
5.100000000000000e+008 6.253724375435639e-001 1.251986151578684e-001 1.560542403483919e-001 -7.294091432541017e-001 1.560542403483919e-001 -7.294091432541017e-001 6.253724375435639e-001 1.251986151578684e-001
5.200000000000000e+008 6.300197132858888e-001 1.137506508500103e-001 1.412284111324508e-001 -7.302349478284207e-001 1.412284111324508e-001 -7.302349478284207e-001 6.300197132858888e-001 1.137506508500103e-001
5.300000000000000e+008 6.341904818277695e-001 1.021928093240052e-001 1.265359898142333e-001 -7.309426974847064e-001 1.265359898142333e-001 -7.309426974847064e-001 6.341904818277695e-001 1.021928093240052e-001
5.400000000000000e+008 6.378875111793640e-001 9.053902102234541e-002 1.119639383826380e-001 -7.315412264826102e-001 1.119639383826380e-001 -7.315412264826102e-001 6.378875111793640e-001 9.053902102234541e-002
5.500000000000000e+008 6.411134007598262e-001 7.880265144504775e-002 9.749905624167976e-002 -7.320382905526812e-001 9.749905624167976e-002 -7.320382905526812e-001 6.411134007598262e-001 7.880265144504775e-002
5.600000000000000e+008 6.438705475864350e-001 6.699656888366412e-002 8.312801314785139e-002 -7.324405965784017e-001 8.312801314785139e-002 -7.324405965784017e-001 6.438705475864350e-001 6.699656888366412e-002
5.700000000000000e+008 6.461611178588683e-001 5.513321157509190e-002 6.883737821023055e-002 -7.327538291337093e-001 6.883737821023055e-002 -7.327538291337093e-001 6.461611178588683e-001 5.513321157509190e-002
5.800000000000000e+008 6.479870235720062e-001 4.322465423755577e-002 5.461364555215013e-002 -7.329826737122593e-001 5.461364555215013e-002 -7.329826737122593e-001 6.479870235720062e-001 4.322465423755577e-002
5.900000000000000e+008 6.493499038432088e-001 3.128267398918579e-002 4.044325720850073e-002 -7.331308365238346e-001 4.044325720850073e-002 -7.331308365238346e-001 6.493499038432088e-001 3.128267398918579e-002
6.000000000000000e+008 6.502511106925416e-001 1.931881568008317e-002 2.631262381076354e-002 -7.332010607668188e-001 2.631262381076354e-002 -7.332010607668188e-001 6.502511106925416e-001 1.931881568008317e-002
6.100000000000000e+008 6.506916990666435e-001 7.344456692342931e-003 1.220814359313362e-002 -7.331951393146323e-001 1.220814359313362e-002 -7.331951393146323e-001 6.506916990666435e-001 7.344456692342931e-003
6.200000000000000e+008 6.506724209486963e-001 -4.629128720304035e-003 -1.883779762175674e-003 -7.331139237795145e-001 -1.883779762175674e-003 -7.331139237795145e-001 6.506724209486963e-001 -4.629128720304035e-003
6.300000000000000e+008 6.501937234482821e-001 -1.659070547032071e-002 -1.597671993395269e-002 -7.329573299399128e-001 -1.597671993395269e-002 -7.329573299399128e-001 6.501937234482821e-001 -1.659070547032071e-002
6.400000000000000e+008 6.492557508157296e-001 -2.852901396315951e-002 -3.008421092665520e-002 -7.327243395390393e-001 -3.008421092665520e-002 -7.327243395390393e-001 6.492557508157296e-001 -2.852901396315951e-002
6.500000000000000e+008 6.478583503758695e-001 -4.043270662437357e-002 -4.421972969604839e-002 -7.324129984827225e-001 -4.421972969604839e-002 -7.324129984827225e-001 6.478583503758695e-001 -4.043270662437357e-002
6.600000000000000e+008 6.460010824260870e-001 -5.229028454365717e-002 -5.839667794137903e-002 -7.320204114854032e-001 -5.839667794137903e-002 -7.320204114854032e-001 6.460010824260870e-001 -5.229028454365717e-002
6.700000000000000e+008 6.436832341930636e-001 -6.409003416310741e-002 -7.262836256619930e-002 -7.315427332349233e-001 -7.262836256619930e-002 -7.315427332349233e-001 6.436832341930636e-001 -6.409003416310741e-002
6.800000000000000e+008 6.409038379917388e-001 -7.581996395327849e-002 -8.692797430300618e-002 -7.309751561704839e-001 -8.692797430300618e-002 -7.309751561704839e-001 6.409038379917388e-001 -7.581996395327849e-002
6.900000000000000e+008 6.376616937787513e-001 -8.746774104272836e-002 -1.013085639866534e-001 -7.303118949946872e-001 -1.013085639866534e-001 -7.303118949946872e-001 6.376616937787513e-001 -8.746774104272836e-002
7.000000000000000e+008 6.339553963407462e-001 -9.902062779510021e-002 -1.157830159483309e-001 -7.295461680709040e-001 -1.157830159483309e-001 -7.295461680709040e-001 6.339553963407462e-001 -9.902062779510021e-002
7.100000000000000e+008 6.297833674053908e-001 -1.104654183628300e-001 -1.303640179862607e-001 -7.286701758921488e-001 -1.303640179862607e-001 -7.286701758921488e-001 6.297833674053908e-001 -1.104654183628300e-001
7.200000000000000e+008 6.251438930092700e-001 -1.217883752888695e-001 -1.450640273516131e-001 -7.276750768483150e-001 -1.450640273516131e-001 -7.276750768483150e-001 6.251438930092700e-001 -1.217883752888695e-001
7.300000000000000e+008 6.200351665017222e-001 -1.329751662780207e-001 -1.598952321692270e-001 -7.265509605658425e-001 -1.598952321692270e-001 -7.265509605658425e-001 6.200351665017222e-001 -1.329751662780207e-001
7.400000000000000e+008 6.144553376064141e-001 -1.440108013183461e-001 -1.748695076933281e-001 -7.252868191488164e-001 -1.748695076933281e-001 -7.252868191488164e-001 6.144553376064141e-001 -1.440108013183461e-001
7.500000000000000e+008 6.084025680022600e-001 -1.548795704013927e-001 -1.899983667796306e-001 -7.238705167140835e-001 -1.899983667796306e-001 -7.238705167140835e-001 6.084025680022600e-001 -1.548795704013927e-001
7.600000000000000e+008 6.018750939211398e-001 -1.655649821685048e-001 -2.052929039381888e-001 -7.222887576862535e-001 -2.052929039381888e-001 -7.222887576862535e-001 6.018750939211398e-001 -1.655649821685048e-001
7.700000000000000e+008 5.948712962904079e-001 -1.760497039001472e-001 -2.207637323177201e-001 -7.205270544024466e-001 -2.207637323177201e-001 -7.205270544024466e-001 5.948712962904079e-001 -1.760497039001472e-001
7.800000000000000e+008 5.873897789718307e-001 -1.863155033666617e-001 -2.364209129635293e-001 -7.185696946722979e-001 -2.364209129635293e-001 -7.185696946722979e-001 5.873897789718307e-001 -1.863155033666617e-001
7.900000000000000e+008 5.794294556633376e-001 -1.963431931730399e-001 -2.522738756898845e-001 -7.163997100468433e-001 -2.522738756898845e-001 -7.163997100468433e-001 5.794294556633376e-001 -1.963431931730399e-001
8.000000000000000e+008 5.709896460335242e-001 -2.061125783576495e-001 -2.683313309161406e-001 -7.139988456712183e-001 -2.683313309161406e-001 -7.139988456712183e-001 5.709896460335242e-001 -2.061125783576495e-001
8.100000000000000e+008 5.620701816483914e-001 -2.156024081457900e-001 -2.846011718370146e-001 -7.113475327309972e-001 -2.846011718370146e-001 -7.113475327309972e-001 5.620701816483914e-001 -2.156024081457900e-001
8.200000000000000e+008 5.526715222221494e-001 -2.247903329135382e-001 -3.010903663345445e-001 -7.084248646506621e-001 -3.010903663345445e-001 -7.084248646506621e-001 5.526715222221494e-001 -2.247903329135382e-001
8.300000000000000e+008 5.427948826753987e-001 -2.336528675852314e-001 -3.178048380961819e-001 -7.052085783647439e-001 -3.178048380961819e-001 -7.052085783647439e-001 5.427948826753987e-001 -2.336528675852314e-001
8.400000000000000e+008 5.324423714104543e-001 -2.421653628681752e-001 -3.347493364844498e-001 -7.016750421567937e-001 -3.347493364844498e-001 -7.016750421567937e-001 5.324423714104543e-001 -2.421653628681752e-001
8.500000000000000e+008 5.216171401103961e-001 -2.503019859191523e-001 -3.519272948133292e-001 -6.977992517468939e-001 -3.519272948133292e-001 -6.977992517468939e-001 5.216171401103961e-001 -2.503019859191523e-001
8.600000000000000e+008 5.103235452306736e-001 -2.580357122365421e-001 -3.693406768301182e-001 -6.935548365023958e-001 -3.693406768301182e-001 -6.935548365023958e-001 5.103235452306736e-001 -2.580357122365421e-001
8.700000000000000e+008 4.985673211743447e-001 -2.653383307756663e-001 -3.869898113843157e-001 -6.889140778454079e-001 -3.869898113843157e-001 -6.889140778454079e-001 4.985673211743447e-001 -2.653383307756663e-001
8.800000000000000e+008 4.863557649189039e-001 -2.721804644885297e-001 -4.048732154927235e-001 -6.838479421293107e-001 -4.048732154927235e-001 -6.838479421293107e-001 4.863557649189039e-001 -2.721804644885297e-001
8.900000000000000e+008 4.736979315886045e-001 -2.785316086859123e-001 -4.229874062879134e-001 -6.783261304488512e-001 -4.229874062879134e-001 -6.783261304488512e-001 4.736979315886045e-001 -2.785316086859123e-001
9.000000000000000e+008 4.606048401360194e-001 -2.843601898016472e-001 -4.413267026708136e-001 -6.723171480259489e-001 -4.413267026708136e-001 -6.723171480259489e-001 4.606048401360194e-001 -2.843601898016472e-001
9.100000000000000e+008 4.470896879058056e-001 -2.896336472957659e-001 -4.598830178819565e-001 -6.657883959661189e-001 -4.598830178819565e-001 -6.657883959661189e-001 4.470896879058056e-001 -2.896336472957659e-001
9.200000000000000e+008 4.331680723987339e-001 -2.943185415526949e-001 -4.786456446634129e-001 -6.587062882961181e-001 -4.786456446634129e-001 -6.587062882961181e-001 4.331680723987339e-001 -2.943185415526949e-001
9.300000000000000e+008 4.188582180332640e-001 -2.983806906984942e-001 -4.976010352065239e-001 -6.510363972575979e-001 -4.976010352065239e-001 -6.510363972575979e-001 4.188582180332640e-001 -2.983806906984942e-001
9.400000000000000e+008 4.041812051157567e-001 -3.017853392604620e-001 -5.167325786686423e-001 -6.427436298275187e-001 -5.167325786686423e-001 -6.427436298275187e-001 4.041812051157567e-001 -3.017853392604620e-001
