! Touchstone generated by fitter/viewer 
# HZ S  RI R 5.000000e+001
! 
1.000000000000000e+007 -5.765278951153086e-005 -2.038232611168133e-003 9.995981220939968e-001 -2.827430971985233e-002 9.995981220939968e-001 -2.827430971985233e-002 -5.765278951153086e-005 -2.038232611168133e-003
2.000000000000000e+007 -2.304248852591506e-004 -4.069930603917219e-003 9.983928379913989e-001 -5.652542451616027e-002 9.983928379913989e-001 -5.652542451616027e-002 -2.304248852591506e-004 -4.069930603917219e-003
3.000000000000000e+007 -5.177580983013463e-004 -6.088580796326641e-003 9.963851960419580e-001 -8.473017301331895e-002 9.963851960419580e-001 -8.473017301331895e-002 -5.177580983013463e-004 -6.088580796326641e-003
4.000000000000000e+007 -9.187242093227077e-004 -8.087712802908724e-003 9.935769418423487e-001 -1.128654308752298e-001 9.935769418423487e-001 -1.128654308752298e-001 -9.187242093227077e-004 -8.087712802908724e-003
5.000000000000000e+007 -1.432028103343530e-003 -1.006092024176891e-002 9.899705157639249e-001 -1.409081441844593e-001 9.899705157639249e-001 -1.409081441844593e-001 -1.432028103343530e-003 -1.006092024176891e-002
6.000000000000000e+007 -2.056012141026020e-003 -1.200188171348548e-002 9.855690495057849e-001 -1.688353526536277e-001 9.855690495057849e-001 -1.688353526536277e-001 -2.056012141026020e-003 -1.200188171348548e-002
7.000000000000000e+007 -2.788661749405730e-003 -1.390438147725268e-002 9.803763616872067e-001 -1.966242126146662e-001 9.803763616872067e-001 -1.966242126146662e-001 -2.788661749405730e-003 -1.390438147725268e-002
8.000000000000000e+007 -3.627612210144404e-003 -1.576232975121888e-002 9.743969524973790e-001 -2.242520197329061e-001 9.743969524973790e-001 -2.242520197329061e-001 -3.627612210144404e-003 -1.576232975121888e-002
9.000000000000000e+007 -4.570156618783683e-003 -1.756978256566704e-002 9.676359974240494e-001 -2.516962313945925e-001 9.676359974240494e-001 -2.516962313945925e-001 -4.570156618783683e-003 -1.756978256566704e-002
1.000000000000000e+008 -5.613254984022653e-003 -1.932096109971542e-002 9.600993400862754e-001 -2.789344887183474e-001 9.600993400862754e-001 -2.789344887183474e-001 -5.613254984022653e-003 -1.932096109971542e-002
1.100000000000000e+008 -6.753544431747027e-003 -2.101027043454764e-002 9.517934841998199e-001 -3.059446381433122e-001 9.517934841998199e-001 -3.059446381433122e-001 -6.753544431747027e-003 -2.101027043454764e-002
1.200000000000000e+008 -7.987350474448984e-003 -2.263231765879607e-002 9.427255847069094e-001 -3.327047525491714e-001 9.427255847069094e-001 -3.327047525491714e-001 -7.987350474448984e-003 -2.263231765879607e-002
1.300000000000000e+008 -9.310699302801595e-003 -2.418192926458289e-002 9.329034381049971e-001 -3.591931518659716e-001 9.329034381049971e-001 -3.591931518659716e-001 -9.310699302801595e-003 -2.418192926458289e-002
1.400000000000000e+008 -1.071933105250555e-002 -2.565416777584838e-002 9.223354720118683e-001 -3.853884231345817e-001 9.223354720118683e-001 -3.853884231345817e-001 -1.071933105250555e-002 -2.565416777584838e-002
1.500000000000000e+008 -1.220871399613976e-002 -2.704434755394401e-002 9.110307340068332e-001 -4.112694399817626e-001 9.110307340068332e-001 -4.112694399817626e-001 -1.220871399613976e-002 -2.704434755394401e-002
1.600000000000000e+008 -1.377405960662315e-002 -2.834804972901856e-002 8.989988797899098e-001 -4.368153814771197e-001 8.989988797899098e-001 -4.368153814771197e-001 -1.377405960662315e-002 -2.834804972901856e-002
1.700000000000000e+008 -1.541033843604511e-002 -2.956113620945061e-002 8.862501607027336e-001 -4.620057503426465e-001 8.862501607027336e-001 -4.620057503426465e-001 -1.541033843604511e-002 -2.956113620945061e-002
1.800000000000000e+008 -1.711229675106640e-002 -3.067976272546083e-002 8.727954106564860e-001 -4.868203904891299e-001 8.727954106564860e-001 -4.868203904891299e-001 -1.711229675106640e-002 -3.067976272546083e-002
1.900000000000000e+008 -1.887447386382601e-002 -3.170039086704439e-002 8.586460325133649e-001 -5.112395038573383e-001 8.586460325133649e-001 -5.112395038573383e-001 -1.887447386382601e-002 -3.170039086704439e-002
2.000000000000000e+008 -2.069122009532198e-002 -3.261979908047350e-002 8.438139839690481e-001 -5.352436665456206e-001 8.438139839690481e-001 -5.352436665456206e-001 -2.069122009532198e-002 -3.261979908047350e-002
2.100000000000000e+008 -2.255671530657599e-002 -3.343509259180923e-002 8.283117629841971e-001 -5.588138442092916e-001 8.283117629841971e-001 -5.588138442092916e-001 -2.255671530657599e-002 -3.343509259180923e-002
2.200000000000000e+008 -2.446498793152507e-002 -3.414371223010237e-002 8.121523928133559e-001 -5.819314067209280e-001 8.121523928133559e-001 -5.819314067209280e-001 -2.446498793152507e-002 -3.414371223010237e-002
2.300000000000000e+008 -2.640993444452877e-002 -3.474344212723532e-002 7.953494066795572e-001 -6.045781420844321e-001 7.953494066795572e-001 -6.045781420844321e-001 -2.640993444452877e-002 -3.474344212723532e-002
2.400000000000000e+008 -2.838533919460762e-002 -3.523241627563335e-002 7.779168321426323e-001 -6.267362695993900e-001 7.779168321426323e-001 -6.267362695993900e-001 -2.838533919460762e-002 -3.523241627563335e-002
2.500000000000000e+008 -3.038489453806803e-002 -3.560912392933550e-002 7.598691752085929e-001 -6.483884522758777e-001 7.598691752085929e-001 -6.483884522758777e-001 -3.038489453806803e-002 -3.560912392933550e-002
2.600000000000000e+008 -3.240222120096181e-002 -3.587241383813808e-002 7.412214042265251e-001 -6.695178085033496e-001 7.412214042265251e-001 -6.695178085033496e-001 -3.240222120096181e-002 -3.587241383813808e-002
2.700000000000000e+008 -3.443088880292611e-002 -3.602149730868986e-002 7.219889336182468e-001 -6.901079229806507e-001 7.219889336182468e-001 -6.901079229806507e-001 -3.443088880292611e-002 -3.602149730868986e-002
2.800000000000000e+008 -3.646443647427899e-002 -3.605595009050801e-002 7.021876074845261e-001 -7.101428569174241e-001 7.021876074845261e-001 -7.101428569174241e-001 -3.646443647427899e-002 -3.605595009050801e-002
2.900000000000000e+008 -3.849639349885226e-002 -3.597571308887970e-002 6.818336831299396e-001 -7.296071575202573e-001 6.818336831299396e-001 -7.296071575202573e-001 -3.849639349885226e-002 -3.597571308887970e-002
3.000000000000000e+008 -4.052029991586403e-002 -3.578109191050217e-002 6.609438145465189e-001 -7.484858667798057e-001 6.609438145465189e-001 -7.484858667798057e-001 -4.052029991586403e-002 -3.578109191050217e-002
3.100000000000000e+008 -4.252972701519009e-002 -3.547275525147926e-002 6.395350358941911e-001 -7.667645295778214e-001 6.395350358941911e-001 -7.667645295778214e-001 -4.252972701519009e-002 -3.547275525147926e-002
3.200000000000000e+008 -4.451829766164939e-002 -3.505173214092246e-002 6.176247450136608e-001 -7.844292011354754e-001 6.176247450136608e-001 -7.844292011354754e-001 -4.451829766164939e-002 -3.505173214092246e-002
3.300000000000000e+008 -4.647970638537124e-002 -3.451940805689035e-002 5.952306870048888e-001 -8.014664538266214e-001 5.952306870048888e-001 -8.014664538266214e-001 -4.647970638537124e-002 -3.451940805689035e-002
3.400000000000000e+008 -4.840773917693220e-002 -3.387751993473227e-002 5.723709379016408e-001 -8.178633833816292e-001 5.723709379016408e-001 -8.178633833816292e-001 -4.840773917693220e-002 -3.387751993473227e-002
3.500000000000000e+008 -5.029629292774107e-002 -3.312815009107357e-002 5.490638884698064e-001 -8.336076145091802e-001 5.490638884698064e-001 -8.336076145091802e-001 -5.029629292774107e-002 -3.312815009107357e-002
3.600000000000000e+008 -5.213939445806792e-002 -3.227371908968636e-002 5.253282281542767e-001 -8.486873059648965e-001 5.253282281542767e-001 -8.486873059648965e-001 -5.213939445806792e-002 -3.227371908968636e-002
3.700000000000000e+008 -5.393121907717702e-002 -3.131697757832651e-002 5.011829291962053e-001 -8.630911550969107e-001 5.011829291962053e-001 -8.630911550969107e-001 -5.393121907717702e-002 -3.131697757832651e-002
3.800000000000000e+008 -5.566610862217813e-002 -3.026099712828470e-002 4.766472309394297e-001 -8.768084018994343e-001 4.766472309394297e-001 -8.768084018994343e-001 -5.566610862217813e-002 -3.026099712828470e-002
3.900000000000000e+008 -5.733858892447996e-002 -2.910916011089359e-002 4.517406243417586e-001 -8.898288326060840e-001 4.517406243417586e-001 -8.898288326060840e-001 -5.733858892447996e-002 -2.910916011089359e-002
4.000000000000000e+008 -5.894338665507015e-002 -2.786514864755826e-002 4.264828367037477e-001 -9.021427828551337e-001 4.264828367037477e-001 -9.021427828551337e-001 -5.894338665507015e-002 -2.786514864755826e-002
4.100000000000000e+008 -6.047544550225559e-002 -2.653293267203250e-002 4.008938166244922e-001 -9.137411404590323e-001 4.008938166244922e-001 -9.137411404590323e-001 -6.047544550225559e-002 -2.653293267203250e-002
4.200000000000000e+008 -6.192994163796861e-002 -2.511675714565500e-002 3.749937191909328e-001 -9.246153478104048e-001 3.749937191909328e-001 -9.246153478104048e-001 -6.192994163796861e-002 -2.511675714565500e-002
4.300000000000000e+008 -6.330229843125856e-002 -2.362112846808848e-002 3.488028914041467e-001 -9.347574039564068e-001 3.488028914041467e-001 -9.347574039564068e-001 -6.330229843125856e-002 -2.362112846808848e-002
4.400000000000000e+008 -6.458820037012480e-002 -2.205080012777890e-002 3.223418578431914e-001 -9.441598663726780e-001 3.223418578431914e-001 -9.441598663726780e-001 -6.458820037012480e-002 -2.205080012777890e-002
4.500000000000000e+008 -6.578360615543044e-002 -2.041075763787485e-002 2.956313065642065e-001 -9.528158524672938e-001 2.956313065642065e-001 -9.528158524672938e-001 -6.578360615543044e-002 -2.041075763787485e-002
4.600000000000000e+008 -6.688476093320839e-002 -1.870620280472615e-002 2.686920752297619e-001 -9.607190408440234e-001 2.686920752297619e-001 -9.607190408440234e-001 -6.688476093320839e-002 -1.870620280472615e-002
4.700000000000000e+008 -6.788820763427905e-002 -1.694253737732200e-002 2.415451374608290e-001 -9.678636723529053e-001 2.415451374608290e-001 -9.678636723529053e-001 -6.788820763427905e-002 -1.694253737732200e-002
4.800000000000000e+008 -6.879079739268024e-002 -1.512534612713927e-002 2.142115894012898e-001 -9.742445509546288e-001 2.142115894012898e-001 -9.742445509546288e-001 -6.879079739268024e-002 -1.512534612713927e-002
4.900000000000000e+008 -6.958969901701928e-002 -1.326037940885799e-002 1.867126364825951e-001 -9.798570444235079e-001 1.867126364825951e-001 -9.798570444235079e-001 -6.958969901701928e-002 -1.326037940885799e-002
5.000000000000000e+008 -7.028240749143278e-002 -1.135353525326975e-002 1.590695803740432e-001 -9.846970849119470e-001 1.590695803740432e-001 -9.846970849119470e-001 -7.028240749143278e-002 -1.135353525326975e-002
5.100000000000000e+008 -7.086675148542487e-002 -9.410841044464125e-003 1.313038061022134e-001 -9.887611693972470e-001 1.313038061022134e-001 -9.887611693972470e-001 -7.086675148542487e-002 -9.410841044464125e-003
5.200000000000000e+008 -7.134089985441672e-002 -7.438434834031198e-003 1.034367693213164e-001 -9.920463600293844e-001 1.034367693213164e-001 -9.920463600293844e-001 -7.134089985441672e-002 -7.438434834031198e-003
5.300000000000000e+008 -7.170336711540326e-002 -5.442546345575344e-003 7.548998371469885e-002 -9.945502843960904e-001 7.548998371469885e-002 -9.945502843960904e-001 -7.170336711540326e-002 -5.442546345575344e-003
5.400000000000000e+008 -7.195301788464570e-002 -3.429477723297231e-003 4.748500850638696e-002 -9.962711357190800e-001 4.748500850638696e-002 -9.962711357190800e-001 -7.195301788464570e-002 -3.429477723297231e-003
5.500000000000000e+008 -7.208907026687084e-002 -1.405584078776068e-003 1.944343606046046e-002 -9.972076729927515e-001 1.944343606046046e-002 -9.972076729927515e-001 -7.208907026687084e-002 -1.405584078776068e-003
5.600000000000000e+008 -7.211109818796202e-002 6.227461096264121e-004 -8.613120454842546e-003 -9.973592210740520e-001 -8.613120454842546e-003 -9.973592210740520e-001 -7.211109818796202e-002 6.227461096264121e-004
5.700000000000000e+008 -7.201903266564957e-002 2.649110690108967e-003 -3.666303936202362e-002 -9.967256707295116e-001 -3.666303936202362e-002 -9.967256707295116e-001 -7.201903266564957e-002 2.649110690108967e-003
5.800000000000000e+008 -7.181316201520738e-002 4.667113568760312e-003 -6.468470275237866e-002 -9.953074786427311e-001 -6.468470275237866e-002 -9.953074786427311e-001 -7.181316201520738e-002 4.667113568760312e-003
5.900000000000000e+008 -7.149413098967439e-002 6.670384424060402e-003 -9.265650877151614e-002 -9.931056673828524e-001 -9.265650877151614e-002 -9.931056673828524e-001 -7.149413098967439e-002 6.670384424060402e-003
6.000000000000000e+008 -7.106293885662240e-002 8.652598349763441e-003 -1.205568839365871e-001 -9.901218253317909e-001 -1.205568839365871e-001 -9.901218253317909e-001 -7.106293885662240e-002 8.652598349763441e-003
6.100000000000000e+008 -7.052093641599844e-002 1.060749537147165e-002 -1.483642955091429e-001 -9.863581065652730e-001 -1.483642955091429e-001 -9.863581065652730e-001 -7.052093641599844e-002 1.060749537147165e-002
6.200000000000000e+008 -6.986982196608005e-002 1.252889978238851e-002 -1.760572639470005e-001 -9.818172306800119e-001 -1.760572639470005e-001 -9.818172306800119e-001 -6.986982196608005e-002 1.252889978238851e-002
6.300000000000000e+008 -6.911163622710359e-002 1.441073924399746e-002 -2.036143754576931e-001 -9.765024825567149e-001 -2.036143754576931e-001 -9.765024825567149e-001 -6.911163622710359e-002 1.441073924399746e-002
6.400000000000000e+008 -6.824875623465321e-002 1.624706359775412e-002 -2.310142946750662e-001 -9.704177120460319e-001 -2.310142946750662e-001 -9.704177120460319e-001 -6.824875623465321e-002 1.624706359775412e-002
6.500000000000000e+008 -6.728388821743248e-002 1.803206333430811e-002 -2.582357774793364e-001 -9.635673335620582e-001 -2.582357774793364e-001 -9.635673335620582e-001 -6.728388821743248e-002 1.803206333430811e-002
6.600000000000000e+008 -6.622005947660092e-002 1.976008766728961e-002 -2.852576839794588e-001 -9.559563255656463e-001 -2.852576839794588e-001 -9.559563255656463e-001 -6.622005947660092e-002 1.976008766728961e-002
6.700000000000000e+008 -6.506060928641011e-002 2.142566215931178e-002 -3.120589916749808e-001 -9.475902299175052e-001 -3.120589916749808e-001 -9.475902299175052e-001 -6.506060928641011e-002 2.142566215931178e-002
6.800000000000000e+008 -6.380917883845316e-002 2.302350584855718e-002 -3.386188088126777e-001 -9.384751510789653e-001 -3.386188088126777e-001 -9.384751510789653e-001 -6.380917883845316e-002 2.302350584855718e-002
6.900000000000000e+008 -6.246970025442811e-002 2.454854782514247e-002 -3.649163879512098e-001 -9.286177551363321e-001 -3.649163879512098e-001 -9.286177551363321e-001 -6.246970025442811e-002 2.454854782514247e-002
7.000000000000000e+008 -6.104638469490142e-002 2.599594320739545e-002 -3.909311397447905e-001 -9.180252686229714e-001 -3.909311397447905e-001 -9.180252686229714e-001 -6.104638469490142e-002 2.599594320739545e-002
7.100000000000000e+008 -5.954370959415800e-002 2.736108846924068e-002 -4.166426469544628e-001 -9.067054771116825e-001 -4.166426469544628e-001 -9.067054771116825e-001 -5.954370959415800e-002 2.736108846924068e-002
7.200000000000000e+008 -5.796640505382067e-002 2.863963607107897e-002 -4.420306786930101e-001 -8.946667235485228e-001 -4.420306786930101e-001 -8.946667235485228e-001 -5.796640505382067e-002 2.863963607107897e-002
7.300000000000000e+008 -5.631943943050666e-002 2.982750834787236e-002 -4.670752049068734e-001 -8.819179062980824e-001 -4.670752049068734e-001 -8.819179062980824e-001 -5.631943943050666e-002 2.982750834787236e-002
7.400000000000000e+008 -5.460800415537137e-002 3.092091060961113e-002 -4.917564110956065e-001 -8.684684768692573e-001 -4.917564110956065e-001 -8.684684768692573e-001 -5.460800415537137e-002 3.092091060961113e-002
7.500000000000000e+008 -5.283749782594382e-002 3.191634341095621e-002 -5.160547132665440e-001 -8.543284372898705e-001 -5.160547132665440e-001 -8.543284372898705e-001 -5.283749782594382e-002 3.191634341095621e-002
7.600000000000000e+008 -5.101350961318141e-002 3.281061394861731e-002 -5.399507731193498e-001 -8.395083370980168e-001 -5.399507731193498e-001 -8.395083370980168e-001 -5.101350961318141e-002 3.281061394861731e-002
7.700000000000000e+008 -4.914180202916518e-002 3.360084654695645e-002 -5.634255134520967e-001 -8.240192699178192e-001 -5.634255134520967e-001 -8.240192699178192e-001 -4.914180202916518e-002 3.360084654695645e-002
7.800000000000000e+008 -4.722829310328347e-002 3.428449219439787e-002 -5.864601337774517e-001 -8.078728695873231e-001 -5.864601337774517e-001 -8.078728695873231e-001 -4.722829310328347e-002 3.428449219439787e-002
7.900000000000000e+008 -4.527903801713040e-002 3.485933709548431e-002 -6.090361261344492e-001 -7.910813058065840e-001 -6.090361261344492e-001 -7.910813058065840e-001 -4.527903801713040e-002 3.485933709548431e-002
8.000000000000000e+008 -4.330021025063591e-002 3.532351020584874e-002 -6.311352910782595e-001 -7.736572792745822e-001 -6.311352910782595e-001 -7.736572792745822e-001 -4.330021025063591e-002 3.532351020584874e-002
8.100000000000000e+008 -4.129808229414955e-002 3.567548971997125e-002 -6.527397538272987e-001 -7.556140162844675e-001 -6.527397538272987e-001 -7.556140162844675e-001 -4.129808229414955e-002 3.567548971997125e-002
8.200000000000000e+008 -3.927900598330147e-002 3.591410848436125e-002 -6.738319805440211e-001 -7.369652627477492e-001 -6.738319805440211e-001 -7.369652627477492e-001 -3.927900598330147e-002 3.591410848436125e-002
8.300000000000000e+008 -3.724939251543225e-002 3.603855831174783e-002 -6.943947947228221e-001 -7.177252776194328e-001 -6.943947947228221e-001 -7.177252776194328e-001 -3.724939251543225e-002 3.603855831174783e-002
8.400000000000000e+008 -3.521569220823695e-002 3.604839317496819e-002 -7.144113936556125e-001 -6.979088256977719e-001 -7.144113936556125e-001 -6.979088256977719e-001 -3.521569220823695e-002 3.604839317496819e-002
8.500000000000000e+008 -3.318437406294650e-002 3.594353126251601e-002 -7.338653649429511e-001 -6.775311697741884e-001 -7.338653649429511e-001 -6.775311697741884e-001 -3.318437406294650e-002 3.594353126251601e-002
8.600000000000000e+008 -3.116190519589202e-002 3.572425588113769e-002 -7.527407030160103e-001 -6.566080621110770e-001 -7.527407030160103e-001 -6.566080621110770e-001 -3.116190519589202e-002 3.572425588113769e-002
8.700000000000000e+008 -2.915473020363457e-002 3.539121519444109e-002 -7.710218256322745e-001 -6.351557352275805e-001 -7.710218256322745e-001 -6.351557352275805e-001 -2.915473020363457e-002 3.539121519444109e-002
8.800000000000000e+008 -2.716925052797081e-002 3.494542079019514e-002 -7.886935903056166e-001 -6.131908919760475e-001 -7.886935903056166e-001 -6.131908919760475e-001 -2.716925052797081e-002 3.494542079019514e-002
8.900000000000000e+008 -2.521180388804889e-002 3.438824507284059e-002 -8.057413106293919e-001 -5.907306948946791e-001 -8.057413106293919e-001 -5.907306948946791e-001 -2.521180388804889e-002 3.438824507284059e-002
9.000000000000000e+008 -2.328864384750862e-002 3.372141748168858e-002 -8.221507724493935e-001 -5.677927548248880e-001 -8.221507724493935e-001 -5.677927548248880e-001 -2.328864384750862e-002 3.372141748168858e-002
9.100000000000000e+008 -2.140591958500915e-002 3.294701953933905e-002 -8.379082498419429e-001 -5.443951187850670e-001 -8.379082498419429e-001 -5.443951187850670e-001 -2.140591958500915e-002 3.294701953933905e-002
9.200000000000000e+008 -1.956965593668292e-002 3.206747873898981e-002 -8.530005208511068e-001 -5.205562570957960e-001 -8.530005208511068e-001 -5.205562570957960e-001 -1.956965593668292e-002 3.206747873898981e-002
9.300000000000000e+008 -1.778573377898129e-002 3.108556128351024e-002 -8.674148829379913e-001 -4.962950497549850e-001 -8.674148829379913e-001 -4.962950497549850e-001 -1.778573377898129e-002 3.108556128351024e-002
