! Touchstone generated by fitter/viewer 
# HZ S  RI R 5.000000e+001
! 
1.000000000000000e+007 4.189878398364044e-004 1.251548750622966e-002 9.991703872812787e-001 -2.996717984158735e-002 9.991703872812787e-001 -2.996717984158735e-002 4.189878398364044e-004 1.251548750622966e-002
2.000000000000000e+007 1.480256479118980e-003 2.499588026519706e-002 9.974006617715245e-001 -5.965852152375719e-002 9.974006617715245e-001 -5.965852152375719e-002 1.480256479118980e-003 2.499588026519706e-002
3.000000000000000e+007 3.265272082672133e-003 3.740538573977634e-002 9.946181042343710e-001 -8.918369286847264e-002 9.946181042343710e-001 -8.918369286847264e-002 3.265272082672133e-003 3.740538573977634e-002
4.000000000000000e+007 5.770256740044943e-003 4.969106122152190e-002 9.908220027552055e-001 -1.185177882725081e-001 9.908220027552055e-001 -1.185177882725081e-001 5.770256740044943e-003 4.969106122152190e-002
5.000000000000000e+007 8.987268230991607e-003 6.180504604817606e-002 9.860232274131178e-001 -1.476219431044805e-001 9.860232274131178e-001 -1.476219431044805e-001 8.987268230991607e-003 6.180504604817606e-002
6.000000000000000e+007 1.290410073481929e-002 7.369971181198623e-002 9.802375374020192e-001 -1.764561207134424e-001 9.802375374020192e-001 -1.764561207134424e-001 1.290410073481929e-002 7.369971181198623e-002
7.000000000000000e+007 1.750365617496685e-002 8.532888866985403e-002 9.734830744331924e-001 -2.049803192318925e-001 9.734830744331924e-001 -2.049803192318925e-001 1.750365617496685e-002 8.532888866985403e-002
8.000000000000000e+007 2.276476494734026e-002 9.664884787620920e-002 9.657802757348897e-001 -2.331547859237907e-001 9.657802757348897e-001 -2.331547859237907e-001 2.276476494734026e-002 9.664884787620920e-002
9.000000000000000e+007 2.866304854168111e-002 1.076185723760507e-001 9.571521089827613e-001 -2.609405146820798e-001 9.571521089827613e-001 -2.609405146820798e-001 2.866304854168111e-002 1.076185723760507e-001
1.000000000000000e+008 3.517149783569340e-002 1.181997471684905e-001 9.476241114744413e-001 -2.882998248766766e-001 9.476241114744413e-001 -2.882998248766766e-001 3.517149783569340e-002 1.181997471684905e-001
1.100000000000000e+008 4.226083607558817e-002 1.283567151169374e-001 9.372242373301276e-001 -3.151968558729473e-001 9.372242373301276e-001 -3.151968558729473e-001 4.226083607558817e-002 1.283567151169374e-001
1.200000000000000e+008 4.989977529423972e-002 1.380564710840868e-001 9.259825981814811e-001 -3.415979354800766e-001 9.259825981814811e-001 -3.415979354800766e-001 4.989977529423972e-002 1.380564710840868e-001
1.300000000000000e+008 5.805523585360806e-002 1.472686949534376e-001 9.139311603508006e-001 -3.674718350163559e-001 9.139311603508006e-001 -3.674718350163559e-001 5.805523585360806e-002 1.472686949534376e-001
1.400000000000000e+008 6.669256255659872e-002 1.559658050171401e-001 9.011034325433648e-001 -3.927899359411208e-001 9.011034325433648e-001 -3.927899359411208e-001 6.669256255659872e-002 1.559658050171401e-001
1.500000000000000e+008 7.577574925931718e-002 1.641230135436612e-001 8.875341598413129e-001 -4.175263301957793e-001 8.875341598413129e-001 -4.175263301957793e-001 7.577574925931718e-002 1.641230135436612e-001
1.600000000000000e+008 8.526767324366802e-002 1.717183715261104e-001 8.732590305051123e-001 -4.416578705324888e-001 8.732590305051123e-001 -4.416578705324888e-001 8.526767324366802e-002 1.717183715261104e-001
1.700000000000000e+008 9.513033605129750e-002 1.787327947572542e-001 8.583143979416450e-001 -4.651641820314938e-001 8.583143979416450e-001 -4.651641820314938e-001 9.513033605129750e-002 1.787327947572542e-001
1.800000000000000e+008 1.053251059934227e-001 1.851500673020607e-001 8.427370185864849e-001 -4.880276424301316e-001 8.427370185864849e-001 -4.880276424301316e-001 1.053251059934227e-001 1.851500673020607e-001
1.900000000000000e+008 1.158129574937968e-001 1.909568211456519e-001 8.265638059598869e-001 -5.102333365894691e-001 8.265638059598869e-001 -5.102333365894691e-001 1.158129574937968e-001 1.909568211456519e-001
2.000000000000000e+008 1.265547029695016e-001 1.961424925604826e-001 8.098316010994565e-001 -5.317689890305428e-001 8.098316010994565e-001 -5.317689890305428e-001 1.265547029695016e-001 1.961424925604826e-001
2.100000000000000e+008 1.375112137104148e-001 2.006992568356172e-001 7.925769596329568e-001 -5.526248776608166e-001 7.925769596329568e-001 -5.526248776608166e-001 1.375112137104148e-001 2.006992568356172e-001
2.200000000000000e+008 1.486436270001065e-001 2.046219436541256e-001 7.748359558026280e-001 -5.727937313544228e-001 7.748359558026280e-001 -5.727937313544228e-001 1.486436270001065e-001 2.046219436541256e-001
2.300000000000000e+008 1.599135374492959e-001 2.079079357407417e-001 7.566440037447757e-001 -5.922706137955347e-001 7.566440037447757e-001 -5.922706137955347e-001 1.599135374492959e-001 2.079079357407417e-001
2.400000000000000e+008 1.712831711580488e-001 2.105570535328699e-001 7.380356962608708e-001 -6.110527958463852e-001 7.380356962608708e-001 -6.110527958463852e-001 1.712831711580488e-001 2.105570535328699e-001
2.500000000000000e+008 1.827155418780747e-001 2.125714286227988e-001 7.190446612001635e-001 -6.291396186009257e-001 7.190446612001635e-001 -6.291396186009257e-001 1.827155418780747e-001 2.125714286227988e-001
2.600000000000000e+008 1.941745888153438e-001 2.139553686240542e-001 6.997034354249209e-001 -6.465323491972065e-001 6.997034354249209e-001 -6.465323491972065e-001 1.941745888153438e-001 2.139553686240542e-001
2.700000000000000e+008 2.056252961033893e-001 2.147152159618884e-001 6.800433561636491e-001 -6.632340313674106e-001 6.800433561636491e-001 -6.632340313674106e-001 2.056252961033893e-001 2.147152159618884e-001
2.800000000000000e+008 2.170337942977516e-001 2.148592028985729e-001 6.600944693886635e-001 -6.792493325954438e-001 6.600944693886635e-001 -6.792493325954438e-001 2.170337942977516e-001 2.148592028985729e-001
2.900000000000000e+008 2.283674445003683e-001 2.143973048935085e-001 6.398854546928821e-001 -6.945843896255646e-001 6.398854546928821e-001 -6.945843896255646e-001 2.283674445003683e-001 2.143973048935085e-001
3.000000000000000e+008 2.395949059270115e-001 2.133410941768098e-001 6.194435659944324e-001 -7.092466539230473e-001 6.194435659944324e-001 -7.092466539230473e-001 2.395949059270115e-001 2.133410941768098e-001
3.100000000000000e+008 2.506861878878718e-001 2.117035951905755e-001 5.987945872717916e-001 -7.232447385325593e-001 5.987945872717916e-001 -7.232447385325593e-001 2.506861878878718e-001 2.117035951905755e-001
3.200000000000000e+008 2.616126872671080e-001 2.094991433301703e-001 5.779628024296466e-001 -7.365882676160622e-001 5.779628024296466e-001 -7.365882676160622e-001 2.616126872671080e-001 2.094991433301703e-001
3.300000000000000e+008 2.723472126670525e-001 2.067432482026625e-001 5.569709783176019e-001 -7.492877297840269e-001 5.569709783176019e-001 -7.492877297840269e-001 2.723472126670525e-001 2.067432482026625e-001
3.400000000000000e+008 2.828639964315614e-001 2.034524624141602e-001 5.358403598701110e-001 -7.613543361657920e-001 5.358403598701110e-001 -7.613543361657920e-001 2.828639964315614e-001 2.034524624141602e-001
3.500000000000000e+008 2.931386957851776e-001 1.996442567045022e-001 5.145906763053195e-001 -7.727998840007799e-001 5.145906763053195e-001 -7.727998840007799e-001 2.931386957851776e-001 1.996442567045022e-001
3.600000000000000e+008 3.031483843243858e-001 1.953369020681344e-001 4.932401573110049e-001 -7.836366263750826e-001 4.932401573110049e-001 -7.836366263750826e-001 3.031483843243858e-001 1.953369020681344e-001
3.700000000000000e+008 3.128715350779462e-001 1.905493593351776e-001 4.718055581551333e-001 -7.938771485802173e-001 4.718055581551333e-001 -7.938771485802173e-001 3.128715350779462e-001 1.905493593351776e-001
3.800000000000000e+008 3.222879963185843e-001 1.853011765372452e-001 4.503021926841175e-001 -8.035342514344673e-001 4.503021926841175e-001 -8.035342514344673e-001 3.222879963185843e-001 1.853011765372452e-001
3.900000000000000e+008 3.313789612612128e-001 1.796123942486585e-001 4.287439732110568e-001 -8.126208417834149e-001 4.287439732110568e-001 -8.126208417834149e-001 3.313789612612128e-001 1.796123942486585e-001
4.000000000000000e+008 3.401269327262846e-001 1.735034589752913e-001 4.071434563463720e-001 -8.211498302858618e-001 4.071434563463720e-001 -8.211498302858618e-001 3.401269327262846e-001 1.735034589752913e-001
4.100000000000000e+008 3.485156837832714e-001 1.669951445598416e-001 3.855118938819006e-001 -8.291340364946047e-001 3.855118938819006e-001 -8.291340364946047e-001 3.485156837832714e-001 1.669951445598416e-001
4.200000000000000e+008 3.565302153209424e-001 1.601084814832799e-001 3.638592879043240e-001 -8.365861011583724e-001 3.638592879043240e-001 -8.365861011583724e-001 3.565302153209424e-001 1.601084814832799e-001
4.300000000000000e+008 3.641567114199686e-001 1.528646938666908e-001 3.421944493827293e-001 -8.435184056013746e-001 3.421944493827293e-001 -8.435184056013746e-001 3.641567114199686e-001 1.528646938666908e-001
4.400000000000000e+008 3.713824933311403e-001 1.452851439147929e-001 3.205250595462899e-001 -8.499429979796630e-001 3.205250595462899e-001 -8.499429979796630e-001 3.713824933311403e-001 1.452851439147929e-001
4.500000000000000e+008 3.781959727905317e-001 1.373912834909223e-001 2.988577334399086e-001 -8.558715261681485e-001 2.988577334399086e-001 -8.558715261681485e-001 3.781959727905317e-001 1.373912834909223e-001
4.600000000000000e+008 3.845866053324301e-001 1.292046124722227e-001 2.771980851168722e-001 -8.613151769977827e-001 2.771980851168722e-001 -8.613151769977827e-001 3.845866053324301e-001 1.292046124722227e-001
4.700000000000000e+008 3.905448441926933e-001 1.207466435018905e-001 2.555507939969891e-001 -8.662846215380777e-001 2.555507939969891e-001 -8.662846215380777e-001 3.905448441926933e-001 1.207466435018905e-001
4.800000000000000e+008 3.960620953301763e-001 1.120388727315943e-001 2.339196719854172e-001 -8.707899661049291e-001 2.339196719854172e-001 -8.707899661049291e-001 3.960620953301763e-001 1.120388727315943e-001
4.900000000000000e+008 4.011306740323383e-001 1.031027561303941e-001 2.123077310107922e-001 -8.748407086665250e-001 2.123077310107922e-001 -8.748407086665250e-001 4.011306740323383e-001 1.031027561303941e-001
5.000000000000000e+008 4.057437635136376e-001 9.395969092561803e-002 1.907172507007119e-001 -8.784457003201251e-001 1.907172507007119e-001 -8.784457003201251e-001 4.057437635136376e-001 9.395969092561803e-002
5.100000000000000e+008 4.098953758618744e-001 8.463100173520026e-002 1.691498459678370e-001 -8.816131115186552e-001 1.691498459678370e-001 -8.816131115186552e-001 4.098953758618744e-001 8.463100173520026e-002
5.200000000000000e+008 4.135803156383868e-001 7.513793094900600e-002 1.476065343304977e-001 -8.843504027376505e-001 1.476065343304977e-001 -8.843504027376505e-001 4.135803156383868e-001 7.513793094900600e-002
5.300000000000000e+008 4.167941463928673e-001 6.550163291779763e-002 1.260878028376617e-001 -8.866642992891870e-001 1.260878028376617e-001 -8.866642992891870e-001 4.167941463928673e-001 6.550163291779763e-002
5.400000000000000e+008 4.195331603124169e-001 5.574317151196766e-002 1.045936745092635e-001 -8.885607700094086e-001 1.045936745092635e-001 -8.885607700094086e-001 4.195331603124169e-001 5.574317151196766e-002
5.500000000000000e+008 4.217943511870188e-001 4.588352061730081e-002 8.312377423932740e-002 -8.900450095694621e-001 8.312377423932740e-002 -8.900450095694621e-001 4.217943511870188e-001 4.588352061730081e-002
5.600000000000000e+008 4.235753908396612e-001 3.594356714117857e-002 6.167739414095688e-002 -8.911214241854091e-001 6.167739414095688e-002 -8.911214241854091e-001 4.235753908396612e-001 3.594356714117857e-002
5.700000000000000e+008 4.248746091384930e-001 2.594411610933084e-002 4.025355833926888e-002 -8.917936205305966e-001 4.025355833926888e-002 -8.917936205305966e-001 4.248746091384930e-001 2.594411610933084e-002
5.800000000000000e+008 4.256909776803032e-001 1.590589743998902e-002 1.885108724076525e-002 -8.920643976834802e-001 1.885108724076525e-002 -8.920643976834802e-001 4.256909776803032e-001 1.590589743998902e-002
5.900000000000000e+008 4.260240972088152e-001 5.849573988755178e-003 -2.531338674413699e-003 -8.919357419746811e-001 -2.531338674413699e-003 -8.919357419746811e-001 4.260240972088152e-001 5.849573988755178e-003
6.000000000000000e+008 4.258741888074551e-001 -4.204249536621826e-003 -2.389511547736714e-002 -8.914088246286719e-001 -2.389511547736714e-002 -8.914088246286719e-001 4.258741888074551e-001 -4.204249536621826e-003
6.100000000000000e+008 4.252420888838089e-001 -1.423501718728734e-002 -4.524165276315421e-002 -8.904840021277127e-001 -4.524165276315421e-002 -8.904840021277127e-001 4.252420888838089e-001 -1.423501718728734e-002
6.200000000000000e+008 4.241292479416021e-001 -2.422221230174321e-002 -6.657231089704339e-002 -8.891608192580995e-001 -6.657231089704339e-002 -8.891608192580995e-001 4.241292479416021e-001 -2.422221230174321e-002
6.300000000000000e+008 4.225377331151707e-001 -3.414534834020895e-002 -8.788833845903744e-002 -8.874380148312311e-001 -8.788833845903744e-002 -8.874380148312311e-001 4.225377331151707e-001 -3.414534834020895e-002
6.400000000000000e+008 4.204702344206478e-001 -4.398396041129227e-002 -1.091908098146476e-001 -8.853135301041927e-001 -1.091908098146476e-001 -8.853135301041927e-001 4.204702344206478e-001 -4.398396041129227e-002
6.500000000000000e+008 4.179300746569801e-001 -5.371759787626280e-002 -1.304805627471628e-001 -8.827845199561598e-001 -1.304805627471628e-001 -8.827845199561598e-001 4.179300746569801e-001 -5.371759787626280e-002
6.600000000000000e+008 4.149212228680099e-001 -6.332581841597623e-002 -1.517581360980393e-001 -8.798473669077754e-001 -1.517581360980393e-001 -8.798473669077754e-001 4.149212228680099e-001 -6.332581841597623e-002
6.700000000000000e+008 4.114483112537697e-001 -7.278818394589583e-002 -1.730237073774839e-001 -8.764976981003754e-001 -1.730237073774839e-001 -8.764976981003754e-001 4.114483112537697e-001 -7.278818394589583e-002
6.800000000000000e+008 4.075166553944252e-001 -8.208425876548463e-002 -1.942770303268942e-001 -8.727304053802824e-001 -1.942770303268942e-001 -8.727304053802824e-001 4.075166553944252e-001 -8.208425876548463e-002
6.900000000000000e+008 4.031322776236737e-001 -9.119361032913613e-002 -2.155173724384957e-001 -8.685396686599632e-001 -2.155173724384957e-001 -8.685396686599632e-001 4.031322776236737e-001 -9.119361032913613e-002
7.000000000000000e+008 3.983019333593670e-001 -1.000958130264161e-001 -2.367434524653994e-001 -8.639189827523468e-001 -2.367434524653994e-001 -8.639189827523468e-001 3.983019333593670e-001 -1.000958130264161e-001
7.100000000000000e+008 3.930331401675988e-001 -1.087704553592342e-001 -2.579533779873309e-001 -8.588611878964710e-001 -2.579533779873309e-001 -8.588611878964710e-001 3.930331401675988e-001 -1.087704553592342e-001
7.200000000000000e+008 3.873342093019971e-001 -1.171971509021090e-001 -2.791445831334557e-001 -8.533585042115804e-001 -2.791445831334557e-001 -8.533585042115804e-001 3.873342093019971e-001 -1.171971509021090e-001
7.300000000000000e+008 3.812142794225158e-001 -1.253555534283837e-001 -3.003137666040552e-001 -8.474025703320854e-001 -3.003137666040552e-001 -8.474025703320854e-001 3.812142794225158e-001 -1.253555534283837e-001
7.400000000000000e+008 3.746833521573831e-001 -1.332253765793848e-001 -3.214568301771057e-001 -8.409844864870408e-001 -3.214568301771057e-001 -8.409844864870408e-001 3.746833521573831e-001 -1.332253765793848e-001
7.500000000000000e+008 3.677523291280453e-001 -1.407864184443997e-001 -3.425688179340404e-001 -8.340948622941961e-001 -3.425688179340404e-001 -8.340948622941961e-001 3.677523291280453e-001 -1.407864184443997e-001
7.600000000000000e+008 3.604330500100881e-001 -1.480185914061988e-001 -3.636438564907530e-001 -8.267238695396340e-001 -3.636438564907530e-001 -8.267238695396340e-001 3.604330500100881e-001 -1.480185914061988e-001
7.700000000000000e+008 3.527383311533077e-001 -1.549019575888213e-001 -3.846750965750905e-001 -8.188613002087612e-001 -3.846750965750905e-001 -8.188613002087612e-001 3.527383311533077e-001 -1.549019575888213e-001
7.800000000000000e+008 3.446820042317529e-001 -1.614167702205797e-001 -4.056546563500274e-001 -8.104966300221553e-001 -4.056546563500274e-001 -8.104966300221553e-001 3.446820042317529e-001 -1.614167702205797e-001
7.900000000000000e+008 3.362789543401452e-001 -1.675435211948933e-001 -4.265735669419875e-001 -8.016190877097493e-001 -4.265735669419875e-001 -8.016190877097493e-001 3.362789543401452e-001 -1.675435211948933e-001
8.000000000000000e+008 3.275451568971657e-001 -1.732629950736733e-001 -4.474217206956287e-001 -7.922177302281931e-001 -4.474217206956287e-001 -7.922177302281931e-001 3.275451568971657e-001 -1.732629950736733e-001
8.100000000000000e+008 3.184977126596377e-001 -1.785563297317138e-001 -4.681878227388153e-001 -7.822815240882309e-001 -4.681878227388153e-001 -7.822815240882309e-001 3.184977126596377e-001 -1.785563297317138e-001
8.200000000000000e+008 3.091548800955322e-001 -1.834050837850546e-001 -4.888593465035780e-001 -7.717994329107569e-001 -4.888593465035780e-001 -7.717994329107569e-001 3.091548800955322e-001 -1.834050837850546e-001
8.300000000000000e+008 2.995361043092805e-001 -1.877913108808371e-001 -5.094224939091627e-001 -7.607605112712572e-001 -5.094224939091627e-001 -7.607605112712572e-001 2.995361043092805e-001 -1.877913108808371e-001
8.400000000000000e+008 2.896620416615250e-001 -1.916976408500899e-001 -5.298621609703708e-001 -7.491540048220226e-001 -5.298621609703708e-001 -7.491540048220226e-001 2.896620416615250e-001 -1.916976408500899e-001
8.500000000000000e+008 2.795545791788110e-001 -1.951073676377645e-001 -5.501619096466534e-001 -7.369694565993876e-001 -5.501619096466534e-001 -7.369694565993876e-001 2.795545791788110e-001 -1.951073676377645e-001
8.600000000000000e+008 2.692368478086955e-001 -1.980045438258579e-001 -5.703039467928753e-001 -7.241968193292021e-001 -5.703039467928753e-001 -7.241968193292021e-001 2.692368478086955e-001 -1.980045438258579e-001
8.700000000000000e+008 2.587332285443855e-001 -2.003740814556429e-001 -5.902691111092806e-001 -7.108265734377323e-001 -5.902691111092806e-001 -7.108265734377323e-001 2.587332285443855e-001 -2.003740814556429e-001
8.800000000000000e+008 2.480693504225107e-001 -2.022018587341790e-001 -6.100368690137396e-001 -6.968498503576767e-001 -6.100368690137396e-001 -6.968498503576767e-001 2.480693504225107e-001 -2.022018587341790e-001
8.900000000000000e+008 2.372720793903543e-001 -2.034748320790759e-001 -6.295853203714834e-001 -6.822585605906107e-001 -6.295853203714834e-001 -6.822585605906107e-001 2.372720793903543e-001 -2.034748320790759e-001
9.000000000000000e+008 2.263694970472051e-001 -2.041811528150158e-001 -6.488912150137863e-001 -6.670455258491667e-001 -6.488912150137863e-001 -6.670455258491667e-001 2.263694970472051e-001 -2.041811528150158e-001
9.100000000000000e+008 2.153908682909307e-001 -2.043102876873787e-001 -6.679299809550168e-001 -6.512046144561535e-001 -6.679299809550168e-001 -6.512046144561535e-001 2.153908682909307e-001 -2.043102876873787e-001
9.200000000000000e+008 2.043665969476787e-001 -2.038531422045103e-001 -6.866757651748360e-001 -6.347308790257673e-001 -6.866757651748360e-001 -6.347308790257673e-001 2.043665969476787e-001 -2.038531422045103e-001
9.300000000000000e+008 1.933281685321275e-001 -2.028021856633618e-001 -7.051014877667535e-001 -6.176206952966632e-001 -7.051014877667535e-001 -6.176206952966632e-001 1.933281685321275e-001 -2.028021856633618e-001
9.400000000000000e+008 1.823080793797021e-001 -2.011515765564704e-001 -7.231789101639754e-001 -5.998719008311216e-001 -7.231789101639754e-001 -5.998719008311216e-001 1.823080793797021e-001 -2.011515765564704e-001
