! Touchstone generated by fitter/viewer 
# HZ S  RI R 5.000000e+001
! 
1.000000000000000e+007 2.831574772037548e-004 1.213861897357918e-002 9.990345113935124e-001 -3.034416012220768e-002 9.990345113935124e-001 -3.034416012220768e-002 2.831574772037548e-004 1.213861897357918e-002
2.000000000000000e+007 1.199125470669360e-003 2.436252337959308e-002 9.971191480938600e-001 -6.029261566402736e-002 9.971191480938600e-001 -6.029261566402736e-002 1.199125470669360e-003 2.436252337959308e-002
3.000000000000000e+007 2.834168757191113e-003 3.656271367652771e-002 9.941856557717007e-001 -9.002852625481626e-002 9.941856557717007e-001 -9.002852625481626e-002 2.834168757191113e-003 3.656271367652771e-002
4.000000000000000e+007 5.182720938077812e-003 4.867171793308539e-002 9.902311586829550e-001 -1.195416649821072e-001 9.902311586829550e-001 -1.195416649821072e-001 5.182720938077812e-003 4.867171793308539e-002
5.000000000000000e+007 8.238827386439107e-003 6.063658875325877e-002 9.852681286757339e-001 -1.487982826610846e-001 9.852681286757339e-001 -1.487982826610846e-001 8.238827386439107e-003 6.063658875325877e-002
6.000000000000000e+007 1.199263302212761e-002 7.240525391855118e-002 9.793143038300194e-001 -1.777627222435920e-001 9.793143038300194e-001 -1.777627222435920e-001 1.199263302212761e-002 7.240525391855118e-002
7.000000000000000e+007 1.642819514945249e-002 8.392776634246919e-002 9.723886270272900e-001 -2.063986207919967e-001 9.723886270272900e-001 -2.063986207919967e-001 1.642819514945249e-002 8.392776634246919e-002
8.000000000000000e+007 2.152467882214315e-002 9.515766825685179e-002 9.645115356612996e-001 -2.346687477848703e-001 9.645115356612996e-001 -2.346687477848703e-001 2.152467882214315e-002 9.515766825685179e-002
9.000000000000000e+007 2.725776778836675e-002 1.060521415998686e-001 9.557057522494700e-001 -2.625356242601246e-001 9.557057522494700e-001 -2.625356242601246e-001 2.725776778836675e-002 1.060521415998686e-001
1.000000000000000e+008 3.360054610424879e-002 1.165716994963489e-001 9.459966379678437e-001 -2.899624038721500e-001 9.459966379678437e-001 -2.899624038721500e-001 3.360054610424879e-002 1.165716994963489e-001
1.100000000000000e+008 4.052395955206556e-002 1.266798713907048e-001 9.354121498489576e-001 -3.169136450516313e-001 9.354121498489576e-001 -3.169136450516313e-001 4.052395955206556e-002 1.266798713907048e-001
1.200000000000000e+008 4.799706484061994e-002 1.363430112333575e-001 9.239825840883778e-001 -3.433558755146820e-001 9.239825840883778e-001 -3.433558755146820e-001 4.799706484061994e-002 1.363430112333575e-001
1.300000000000000e+008 5.598720346078323e-002 1.455302220856761e-001 9.117402345687340e-001 -3.692579678097162e-001 9.117402345687340e-001 -3.692579678097162e-001 5.598720346078323e-002 1.455302220856761e-001
1.400000000000000e+008 6.446016751072359e-002 1.542133559417645e-001 8.987190342334837e-001 -3.945913723434488e-001 8.987190342334837e-001 -3.945913723434488e-001 6.446016751072359e-002 1.542133559417645e-001
1.500000000000000e+008 7.338038308695383e-002 1.623670497519299e-001 8.849542089727340e-001 -4.193302499163945e-001 8.849542089727340e-001 -4.193302499163945e-001 7.338038308695383e-002 1.623670497519299e-001
1.600000000000000e+008 8.271111606446846e-002 1.699687695921691e-001 8.704819545234499e-001 -4.434515344519586e-001 8.704819545234499e-001 -4.434515344519586e-001 8.271111606446846e-002 1.699687695921691e-001
1.700000000000000e+008 9.241469615546161e-002 1.769988453667382e-001 8.553391384380304e-001 -4.669349464837546e-001 8.553391384380304e-001 -4.669349464837546e-001 9.241469615546161e-002 1.769988453667382e-001
1.800000000000000e+008 1.024527521282924e-001 1.834404862372923e-001 8.395630260298916e-001 -4.897629707053958e-001 8.395630260298916e-001 -4.897629707053958e-001 1.024527521282924e-001 1.834404862372923e-001
1.900000000000000e+008 1.127864507862719e-001 1.892797722664852e-001 8.231910284354692e-001 -5.119208061454084e-001 8.231910284354692e-001 -5.119208061454084e-001 1.127864507862719e-001 1.892797722664852e-001
2.000000000000000e+008 1.233767331513705e-001 1.945056211610977e-001 8.062604710996226e-001 -5.333962945985723e-001 8.062604710996226e-001 -5.333962945985723e-001 1.233767331513705e-001 1.945056211610977e-001
2.100000000000000e+008 1.341845425113718e-001 1.991097310809905e-001 7.888083814336800e-001 -5.541798312071439e-001 7.888083814336800e-001 -5.541798312071439e-001 1.341845425113718e-001 1.991097310809905e-001
2.200000000000000e+008 1.451710402273396e-001 2.030865016838538e-001 7.708712948312834e-001 -5.742642600954773e-001 7.708712948312834e-001 -5.742642600954773e-001 1.451710402273396e-001 2.030865016838538e-001
2.300000000000000e+008 1.562978063198297e-001 2.064329362071277e-001 7.524850785553476e-001 -5.936447574207886e-001 7.524850785553476e-001 -5.936447574207886e-001 1.562978063198297e-001 2.064329362071277e-001
2.400000000000000e+008 1.675270228106098e-001 2.091485276531780e-001 7.336847732096695e-001 -6.123187039183656e-001 7.336847732096695e-001 -6.123187039183656e-001 1.675270228106098e-001 2.091485276531780e-001
2.500000000000000e+008 1.788216385885761e-001 2.112351321779189e-001 7.145044515947412e-001 -6.302855488704474e-001 7.145044515947412e-001 -6.302855488704474e-001 1.788216385885761e-001 2.112351321779189e-001
2.600000000000000e+008 1.901455152089049e-001 2.126968326758236e-001 6.949770947446964e-001 -6.475466673406228e-001 6.949770947446964e-001 -6.475466673406228e-001 1.901455152089049e-001 2.126968326758236e-001
2.700000000000000e+008 2.014635535439987e-001 2.135397953636634e-001 6.751344848779640e-001 -6.641052124470270e-001 6.751344848779640e-001 -6.641052124470270e-001 2.014635535439987e-001 2.135397953636634e-001
2.800000000000000e+008 2.127418016044417e-001 2.137721219288395e-001 6.550071148923079e-001 -6.799659643746886e-001 6.550071148923079e-001 -6.799659643746886e-001 2.127418016044417e-001 2.137721219288395e-001
2.900000000000000e+008 2.239475441569365e-001 2.134036995497456e-001 6.346241139149865e-001 -6.951351777392382e-001 6.346241139149865e-001 -6.951351777392382e-001 2.239475441569365e-001 2.134036995497456e-001
3.000000000000000e+008 2.350493750001016e-001 2.124460508305097e-001 6.140131882958557e-001 -7.096204288076086e-001 6.140131882958557e-001 -7.096204288076086e-001 2.350493750001016e-001 2.124460508305097e-001
3.100000000000000e+008 2.460172529314245e-001 2.109121854303603e-001 5.932005773159725e-001 -7.234304639574851e-001 5.932005773159725e-001 -7.234304639574851e-001 2.460172529314245e-001 2.109121854303603e-001
3.200000000000000e+008 2.568225425604219e-001 2.088164549147926e-001 5.722110227838264e-001 -7.365750506194988e-001 5.722110227838264e-001 -7.365750506194988e-001 2.568225425604219e-001 2.088164549147926e-001
3.300000000000000e+008 2.674380412030266e-001 2.061744121155085e-001 5.510677516099162e-001 -7.490648317990458e-001 5.510677516099162e-001 -7.490648317990458e-001 2.674380412030266e-001 2.061744121155085e-001
3.400000000000000e+008 2.778379931376753e-001 2.030026760611148e-001 5.297924703900435e-001 -7.609111851227414e-001 5.297924703900435e-001 -7.609111851227414e-001 2.778379931376753e-001 2.030026760611148e-001
3.500000000000000e+008 2.879980925205734e-001 1.993188033321311e-001 5.084053709886677e-001 -7.721260872022701e-001 5.084053709886677e-001 -7.721260872022701e-001 2.879980925205734e-001 1.993188033321311e-001
3.600000000000000e+008 2.978954762512449e-001 1.951411665028466e-001 4.869251460951861e-001 -7.827219839596344e-001 4.869251460951861e-001 -7.827219839596344e-001 2.978954762512449e-001 1.951411665028466e-001
3.700000000000000e+008 3.075087080541291e-001 1.904888401591061e-001 4.653690137263544e-001 -7.927116674155723e-001 4.653690137263544e-001 -7.927116674155723e-001 3.075087080541291e-001 1.904888401591061e-001
3.800000000000000e+008 3.168177550014443e-001 1.853814948252911e-001 4.437527496651053e-001 -8.021081593097849e-001 4.437527496651053e-001 -8.021081593097849e-001 3.168177550014443e-001 1.853814948252911e-001
3.900000000000000e+008 3.258039576500658e-001 1.798392989951358e-001 4.220907268574013e-001 -8.109246017992718e-001 4.220907268574013e-001 -8.109246017992718e-001 3.258039576500658e-001 1.798392989951358e-001
4.000000000000000e+008 3.344499949037368e-001 1.738828293391125e-001 4.003959608318901e-001 -8.191741553707713e-001 4.003959608318901e-001 -8.191741553707713e-001 3.344499949037368e-001 1.738828293391125e-001
4.100000000000000e+008 3.427398446439640e-001 1.675329890550992e-001 3.786801602596699e-001 -8.268699040056508e-001 3.786801602596699e-001 -8.268699040056508e-001 3.427398446439640e-001 1.675329890550992e-001
4.200000000000000e+008 3.506587411007449e-001 1.608109342381195e-001 3.569537818310160e-001 -8.340247675508622e-001 3.569537818310160e-001 -8.340247675508622e-001 3.506587411007449e-001 1.608109342381195e-001
4.300000000000000e+008 3.581931298596657e-001 1.537380080679810e-001 3.352260886904000e-001 -8.406514211775769e-001 3.352260886904000e-001 -8.406514211775769e-001 3.581931298596657e-001 1.537380080679810e-001
4.400000000000000e+008 3.653306213265111e-001 1.463356825496741e-001 3.135052117386257e-001 -8.467622217494631e-001 3.135052117386257e-001 -8.467622217494631e-001 3.653306213265111e-001 1.463356825496741e-001
4.500000000000000e+008 3.720599433957389e-001 1.386255074891653e-001 2.917982131797141e-001 -8.523691408746222e-001 2.917982131797141e-001 -8.523691408746222e-001 3.720599433957389e-001 1.386255074891653e-001
4.600000000000000e+008 3.783708939960069e-001 1.306290663456254e-001 2.701111517589550e-001 -8.574837043781671e-001 2.701111517589550e-001 -8.574837043781671e-001 3.783708939960069e-001 1.306290663456254e-001
4.700000000000000e+008 3.842542941153692e-001 1.223679385689591e-001 2.484491492059942e-001 -8.621169379054552e-001 2.484491492059942e-001 -8.621169379054552e-001 3.842542941153692e-001 1.223679385689591e-001
4.800000000000000e+008 3.897019418413715e-001 1.138636680076070e-001 2.268164574620848e-001 -8.662793183481170e-001 2.268164574620848e-001 -8.662793183481170e-001 3.897019418413715e-001 1.138636680076070e-001
4.900000000000000e+008 3.947065678876303e-001 1.051377369548325e-001 2.052165263328463e-001 -8.699807307753331e-001 2.052165263328463e-001 -8.699807307753331e-001 3.947065678876303e-001 1.051377369548325e-001
5.000000000000000e+008 3.992617930188183e-001 9.621154539103931e-002 1.836520712664924e-001 -8.732304305503450e-001 1.836520712664924e-001 -8.732304305503450e-001 3.992617930188183e-001 9.621154539103931e-002
5.100000000000000e+008 4.033620877305639e-001 8.710639497406843e-002 1.621251410120554e-001 -8.760370103160398e-001 1.621251410120554e-001 -8.760370103160398e-001 4.033620877305639e-001 8.710639497406843e-002
5.200000000000000e+008 4.070027344895686e-001 7.784347732796462e-002 1.406371849623430e-001 -8.784083715427823e-001 1.406371849623430e-001 -8.784083715427823e-001 4.070027344895686e-001 7.784347732796462e-002
5.300000000000000e+008 4.101797927922757e-001 6.844386618255180e-002 1.191891200320398e-001 -8.803517003456515e-001 1.191891200320398e-001 -8.803517003456515e-001 4.101797927922757e-001 6.844386618255180e-002
5.400000000000000e+008 4.128900672574916e-001 5.892851292050107e-002 9.778139696235455e-002 -8.818734472961426e-001 9.778139696235455e-002 -8.818734472961426e-001 4.128900672574916e-001 5.892851292050107e-002
5.500000000000000e+008 4.151310789292371e-001 4.931824509477741e-002 7.641406597997197e-002 -8.829793109745875e-001 7.641406597997197e-002 -8.829793109745875e-001 4.151310789292371e-001 4.931824509477741e-002
5.600000000000000e+008 4.169010399305926e-001 3.963376748676999e-002 5.508684176970494e-002 -8.836742250333366e-001 5.508684176970494e-002 -8.836742250333366e-001 4.169010399305926e-001 3.963376748676999e-002
5.700000000000000e+008 4.181988315769490e-001 2.989566528354818e-002 3.379916774732364e-002 -8.839623485666970e-001 3.379916774732364e-002 -8.839623485666970e-001 4.181988315769490e-001 2.989566528354818e-002
5.800000000000000e+008 4.190239860276398e-001 2.012440896108757e-002 1.255027964157480e-002 -8.838470596111491e-001 1.255027964157480e-002 -8.838470596111491e-001 4.190239860276398e-001 2.012440896108757e-002
5.900000000000000e+008 4.193766715279328e-001 1.034036046863607e-002 -8.660731587451245e-003 -8.833309516281284e-001 -8.660731587451245e-003 -8.833309516281284e-001 4.193766715279328e-001 1.034036046863607e-002
6.000000000000000e+008 4.192576812684488e-001 5.637803173203145e-004 -2.983485745262772e-002 -8.824158328512027e-001 -2.983485745262772e-002 -8.824158328512027e-001 4.192576812684488e-001 5.637803173203145e-004
6.100000000000000e+008 4.186684258657908e-001 -9.185164816549846e-003 -5.097311021615687e-002 -8.811027284095124e-001 -5.097311021615687e-002 -8.811027284095124e-001 4.186684258657908e-001 -9.185164816549846e-003
6.200000000000000e+008 4.176109294461171e-001 -1.888639435641341e-002 -7.207646168185058e-002 -8.793918851695185e-001 -7.207646168185058e-002 -8.793918851695185e-001 4.176109294461171e-001 -1.888639435641341e-002
6.300000000000000e+008 4.160878292921373e-001 -2.851990633576331e-002 -9.314578244565760e-002 -8.772827792671537e-001 -9.314578244565760e-002 -8.772827792671537e-001 4.160878292921373e-001 -2.851990633576331e-002
6.400000000000000e+008 4.141023789931058e-001 -3.806577052599416e-002 -1.141817815491843e-001 -8.747741263321174e-001 -1.141817815491843e-001 -8.747741263321174e-001 4.141023789931058e-001 -3.806577052599416e-002
6.500000000000000e+008 4.116584550164875e-001 -4.750412254978551e-002 -1.351849464872480e-001 -8.718638944350156e-001 -1.351849464872480e-001 -8.718638944350156e-001 4.116584550164875e-001 -4.750412254978551e-002
6.600000000000000e+008 4.087605665986034e-001 -5.681515934449085e-002 -1.561554835305941e-001 -8.685493198160746e-001 -1.561554835305941e-001 -8.685493198160746e-001 4.087605665986034e-001 -5.681515934449085e-002
6.700000000000000e+008 4.054138688294209e-001 -6.597913633701132e-002 -1.770932583388183e-001 -8.648269254809492e-001 -1.770932583388183e-001 -8.648269254809492e-001 4.054138688294209e-001 -6.597913633701132e-002
6.800000000000000e+008 4.016241787833259e-001 -7.497636668889149e-002 -1.979977368561728e-001 -8.606925427744283e-001 -1.979977368561728e-001 -8.606925427744283e-001 4.016241787833259e-001 -7.497636668889149e-002
6.900000000000000e+008 3.973979945229268e-001 -8.378722296763565e-002 -2.188679265042983e-001 -8.561413360662891e-001 -2.188679265042983e-001 -8.561413360662891e-001 3.973979945229268e-001 -8.378722296763565e-002
7.000000000000000e+008 3.927425167763630e-001 -9.239214159713308e-002 -2.397023177109893e-001 -8.511678307048108e-001 -2.397023177109893e-001 -8.511678307048108e-001 3.927425167763630e-001 -9.239214159713308e-002
7.100000000000000e+008 3.876656730600386e-001 -1.007716304362250e-001 -2.604988258427803e-001 -8.457659444121705e-001 -2.604988258427803e-001 -8.457659444121705e-001 3.876656730600386e-001 -1.007716304362250e-001
7.200000000000000e+008 3.821761439878852e-001 -1.089062798293417e-001 -2.812547336414294e-001 -8.399290223116682e-001 -2.812547336414294e-001 -8.399290223116682e-001 3.821761439878852e-001 -1.089062798293417e-001
7.300000000000000e+008 3.762833914751618e-001 -1.167767774663226e-001 -3.019666343001051e-001 -8.336498757890394e-001 -3.019666343001051e-001 -8.336498757890394e-001 3.762833914751618e-001 -1.167767774663226e-001
7.400000000000000e+008 3.699976885092476e-001 -1.243639273793812e-001 -3.226303753541678e-001 -8.269208253984715e-001 -3.226303753541678e-001 -8.269208253984715e-001 3.699976885092476e-001 -1.243639273793812e-001
7.500000000000000e+008 3.633301501219630e-001 -1.316486733931458e-001 -3.432410036036631e-001 -8.197337480278659e-001 -3.432410036036631e-001 -8.197337480278659e-001 3.633301501219630e-001 -1.316486733931458e-001
7.600000000000000e+008 3.562927651577372e-001 -1.386121273280531e-001 -3.637927113297154e-001 -8.120801285367501e-001 -3.637927113297154e-001 -8.120801285367501e-001 3.562927651577372e-001 -1.386121273280531e-001
7.700000000000000e+008 3.488984283896286e-001 -1.452356022374924e-001 -3.842787841146464e-001 -8.039511160734972e-001 -3.842787841146464e-001 -8.039511160734972e-001 3.488984283896286e-001 -1.452356022374924e-001
7.800000000000000e+008 3.411609724911527e-001 -1.515006509342326e-001 -4.046915506253380e-001 -7.953375852654723e-001 -4.046915506253380e-001 -7.953375852654723e-001 3.411609724911527e-001 -1.515006509342326e-001
7.900000000000000e+008 3.330951993264867e-001 -1.573891100310782e-001 -4.250223347705653e-001 -7.862302024558279e-001 -4.250223347705653e-001 -7.862302024558279e-001 3.330951993264867e-001 -1.573891100310782e-001
8.000000000000000e+008 3.247169099755352e-001 -1.628831496837342e-001 -4.452614106951384e-001 -7.766194971332210e-001 -4.452614106951384e-001 -7.766194971332210e-001 3.247169099755352e-001 -1.628831496837342e-001
8.100000000000000e+008 3.160429328642702e-001 -1.679653291797723e-001 -4.653979611257476e-001 -7.664959386651754e-001 -4.653979611257476e-001 -7.664959386651754e-001 3.160429328642702e-001 -1.679653291797723e-001
8.200000000000000e+008 3.070911493256036e-001 -1.726186584657709e-001 -4.854200396346222e-001 -7.558500184015663e-001 -4.854200396346222e-001 -7.558500184015663e-001 3.070911493256036e-001 -1.726186584657709e-001
8.300000000000000e+008 2.978805158729060e-001 -1.768266656445948e-001 -5.053145374361998e-001 -7.446723371613147e-001 -5.053145374361998e-001 -7.446723371613147e-001 2.978805158729060e-001 -1.768266656445948e-001
8.400000000000000e+008 2.884310824283511e-001 -1.805734704059110e-001 -5.250671553777867e-001 -7.329536980524650e-001 -5.250671553777867e-001 -7.329536980524650e-001 2.884310824283511e-001 -1.805734704059110e-001
8.500000000000000e+008 2.787640057129583e-001 -1.838438632751760e-001 -5.446623818262483e-001 -7.206852045031107e-001 -5.446623818262483e-001 -7.206852045031107e-001 2.787640057129583e-001 -1.838438632751760e-001
8.600000000000000e+008 2.689015569760989e-001 -1.866233904792346e-001 -5.640834771873741e-001 -7.078583632981814e-001 -5.640834771873741e-001 -7.078583632981814e-001 2.689015569760989e-001 -1.866233904792346e-001
8.700000000000000e+008 2.588671232209916e-001 -1.888984441305967e-001 -5.833124658212127e-001 -6.944651923249201e-001 -5.833124658212127e-001 -6.944651923249201e-001 2.588671232209916e-001 -1.888984441305967e-001
8.800000000000000e+008 2.486852010711816e-001 -1.906563573276529e-001 -6.023301361333318e-001 -6.804983326285718e-001 -6.023301361333318e-001 -6.804983326285718e-001 2.486852010711816e-001 -1.906563573276529e-001
8.900000000000000e+008 2.383813824230738e-001 -1.918855036553041e-001 -6.211160496268423e-001 -6.659511642699538e-001 -6.211160496268423e-001 -6.659511642699538e-001 2.383813824230738e-001 -1.918855036553041e-001
9.000000000000000e+008 2.279823310431752e-001 -1.925754004506908e-001 -6.396485596911657e-001 -6.508179253593059e-001 -6.396485596911657e-001 -6.508179253593059e-001 2.279823310431752e-001 -1.925754004506908e-001
9.100000000000000e+008 2.175157492978018e-001 -1.927168150733521e-001 -6.579048408789161e-001 -6.350938335176533e-001 -6.579048408789161e-001 -6.350938335176533e-001 2.175157492978018e-001 -1.927168150733521e-001
9.200000000000000e+008 2.070103342493544e-001 -1.923018732899769e-001 -6.758609293802081e-001 -6.187752088895040e-001 -6.758609293802081e-001 -6.187752088895040e-001 2.070103342493544e-001 -1.923018732899769e-001
9.300000000000000e+008 1.964957224186557e-001 -1.913241687532269e-001 -6.934917753423563e-001 -6.018595977015567e-001 -6.934917753423563e-001 -6.018595977015567e-001 1.964957224186557e-001 -1.913241687532269e-001
9.400000000000000e+008 1.860024225986361e-001 -1.897788724244535e-001 -7.107713076009719e-001 -5.843458952336547e-001 -7.107713076009719e-001 -5.843458952336547e-001 1.860024225986361e-001 -1.897788724244535e-001
