! Touchstone generated by fitter/viewer 
# HZ S  RI R 5.000000e+001
! 
1.000000000000000e+007 -7.846722510227444e-004 -8.502452290733523e-003 9.979662360989637e-001 -5.099144625938581e-002 9.979662360989637e-001 -5.099144625938581e-002 -7.846722510227444e-004 -8.502452290733523e-003
2.000000000000000e+007 -2.485930173040885e-003 -1.649748235911277e-002 9.934287165595827e-001 -1.012016292833479e-001 9.934287165595827e-001 -1.012016292833479e-001 -2.485930173040885e-003 -1.649748235911277e-002
3.000000000000000e+007 -4.962671597361190e-003 -2.411963403288943e-002 9.863641940863474e-001 -1.508744023592274e-001 9.863641940863474e-001 -1.508744023592274e-001 -4.962671597361190e-003 -2.411963403288943e-002
4.000000000000000e+007 -8.177562588686405e-003 -3.134475323876645e-002 9.767969889986331e-001 -1.999412792256460e-001 9.767969889986331e-001 -1.999412792256460e-001 -8.177562588686405e-003 -3.134475323876645e-002
5.000000000000000e+007 -1.207737500256068e-002 -3.812186980611389e-002 9.647774192135985e-001 -2.482955351472994e-001 9.647774192135985e-001 -2.482955351472994e-001 -1.207737500256068e-002 -3.812186980611389e-002
6.000000000000000e+007 -1.660519208836764e-002 -4.440508401627123e-002 9.503633405401339e-001 -2.958314508359995e-001 9.503633405401339e-001 -2.958314508359995e-001 -1.660519208836764e-002 -4.440508401627123e-002
7.000000000000000e+007 -2.170573312511648e-002 -5.015138152791750e-002 9.336132950395673e-001 -3.424439811083472e-001 9.336132950395673e-001 -3.424439811083472e-001 -2.170573312511648e-002 -5.015138152791750e-002
8.000000000000000e+007 -2.732292986535478e-002 -5.531879047425834e-002 9.145884417064192e-001 -3.880275270833540e-001 9.145884417064192e-001 -3.880275270833540e-001 -2.732292986535478e-002 -5.531879047425834e-002
9.000000000000000e+007 -3.339748986752378e-002 -5.986740275935699e-002 8.933548600799662e-001 -4.324771765768916e-001 8.933548600799662e-001 -4.324771765768916e-001 -3.339748986752378e-002 -5.986740275935699e-002
1.000000000000000e+008 -3.986604606650235e-002 -6.376123880953429e-002 8.699844256874098e-001 -4.756906472011811e-001 8.699844256874098e-001 -4.756906472011811e-001 -3.986604606650235e-002 -6.376123880953429e-002
1.100000000000000e+008 -4.666146293130824e-002 -6.696983685220831e-002 8.445546059380671e-001 -5.175699047748874e-001 8.445546059380671e-001 -5.175699047748874e-001 -4.666146293130824e-002 -6.696983685220831e-002
1.200000000000000e+008 -5.371369425300321e-002 -6.946928754203963e-002 8.171477443864801e-001 -5.580222128192933e-001 8.171477443864801e-001 -5.580222128192933e-001 -5.371369425300321e-002 -6.946928754203963e-002
1.300000000000000e+008 -6.095080720459523e-002 -7.124277492347014e-002 7.878502012471071e-001 -5.969606880043408e-001 7.878502012471071e-001 -5.969606880043408e-001 -6.095080720459523e-002 -7.124277492347014e-002
1.400000000000000e+008 -6.829998395289705e-002 -7.228076275357506e-002 7.567515308105908e-001 -6.343045065278823e-001 7.567515308105908e-001 -6.343045065278823e-001 -6.829998395289705e-002 -7.228076275357506e-002
1.500000000000000e+008 -7.568842795002650e-002 -7.258095059893273e-002 7.239437651474168e-001 -6.699788889808137e-001 7.239437651474168e-001 -6.699788889808137e-001 -7.568842795002650e-002 -7.258095059893273e-002
1.600000000000000e+008 -8.304415923627828e-002 -7.214808913797022e-002 6.895208184289636e-001 -7.039149554338672e-001 6.895208184289636e-001 -7.039149554338672e-001 -8.304415923627828e-002 -7.214808913797022e-002
1.700000000000000e+008 -9.029670729204309e-002 -7.099371242930504e-002 6.535780028637555e-001 -7.360495107185447e-001 6.535780028637555e-001 -7.360495107185447e-001 -9.029670729204309e-002 -7.099371242930504e-002
1.800000000000000e+008 -9.737771765372760e-002 -6.913582168785531e-002 6.162116397634445e-001 -7.663247967957507e-001 6.162116397634445e-001 -7.663247967957507e-001 -9.737771765372760e-002 -6.913582168785531e-002
1.900000000000000e+008 -1.042214886555410e-001 -6.659853968389402e-002 5.775187489390199e-001 -7.946882338426617e-001 5.775187489390199e-001 -7.946882338426617e-001 -1.042214886555410e-001 -6.659853968389402e-002
2.000000000000000e+008 -1.107654518499288e-001 -6.341174531914127e-002 5.375968020850058e-001 -8.210921622351570e-001 5.375968020850058e-001 -8.210921622351570e-001 -1.107654518499288e-001 -6.341174531914127e-002
2.100000000000000e+008 -1.169506061030001e-001 -5.961069241938972e-002 4.965435289286753e-001 -8.454935921175882e-001 4.965435289286753e-001 -8.454935921175882e-001 -1.169506061030001e-001 -5.961069241938972e-002
2.200000000000000e+008 -1.227219120479726e-001 -5.523561390841067e-002 4.544567677667594e-001 -8.678539643274850e-001 4.544567677667594e-001 -8.678539643274850e-001 -1.227219120479726e-001 -5.523561390841067e-002
2.300000000000000e+008 -1.280286508848865e-001 -5.033131128752434e-002 4.114343542373699e-001 -8.881389250827125e-001 4.114343542373699e-001 -8.881389250827125e-001 -1.280286508848865e-001 -5.033131128752434e-002
2.400000000000000e+008 -1.328247495111747e-001 -4.494672905252942e-002 3.675740437209648e-001 -9.063181163649183e-001 3.675740437209648e-001 -9.063181163649183e-001 -1.328247495111747e-001 -4.494672905252942e-002
2.500000000000000e+008 -1.370690725887238e-001 -3.913451388407731e-002 3.229734637032442e-001 -9.223649839018633e-001 3.229734637032442e-001 -9.223649839018633e-001 -1.370690725887238e-001 -3.913451388407731e-002
2.600000000000000e+008 -1.407256812790003e-001 -3.295055886692413e-002 2.777300928865626e-001 -9.362566047836628e-001 2.777300928865626e-001 -9.362566047836628e-001 -1.407256812790003e-001 -3.295055886692413e-002
2.700000000000000e+008 -1.437640578799124e-001 -2.645353346242654e-002 2.319412639345344e-001 -9.479735368791830e-001 2.319412639345344e-001 -9.479735368791830e-001 -1.437640578799124e-001 -2.645353346242654e-002
2.800000000000000e+008 -1.461592953600250e-001 -1.970440039034970e-002 1.857041865949272e-001 -9.574996922601218e-001 1.857041865949272e-001 -9.574996922601218e-001 -1.461592953600250e-001 -1.970440039034970e-002
2.900000000000000e+008 -1.478922507128275e-001 -1.276592093429526e-002 1.391159876670775e-001 -9.648222367523173e-001 1.391159876670775e-001 -9.648222367523173e-001 -1.478922507128275e-001 -1.276592093429526e-002
3.000000000000000e+008 -1.489496610745240e-001 -5.702150464471319e-003 9.227376393899149e-002 -9.699315175074069e-001 9.227376393899149e-002 -9.699315175074069e-001 -1.489496610745240e-001 -5.702150464471319e-003
3.100000000000000e+008 -1.493242216135575e-001 1.422073816178458e-003 4.527464387369390e-002 -9.728210201318155e-001 4.527464387369390e-002 -9.728210201318155e-001 -1.493242216135575e-001 1.422073816178458e-003
3.200000000000000e+008 -1.490146242779682e-001 8.541650731542543e-003 -1.784146484417431e-003 -9.734873564414879e-001 -1.784146484417431e-003 -9.734873564414879e-001 -1.490146242779682e-001 8.541650731542543e-003
3.300000000000000e+008 -1.480255565614108e-001 1.559173628750763e-002 -4.880521815614273e-002 -9.719302833513761e-001 -4.880521815614273e-002 -9.719302833513761e-001 -1.480255565614108e-001 1.559173628750763e-002
3.400000000000000e+008 -1.463676595156840e-001 2.250826567921132e-002 -9.569095935988671e-002 -9.681527527802661e-001 -9.569095935988671e-002 -9.681527527802661e-001 -1.463676595156840e-001 2.250826567921132e-002
3.500000000000000e+008 -1.440574443002849e-001 2.922847356300419e-002 -1.423434861274738e-001 -9.621609917752624e-001 -1.423434861274738e-001 -9.621609917752624e-001 -1.440574443002849e-001 2.922847356300419e-002
3.600000000000000e+008 -1.411171666268594e-001 3.569140984002862e-002 -1.886646083637097e-001 -9.539646113556584e-001 -1.886646083637097e-001 -9.539646113556584e-001 -1.411171666268594e-001 3.569140984002862e-002
3.700000000000000e+008 -1.375746585406206e-001 4.183844800453572e-002 -2.345558161674372e-001 -9.435767418609106e-001 -2.345558161674372e-001 -9.435767418609106e-001 -1.375746585406206e-001 4.183844800453572e-002
3.800000000000000e+008 -1.334631170956095e-001 4.761378288715915e-002 -2.799182909830007e-001 -9.310141918786300e-001 -2.799182909830007e-001 -9.310141918786300e-001 -1.334631170956095e-001 4.761378288715915e-002
3.900000000000000e+008 -1.288208496397507e-001 5.296491437506798e-002 -3.246529457963717e-001 -9.162976271415763e-001 -3.246529457963717e-001 -9.162976271415763e-001 -1.288208496397507e-001 5.296491437506798e-002
4.000000000000000e+008 -1.236909756416253e-001 5.784311342534700e-002 -3.686604981317682e-001 -8.994517651327819e-001 -3.686604981317682e-001 -8.994517651327819e-001 -1.236909756416253e-001 5.784311342534700e-002
4.100000000000000e+008 -1.181210852741417e-001 6.220386641693229e-002 -4.118415790457355e-001 -8.805055805401358e-001 -4.118415790457355e-001 -8.805055805401358e-001 -1.181210852741417e-001 6.220386641693229e-002
4.200000000000000e+008 -1.121628553284992e-001 6.600729362489369e-002 -4.540968806611807e-001 -8.594925161710788e-001 -4.540968806611807e-001 -8.594925161710788e-001 -1.121628553284992e-001 6.600729362489369e-002
4.300000000000000e+008 -1.058716234691104e-001 6.921853736609701e-002 -4.953273440405390e-001 -8.364506934896933e-001 -4.953273440405390e-001 -8.364506934896933e-001 -1.058716234691104e-001 6.921853736609701e-002
4.400000000000000e+008 -9.930592235659841e-002 7.180811517610150e-002 -5.354343883740583e-001 -8.114231165874349e-001 -5.354343883740583e-001 -8.114231165874349e-001 -9.930592235659841e-002 7.180811517610150e-002
4.500000000000000e+008 -9.252697575758351e-002 7.375223325309345e-002 -5.743201815675848e-001 -7.844578631599036e-001 -5.743201815675848e-001 -7.844578631599036e-001 -9.252697575758351e-002 7.375223325309345e-002
4.600000000000000e+008 -8.559815941802440e-002 7.503305536496985e-002 -6.118879513686286e-001 -7.556082559492492e-001 -6.118879513686286e-001 -7.556082559492492e-001 -8.559815941802440e-002 7.503305536496985e-002
4.700000000000000e+008 -7.858443018840444e-002 7.563892247849234e-002 -6.480423351872457e-001 -7.249330081375691e-001 -6.480423351872457e-001 -7.249330081375691e-001 -7.858443018840444e-002 7.563892247849234e-002
4.800000000000000e+008 -7.155172763659490e-002 7.556451855058280e-002 -6.826897657697415e-001 -6.924963363513464e-001 -6.826897657697415e-001 -6.924963363513464e-001 -7.155172763659490e-002 7.556451855058280e-002
4.900000000000000e+008 -6.456635314646841e-002 7.481097823412192e-002 -7.157388888917230e-001 -6.583680352679054e-001 -7.157388888917230e-001 -6.583680352679054e-001 -6.456635314646841e-002 7.481097823412192e-002
5.000000000000000e+008 -5.769433225263820e-002 7.338593270268115e-002 -7.471010082781399e-001 -6.226235083057623e-001 -7.471010082781399e-001 -6.226235083057623e-001 -5.769433225263820e-002 7.338593270268115e-002
5.100000000000000e+008 -5.100076667672537e-002 7.130349039425399e-002 -7.766905520592321e-001 -5.853437495306648e-001 -7.766905520592321e-001 -5.853437495306648e-001 -5.100076667672537e-002 7.130349039425399e-002
5.200000000000000e+008 -4.454918317963674e-002 6.858415021147384e-002 -8.044255542610959e-001 -5.466152727122375e-001 -8.044255542610959e-001 -5.466152727122375e-001 -4.454918317963674e-002 6.858415021147384e-002
5.300000000000000e+008 -3.840088689819243e-002 6.525464558714718e-002 -8.302281441362736e-001 -5.065299844108218e-001 -8.302281441362736e-001 -5.065299844108218e-001 -3.840088689819243e-002 6.525464558714718e-002
5.400000000000000e+008 -3.261432726494573e-002 6.134771881520457e-002 -8.540250355903755e-001 -4.651849990431590e-001 -8.540250355903755e-001 -4.651849990431590e-001 -3.261432726494573e-002 6.134771881520457e-002
5.500000000000000e+008 -2.724448489126718e-002 5.690182613811372e-002 -8.757480085797251e-001 -4.226823950460280e-001 -8.757480085797251e-001 -4.226823950460280e-001 -2.724448489126718e-002 5.690182613811372e-002
5.600000000000000e+008 -2.234228790356263e-002 5.196077524653891e-002 -8.953343741630019e-001 -3.791289125005046e-001 -8.953343741630019e-001 -3.791289125005046e-001 -2.234228790356263e-002 5.196077524653891e-002
5.700000000000000e+008 -1.795406614376938e-002 4.657329805467805e-002 -9.127274149021775e-001 -3.346355938633777e-001 -9.127274149021775e-001 -3.346355938633777e-001 -1.795406614376938e-002 4.657329805467805e-002
5.800000000000000e+008 -1.412105136711261e-002 4.079256283046431e-002 -9.278767925340257e-001 -2.893173707400114e-001 -9.278767925340257e-001 -2.893173707400114e-001 -1.412105136711261e-002 4.079256283046431e-002
5.900000000000000e+008 -1.087893108868276e-002 3.467563094639949e-002 -9.407389152750523e-001 -2.432926008859387e-001 -9.407389152750523e-001 -2.432926008859387e-001 -1.087893108868276e-002 3.467563094639949e-002
6.000000000000000e+008 -8.257463049632152e-003 2.828286463589737e-002 -9.512772577743706e-001 -1.966825608034237e-001 -9.512772577743706e-001 -1.966825608034237e-001 -8.257463049632152e-003 2.828286463589737e-002
6.100000000000000e+008 -6.280156405475745e-003 2.167729315413668e-002 -9.594626275772556e-001 -1.496109003657888e-001 -9.594626275772556e-001 -1.496109003657888e-001 -6.280156405475745e-003 2.167729315413668e-002
6.200000000000000e+008 -4.964024702610814e-003 1.492394561657772e-002 -9.652733729857902e-001 -1.022030668208585e-001 -9.652733729857902e-001 -1.022030668208585e-001 -4.964024702610814e-003 1.492394561657772e-002
6.300000000000000e+008 -4.319414531362753e-003 8.089159491687856e-003 -9.686955283739331e-001 -5.458570626421987e-002 -9.686955283739331e-001 -5.458570626421987e-002 -4.319414531362753e-003 8.089159491687856e-003
6.400000000000000e+008 -4.349912457247918e-003 1.239874232037115e-003 -9.697228942983780e-001 -6.886051207795014e-003 -9.697228942983780e-001 -6.886051207795014e-003 -4.349912457247918e-003 1.239874232037115e-003
6.500000000000000e+008 -5.052331474084681e-003 -5.557080178231069e-003 -9.683570511048342e-001 4.076869681860625e-002 -9.683570511048342e-001 4.076869681860625e-002 -5.052331474084681e-003 -5.557080178231069e-003
6.600000000000000e+008 -6.416776833467974e-003 -1.223568991159351e-002 -9.646073061201034e-001 8.825198061585304e-002 -9.646073061201034e-001 8.825198061585304e-002 -6.416776833467974e-003 -1.223568991159351e-002
6.700000000000000e+008 -8.426789726580175e-003 -1.873144952860667e-002 -9.584905759004492e-001 1.354384877523758e-001 -9.584905759004492e-001 1.354384877523758e-001 -8.426789726580175e-003 -1.873144952860667e-002
6.800000000000000e+008 -1.105956596728985e-002 -2.498203043454597e-002 -9.500312063339865e-001 1.822047296102130e-001 -9.500312063339865e-001 1.822047296102130e-001 -1.105956596728985e-002 -2.498203043454597e-002
6.900000000000000e+008 -1.428624558848535e-002 -3.092791682131771e-002 -9.392607346292927e-001 2.284295911560754e-001 -9.392607346292927e-001 2.284295911560754e-001 -1.428624558848535e-002 -3.092791682131771e-002
7.000000000000000e+008 -1.807226815086893e-002 -3.651300111466131e-002 -9.262175983285782e-001 2.739948443381476e-001 -9.262175983285782e-001 2.739948443381476e-001 -1.807226815086893e-002 -3.651300111466131e-002
7.100000000000000e+008 -2.237778760371567e-002 -4.168513186014879e-002 -9.109467974314124e-001 3.187856189555548e-001 -9.109467974314124e-001 3.187856189555548e-001 -2.237778760371567e-002 -4.168513186014879e-002
7.200000000000000e+008 -2.715813975242098e-002 -4.639660801568355e-002 -8.934995164809471e-001 3.626908259213535e-001 -8.934995164809471e-001 3.626908259213535e-001 -2.715813975242098e-002 -4.639660801568355e-002
7.300000000000000e+008 -3.236435479267596e-002 -5.060461473731689e-002 -8.739327140326553e-001 4.056035290053386e-001 -8.739327140326553e-001 4.056035290053386e-001 -3.236435479267596e-002 -5.060461473731689e-002
7.400000000000000e+008 -3.794370697280081e-002 -5.427159691208454e-002 -8.523086872875995e-001 4.474212623616184e-001 -8.523086872875995e-001 4.474212623616184e-001 -3.794370697280081e-002 -5.427159691208454e-002
7.500000000000000e+008 -4.384029324364169e-002 -5.736556786953914e-002 -8.286946198272210e-001 4.880462923804213e-001 -8.286946198272210e-001 4.880462923804213e-001 -4.384029324364169e-002 -5.736556786953914e-002
7.600000000000000e+008 -4.999563274183272e-002 -5.986035185787324e-002 -8.031621203410366e-001 5.273858236176523e-001 -8.031621203410366e-001 5.273858236176523e-001 -4.999563274183272e-002 -5.986035185787324e-002
7.700000000000000e+008 -5.634927911330623e-002 -6.173575996959746e-002 -7.757867600047713e-001 5.653521497167962e-001 -7.757867600047713e-001 5.653521497167962e-001 -5.634927911330623e-002 -6.173575996959746e-002
7.800000000000000e+008 -6.283943800062031e-002 -6.297770021845543e-002 -7.466476157624339e-001 6.018627513168637e-001 -7.466476157624339e-001 6.018627513168637e-001 -6.283943800062031e-002 -6.297770021845543e-002
7.900000000000000e+008 -6.940358246682088e-002 -6.357822338179139e-002 -7.158268262133056e-001 6.368403439136089e-001 -7.158268262133056e-001 6.368403439136089e-001 -6.940358246682088e-002 -6.357822338179139e-002
8.000000000000000e+008 -7.597905968442076e-002 -6.353550701460006e-002 -6.834091661286660e-001 6.702128794907132e-001 -6.834091661286660e-001 6.702128794907132e-001 -7.597905968442076e-002 -6.353550701460006e-002
8.100000000000000e+008 -8.250368285335696e-002 -6.285378070254236e-002 -6.494816448495288e-001 7.019135064501554e-001 -6.494816448495288e-001 7.019135064501554e-001 -8.250368285335696e-002 -6.285378070254236e-002
8.200000000000000e+008 -8.891630299913089e-002 -6.154319614654293e-002 -6.141331329723837e-001 7.318804929390982e-001 -6.141331329723837e-001 7.318804929390982e-001 -8.891630299913089e-002 -6.154319614654293e-002
8.300000000000000e+008 -9.515735601521658e-002 -5.961964606175065e-002 -5.774540208409629e-001 7.600571190918174e-001 -5.774540208409629e-001 7.600571190918174e-001 -9.515735601521658e-002 -5.961964606175065e-002
8.400000000000000e+008 -1.011693810276457e-001 -5.710453613403148e-002 -5.395359114528646e-001 7.863915439813736e-001 -5.395359114528646e-001 7.863915439813736e-001 -1.011693810276457e-001 -5.710453613403148e-002
8.500000000000000e+008 -1.068975068525226e-001 -5.402451441714450e-002 -5.004713494825005e-001 8.108366532128917e-001 -5.004713494825005e-001 8.108366532128917e-001 -1.068975068525226e-001 -5.402451441714450e-002
8.600000000000000e+008 -1.122899039702896e-001 -5.041116258616731e-002 -4.603535872361215e-001 8.333498930967933e-001 -4.603535872361215e-001 8.333498930967933e-001 -1.122899039702896e-001 -5.041116258616731e-002
8.700000000000000e+008 -1.172982000387131e-001 -4.630065340265442e-002 -4.192763875066684e-001 8.538930972275954e-001 -4.192763875066684e-001 8.538930972275954e-001 -1.172982000387131e-001 -4.630065340265442e-002
8.800000000000000e+008 -1.218778574983674e-001 -4.173337861143908e-002 -3.773338624997902e-001 8.724323110739024e-001 -3.773338624997902e-001 8.724323110739024e-001 -1.218778574983674e-001 -4.173337861143908e-002
8.900000000000000e+008 -1.259885122822158e-001 -3.675355129552903e-002 -3.346203472676290e-001 8.889376198715130e-001 -3.346203472676290e-001 8.889376198715130e-001 -1.259885122822158e-001 -3.675355129552903e-002
9.000000000000000e+008 -1.295942730207191e-001 -3.140878648216235e-002 -2.912303054216794e-001 9.033829847172401e-001 -2.912303054216794e-001 9.033829847172401e-001 -1.295942730207191e-001 -3.140878648216235e-002
9.100000000000000e+008 -1.326639804352088e-001 -2.574966353717301e-002 -2.472582643054855e-001 9.157460912991461e-001 -2.472582643054855e-001 9.157460912991461e-001 -1.326639804352088e-001 -2.574966353717301e-002
9.200000000000000e+008 -1.351714268375523e-001 -1.982927362276206e-002 -2.027987762949530e-001 9.260082151816244e-001 -2.027987762949530e-001 9.260082151816244e-001 -1.351714268375523e-001 -1.982927362276206e-002
9.300000000000000e+008 -1.370955358087460e-001 -1.370275524055447e-002 -1.579464024604020e-001 9.341541070023635e-001 -1.579464024604020e-001 9.341541070023635e-001 -1.370955358087460e-001 -1.370275524055447e-002
