! Touchstone generated by fitter/viewer 
# HZ S  RI R 5.000000e+001
! 
1.000000000000000e+007 4.420641035950579e-002 -1.611902744572607e-002 9.507367517257286e-001 -6.749456920859809e-002 9.507367517257286e-001 -6.749456920859809e-002 4.420641035950579e-002 -1.611902744572607e-002
2.000000000000000e+007 4.417908637852774e-002 -3.782243890725943e-002 9.388572310495762e-001 -1.271013582790882e-001 9.388572310495762e-001 -1.271013582790882e-001 4.417908637852774e-002 -3.782243890725943e-002
3.000000000000000e+007 4.050077735509572e-002 -5.973600111913876e-002 9.240883039023641e-001 -1.843544032103996e-001 9.240883039023641e-001 -1.843544032103996e-001 4.050077735509572e-002 -5.973600111913876e-002
4.000000000000000e+007 3.378475049237095e-002 -8.108131448658462e-002 9.061014219099968e-001 -2.395442366077353e-001 9.061014219099968e-001 -2.395442366077353e-001 3.378475049237095e-002 -8.108131448658462e-002
5.000000000000000e+007 2.440778228399843e-002 -1.013838450996499e-001 8.849216005592845e-001 -2.926101568306728e-001 8.849216005592845e-001 -2.926101568306728e-001 2.440778228399843e-002 -1.013838450996499e-001
6.000000000000000e+007 1.268858716005383e-002 -1.203034921683535e-001 8.606917277655740e-001 -3.434193605800983e-001 8.606917277655740e-001 -3.434193605800983e-001 1.268858716005383e-002 -1.203034921683535e-001
7.000000000000000e+007 -1.074191780154443e-003 -1.375767264678249e-001 8.336070563000447e-001 -3.918249102624833e-001 8.336070563000447e-001 -3.918249102624833e-001 -1.074191780154443e-003 -1.375767264678249e-001
8.000000000000000e+007 -1.658532579237781e-002 -1.529948989801368e-001 8.038947741479990e-001 -4.376868337816299e-001 8.038947741479990e-001 -4.376868337816299e-001 -1.658532579237781e-002 -1.529948989801368e-001
9.000000000000000e+007 -3.354722091049855e-002 -1.663974394647271e-001 7.718036246603324e-001 -4.808845455178965e-001 7.718036246603324e-001 -4.808845455178965e-001 -3.354722091049855e-002 -1.663974394647271e-001
1.000000000000000e+008 -5.166069085071068e-002 -1.776695637555425e-001 7.375951589031480e-001 -5.213243425733657e-001 7.375951589031480e-001 -5.213243425733657e-001 -5.166069085071068e-002 -1.776695637555425e-001
1.100000000000000e+008 -7.062889663618743e-002 -1.867403458245269e-001 7.015355138509463e-001 -5.589429102475136e-001 7.015355138509463e-001 -5.589429102475136e-001 -7.062889663618743e-002 -1.867403458245269e-001
1.200000000000000e+008 -9.016226215749978e-002 -1.935799495154153e-001 6.638880634898351e-001 -5.937077569164525e-001 6.638880634898351e-001 -5.937077569164525e-001 -9.016226215749978e-002 -1.935799495154153e-001
1.300000000000000e+008 -1.099831704460212e-001 -1.981959525791149e-001 6.249072940557785e-001 -6.256155051305135e-001 6.249072940557785e-001 -6.256155051305135e-001 -1.099831704460212e-001 -1.981959525791149e-001
1.400000000000000e+008 -1.298298850086406e-001 -2.006290436193753e-001 5.848340396612928e-001 -6.546888262712889e-001 5.848340396612928e-001 -6.546888262712889e-001 -1.298298850086406e-001 -2.006290436193753e-001
1.500000000000000e+008 -1.494595045534248e-001 -2.009484207430092e-001 5.438920479915731e-001 -6.809726243535835e-001 5.438920479915731e-001 -6.809726243535835e-001 -1.494595045534248e-001 -2.009484207430092e-001
1.600000000000000e+008 -1.686499524337850e-001 -1.992471711829710e-001 5.022857513831333e-001 -7.045299085237341e-001 5.022857513831333e-001 -7.045299085237341e-001 -1.686499524337850e-001 -1.992471711829710e-001
1.700000000000000e+008 -1.872010972135179e-001 -1.956378396409889e-001 4.601990757831606e-001 -7.254376597553551e-001 4.601990757831606e-001 -7.254376597553551e-001 -1.872010972135179e-001 -1.956378396409889e-001
1.800000000000000e+008 -2.049351412668843e-001 -1.902483255792126e-001 4.177951086535152e-001 -7.437828945771806e-001 4.177951086535152e-001 -7.437828945771806e-001 -2.049351412668843e-001 -1.902483255792126e-001
1.900000000000000e+008 -2.216964248278506e-001 -1.832181937099291e-001 3.752164532399780e-001 -7.596590522010278e-001 3.752164532399780e-001 -7.596590522010278e-001 -2.216964248278506e-001 -1.832181937099291e-001
2.000000000000000e+008 -2.373507872798626e-001 -1.746954384179855e-001 3.325861123593609e-001 -7.731627756549642e-001 3.325861123593609e-001 -7.731627756549642e-001 -2.373507872798626e-001 -1.746954384179855e-001
2.100000000000000e+008 -2.517846137011794e-001 -1.648337105121496e-001 2.900087648538326e-001 -7.843911177747125e-001 2.900087648538326e-001 -7.843911177747125e-001 -2.517846137011794e-001 -1.648337105121496e-001
2.200000000000000e+008 -2.649036773730729e-001 -1.537899916491738e-001 2.475723190477387e-001 -7.934391753979170e-001 2.475723190477387e-001 -7.934391753979170e-001 -2.649036773730729e-001 -1.537899916491738e-001
2.300000000000000e+008 -2.766318707911120e-001 -1.417226861173905e-001 2.053496481034921e-001 -8.003981368756646e-001 2.053496481034921e-001 -8.003981368756646e-001 -2.766318707911120e-001 -1.417226861173905e-001
2.400000000000000e+008 -2.869099001973627e-001 -1.287900897260184e-001 1.634004310879628e-001 -8.053537167458248e-001 1.634004310879628e-001 -8.053537167458248e-001 -2.869099001973627e-001 -1.287900897260184e-001
2.500000000000000e+008 -2.956940025661381e-001 -1.151491899114629e-001 1.217730403057988e-001 -8.083849452978944e-001 1.217730403057988e-001 -8.083849452978944e-001 -2.956940025661381e-001 -1.151491899114629e-001
2.600000000000000e+008 -3.029547296835531e-001 -1.009547486961921e-001 8.050642982002579e-002 -8.095632783955524e-001 8.050642982002579e-002 -8.095632783955524e-001 -3.029547296835531e-001 -1.009547486961921e-001
2.700000000000000e+008 -3.086758315501397e-001 -8.635861990912407e-002 3.963199204371495e-002 -8.089519932213254e-001 3.963199204371495e-002 -8.089519932213254e-001 -3.086758315501397e-001 -8.635861990912407e-002
2.800000000000000e+008 -3.128532607338683e-001 -7.150925339149264e-002 -8.246410553332277e-004 -8.066058377223188e-001 -8.246410553332277e-004 -8.066058377223188e-001 -3.128532607338683e-001 -7.150925339149264e-002
2.900000000000000e+008 -3.154943103430949e-001 -5.655134123241821e-002 -4.084186808219212e-002 -8.025709048114024e-001 -4.084186808219212e-002 -8.025709048114024e-001 -3.154943103430949e-001 -5.655134123241821e-002
3.000000000000000e+008 -3.166168907616789e-001 -4.162556401030048e-002 -8.040047005994933e-002 -7.968847063060026e-001 -8.040047005994933e-002 -7.968847063060026e-001 -3.166168907616789e-001 -4.162556401030048e-002
3.100000000000000e+008 -3.162489439594070e-001 -2.686839828527054e-002 -1.194820505648667e-001 -7.895764257711714e-001 -1.194820505648667e-001 -7.895764257711714e-001 -3.162489439594070e-001 -2.686839828527054e-002
3.200000000000000e+008 -3.144279888294130e-001 -1.241195001932335e-002 -1.580675684519785e-001 -7.806673335651655e-001 -1.580675684519785e-001 -7.806673335651655e-001 -3.144279888294130e-001 -1.241195001932335e-002
3.300000000000000e+008 -3.112007863965831e-001 1.616217898170952e-003 -1.961359665386991e-001 -7.701713512188653e-001 -1.961359665386991e-001 -7.701713512188653e-001 -3.112007863965831e-001 1.616217898170952e-003
3.400000000000000e+008 -3.066231097010594e-001 1.509329229582915e-002 -2.336628998250943e-001 -7.580957556162639e-001 -2.336628998250943e-001 -7.580957556162639e-001 -3.066231097010594e-001 1.509329229582915e-002
3.500000000000000e+008 -3.007595995398211e-001 2.790147519205515e-002 -2.706195679936423e-001 -7.444420161171638e-001 -2.706195679936423e-001 -7.444420161171638e-001 -3.007595995398211e-001 2.790147519205515e-002
3.600000000000000e+008 -2.936836839419450e-001 3.992832898201539e-002 -3.069716588575984e-001 -7.292067596347572e-001 -3.069716588575984e-001 -7.292067596347572e-001 -2.936836839419450e-001 3.992832898201539e-002
3.700000000000000e+008 -2.854775362050450e-001 5.106721821485889e-002 -3.426784119178012e-001 -7.123828596289725e-001 -3.426784119178012e-001 -7.123828596289725e-001 -2.854775362050450e-001 5.106721821485889e-002
3.800000000000000e+008 -2.762320435321815e-001 6.121786045928091e-002 -3.776918140317455e-001 -6.939606448986383e-001 -3.776918140317455e-001 -6.939606448986383e-001 -2.762320435321815e-001 6.121786045928091e-002
3.900000000000000e+008 -2.660467558398918e-001 7.028699389747732e-002 -4.119559421638498e-001 -6.739292228704780e-001 -4.119559421638498e-001 -6.739292228704780e-001 -2.660467558398918e-001 7.028699389747732e-002
4.000000000000000e+008 -2.550297822787142e-001 7.818916384575234e-002 -4.454064710137314e-001 -6.522779097385549e-001 -4.454064710137314e-001 -6.522779097385549e-001 -2.550297822787142e-001 7.818916384575234e-002
4.100000000000000e+008 -2.432976015958133e-001 8.484762430502595e-002 -4.779703657226261e-001 -6.289977562923881e-001 -4.779703657226261e-001 -6.289977562923881e-001 -2.432976015958133e-001 8.484762430502595e-002
4.200000000000000e+008 -2.309747519056660e-001 9.019534387953475e-002 -5.095657815221409e-001 -6.040831536293247e-001 -5.095657815221409e-001 -6.040831536293247e-001 -2.309747519056660e-001 9.019534387953475e-002
4.300000000000000e+008 -2.181933659898960e-001 9.417609802345271e-002 -5.401021927802397e-001 -5.775334972926819e-001 -5.401021927802397e-001 -5.775334972926819e-001 -2.181933659898960e-001 9.417609802345271e-002
4.400000000000000e+008 -2.050925202134128e-001 9.674562173145247e-002 -5.694807730782276e-001 -5.493548819166897e-001 -5.694807730782276e-001 -5.493548819166897e-001 -2.050925202134128e-001 9.674562173145247e-002
4.500000000000000e+008 -1.918173688075051e-001 9.787278873668191e-002 -5.975950454002945e-001 -5.195617915006910e-001 -5.975950454002945e-001 -5.195617915006910e-001 -1.918173688075051e-001 9.787278873668191e-002
4.600000000000000e+008 -1.785180408777196e-001 9.754077539141735e-002 -6.243318169656608e-001 -4.881787433984055e-001 -6.243318169656608e-001 -4.881787433984055e-001 -1.785180408777196e-001 9.754077539141735e-002
4.700000000000000e+008 -1.653482852097652e-001 9.574816017048911e-002 -6.495724065043477e-001 -4.552418375235557e-001 -6.495724065043477e-001 -4.552418375235557e-001 -1.653482852097652e-001 9.574816017048911e-002
4.800000000000000e+008 -1.524638578079511e-001 9.250990374455986e-002 -6.731941628260657e-001 -4.208001567659364e-001 -6.731941628260657e-001 -4.208001567659364e-001 -1.524638578079511e-001 9.250990374455986e-002
4.900000000000000e+008 -1.400206589739976e-001 8.785815047673441e-002 -6.950722624888129e-001 -3.849169608703530e-001 -6.950722624888129e-001 -3.849169608703530e-001 -1.400206589739976e-001 8.785815047673441e-002
5.000000000000000e+008 -1.281726402771402e-001 8.184279067661415e-002 -7.150817615824615e-001 -3.476706147559373e-001 -7.150817615824615e-001 -3.476706147559373e-001 -1.281726402771402e-001 8.184279067661415e-002
5.100000000000000e+008 -1.170695164059767e-001 7.453172462525642e-002 -7.330998626792583e-001 -3.091551940916694e-001 -7.330998626792583e-001 -3.091551940916694e-001 -1.170695164059767e-001 7.453172462525642e-002
5.200000000000000e+008 -1.068543318247437e-001 6.601077475543429e-002 -7.490083436760366e-001 -2.694807164067818e-001 -7.490083436760366e-001 -2.694807164067818e-001 -1.068543318247437e-001 6.601077475543429e-002
5.300000000000000e+008 -9.766094637746314e-002 5.638320170925056e-002 -7.626960815717953e-001 -2.287729553922355e-001 -7.626960815717953e-001 -2.287729553922355e-001 -9.766094637746314e-002 5.638320170925056e-002
5.400000000000000e+008 -8.961151635162645e-002 4.576879327680682e-002 -7.740615923361874e-001 -1.871728093311889e-001 -7.740615923361874e-001 -1.871728093311889e-001 -8.961151635162645e-002 4.576879327680682e-002
5.500000000000000e+008 -8.281405684689891e-002 3.430251206435191e-002 -7.830154991174660e-001 -1.448352114112370e-001 -7.830154991174660e-001 -1.448352114112370e-001 -8.281405684689891e-002 3.430251206435191e-002
5.600000000000000e+008 -7.736017649337845e-002 2.213270738261462e-002 -7.894828362190898e-001 -1.019275892613829e-001 -7.894828362190898e-001 -1.019275892613829e-001 -7.736017649337845e-002 2.213270738261462e-002
5.700000000000000e+008 -7.332307574459218e-002 9.418918154330453e-003 -7.934050964320475e-001 -5.862790229679487e-002 -7.934050964320475e-001 -5.862790229679487e-002 -7.332307574459218e-002 9.418918154330453e-003
5.800000000000000e+008 -7.075589459614662e-002 -3.670684813479208e-003 -7.947419349871721e-001 -1.512230692106565e-002 -7.947419349871721e-001 -1.512230692106565e-002 -7.075589459614662e-002 -3.670684813479208e-003
5.900000000000000e+008 -6.969048456715421e-002 -1.696214866667091e-002 -7.934724546781725e-001 2.839748027218500e-002 -7.934724546781725e-001 2.839748027218500e-002 -6.969048456715421e-002 -1.696214866667091e-002
6.000000000000000e+008 -7.013666355441561e-002 -3.027879473433062e-002 -7.895960131804313e-001 7.173703406023861e-002 -7.895960131804313e-001 7.173703406023861e-002 -7.013666355441561e-002 -3.027879473433062e-002
6.100000000000000e+008 -7.208199166464779e-002 -4.344438270016926e-002 -7.831325143214803e-001 1.147021870395033e-001 -7.831325143214803e-001 1.147021870395033e-001 -7.208199166464779e-002 -4.344438270016926e-002
6.200000000000000e+008 -7.549208272531338e-002 -5.628627711551013e-002 -7.741221686729081e-001 1.571020040412662e-001 -7.741221686729081e-001 1.571020040412662e-001 -7.549208272531338e-002 -5.628627711551013e-002
6.300000000000000e+008 -8.031144155967684e-002 -6.863850975874666e-002 -7.626247336440238e-001 1.987516568063385e-001 -7.626247336440238e-001 1.987516568063385e-001 -8.031144155967684e-002 -6.863850975874666e-002
6.400000000000000e+008 -8.646479311393285e-002 -8.034463680873456e-002 -7.487182674406726e-001 2.394750967840114e-001 -7.487182674406726e-001 2.394750967840114e-001 -8.646479311393285e-002 -8.034463680873456e-002
6.500000000000000e+008 -9.385884791243604e-002 -9.126030115438980e-002 -7.324974530420527e-001 2.791074353927973e-001 -7.324974530420527e-001 2.791074353927973e-001 -9.385884791243604e-002 -9.126030115438980e-002
6.600000000000000e+008 -1.023844306132422e-001 -1.012554264272483e-001 -7.140715662244943e-001 3.174969574696366e-001 -7.140715662244943e-001 3.174969574696366e-001 -1.023844306132422e-001 -1.012554264272483e-001
6.700000000000000e+008 -1.119188857622637e-001 -1.102159891381491e-001 -6.935621745037762e-001 3.545067135628854e-001 -6.935621745037762e-001 3.545067135628854e-001 -1.119188857622637e-001 -1.102159891381491e-001
6.800000000000000e+008 -1.223286678246702e-001 -1.180453370098545e-001 -6.711006610537124e-001 3.900156585814017e-001 -6.711006610537124e-001 3.900156585814017e-001 -1.223286678246702e-001 -1.180453370098545e-001
6.900000000000000e+008 -1.334720213024982e-001 -1.246650435580937e-001 -6.468256690934678e-001 4.239193264341107e-001 -6.468256690934678e-001 4.239193264341107e-001 -1.334720213024982e-001 -1.246650435580937e-001
7.000000000000000e+008 -1.452016608296900e-001 -1.300153096385627e-001 -6.208805583176272e-001 4.561300511393047e-001 -6.208805583176272e-001 4.561300511393047e-001 -1.452016608296900e-001 -1.300153096385627e-001
7.100000000000000e+008 -1.573673697675551e-001 -1.340549407632429e-001 -5.934109564733822e-001 4.865767631708709e-001 -5.934109564733822e-001 4.865767631708709e-001 -1.573673697675551e-001 -1.340549407632429e-001
7.200000000000000e+008 -1.698184479236113e-001 -1.367609435692570e-001 -5.645624772484453e-001 5.152044046169504e-001 -5.645624772484453e-001 5.152044046169504e-001 -1.698184479236113e-001 -1.367609435692570e-001
7.300000000000000e+008 -1.824059533652882e-001 -1.381277953690421e-001 -5.344786614388440e-001 5.419730175315695e-001 -5.344786614388440e-001 5.419730175315695e-001 -1.824059533652882e-001 -1.381277953690421e-001
7.400000000000000e+008 -1.949846986736366e-001 -1.381664470830398e-001 -5.032991831379540e-001 5.668565665272954e-001 -5.032991831379540e-001 5.668565665272954e-001 -1.949846986736366e-001 -1.381664470830398e-001
7.500000000000000e+008 -2.074149772668263e-001 -1.369031222562819e-001 -4.711583475365727e-001 5.898415593931466e-001 -4.711583475365727e-001 5.898415593931466e-001 -2.074149772668263e-001 -1.369031222562819e-001
7.600000000000000e+008 -2.195640096947757e-001 -1.343779737517300e-001 -4.381838927669599e-001 6.109255287950820e-001 -4.381838927669599e-001 6.109255287950820e-001 -2.195640096947757e-001 -1.343779737517300e-001
7.700000000000000e+008 -2.313071123766120e-001 -1.306436557326879e-001 -4.044960957420103e-001 6.301154345684781e-001 -4.044960957420103e-001 6.301154345684781e-001 -2.313071123766120e-001 -1.306436557326879e-001
7.800000000000000e+008 -2.425286016815678e-001 -1.257638624150882e-001 -3.702071715652150e-001 6.474260404683965e-001 -3.702071715652150e-001 6.474260404683965e-001 -2.425286016815678e-001 -1.257638624150882e-001
7.900000000000000e+008 -2.531224543341859e-001 -1.198118775154737e-001 -3.354209480134391e-001 6.628783122358299e-001 -3.354209480134391e-001 6.628783122358299e-001 -2.531224543341859e-001 -1.198118775154737e-001
8.000000000000000e+008 -2.629927508476893e-001 -1.128691700152567e-001 -3.002327908177952e-001 6.764978761425281e-001 -3.002327908177952e-001 6.764978761425281e-001 -2.629927508476893e-001 -1.128691700152567e-001
8.100000000000000e+008 -2.720539322000970e-001 -1.050240633841894e-001 -2.647297518267285e-001 6.883135693725239e-001 -2.647297518267285e-001 6.883135693725239e-001 -2.720539322000970e-001 -1.050240633841894e-001
8.200000000000000e+008 -2.802309015165370e-001 -9.637049721625458e-002 -2.289909103605270e-001 6.983561061444659e-001 -2.289909103605270e-001 6.983561061444659e-001 -2.802309015165370e-001 -9.637049721625458e-002
8.300000000000000e+008 -2.874590024187400e-001 -8.700689266655826e-002 -1.930878778257083e-001 7.066568767084195e-001 -1.930878778257083e-001 7.066568767084195e-001 -2.874590024187400e-001 -8.700689266655826e-002
8.400000000000000e+008 -2.936839042805008e-001 -7.703512635910075e-002 -1.570854365953318e-001 7.132468904765199e-001 -1.570854365953318e-001 7.132468904765199e-001 -2.936839042805008e-001 -7.703512635910075e-002
8.500000000000000e+008 -2.988614222087500e-001 -6.655961168203037e-002 -1.210422859276906e-001 7.181558696752088e-001 -1.210422859276906e-001 7.181558696752088e-001 -2.988614222087500e-001 -6.655961168203037e-002
8.600000000000000e+008 -3.029572964463227e-001 -5.568648163741408e-002 -8.501186997043397e-002 7.214114960561002e-001 -8.501186997043397e-002 7.214114960561002e-001 -3.029572964463227e-001 -5.568648163741408e-002
8.700000000000000e+008 -3.059469523147165e-001 -4.452286364449328e-002 -4.904326540011769e-002 7.230388103235060e-001 -4.904326540011769e-002 7.230388103235060e-001 -3.059469523147165e-001 -4.452286364449328e-002
8.800000000000000e+008 -3.078152579849629e-001 -3.317623384701983e-002 -1.318210874803977e-002 7.230597619306669e-001 -1.318210874803977e-002 7.230597619306669e-001 -3.078152579849629e-001 -3.317623384701983e-002
8.900000000000000e+008 -3.085562934367074e-001 -2.175383646268794e-002 2.252845421937123e-002 7.214929056328910e-001 2.252845421937123e-002 7.214929056328910e-001 -3.085562934367074e-001 -2.175383646268794e-002
9.000000000000000e+008 -3.081731400505490e-001 -1.036215244504999e-002 5.804681269617622e-002 7.183532405143261e-001 5.804681269617622e-002 7.183532405143261e-001 -3.081731400505490e-001 -1.036215244504999e-002
9.100000000000000e+008 -3.066776964514300e-001 8.935988809281383e-004 9.333194264288242e-002 7.136521869676945e-001 9.333194264288242e-002 7.136521869676945e-001 -3.066776964514300e-001 8.935988809281383e-004
9.200000000000000e+008 -3.040905225282973e-001 1.190994157380896e-002 1.283424790952429e-001 7.073976971440320e-001 1.283424790952429e-001 7.073976971440320e-001 -3.040905225282973e-001 1.190994157380896e-002
9.300000000000000e+008 -3.004407100257762e-001 2.258562408393645e-002 1.630358211949910e-001 6.995944945476837e-001 1.630358211949910e-001 6.995944945476837e-001 -3.004407100257762e-001 2.258562408393645e-002
