! Touchstone generated by fitter/viewer 
# HZ S  RI R 5.000000e+001
! 
1.000000000000000e+007 1.586076694987226e-003 2.497195064807592e-002 9.972880212393767e-001 -5.986481158352395e-002 9.972880212393767e-001 -5.986481158352395e-002 1.586076694987226e-003 2.497195064807592e-002
2.000000000000000e+007 5.917659192762881e-003 4.958188043015521e-002 9.906409606896687e-001 -1.188595873232538e-001 9.906409606896687e-001 -1.188595873232538e-001 5.917659192762881e-003 4.958188043015521e-002
3.000000000000000e+007 1.308306893691968e-002 7.348473728982567e-002 9.799939379131273e-001 -1.769223836810962e-001 9.799939379131273e-001 -1.769223836810962e-001 1.308306893691968e-002 7.348473728982567e-002
4.000000000000000e+007 2.295587405055077e-002 9.631727089546233e-002 9.654640345915121e-001 -2.337370479140281e-001 9.654640345915121e-001 -2.337370479140281e-001 2.295587405055077e-002 9.631727089546233e-002
5.000000000000000e+007 3.536096793523280e-002 1.177513862094521e-001 9.472288282958297e-001 -2.889844970634981e-001 9.472288282958297e-001 -2.889844970634981e-001 3.536096793523280e-002 1.177513862094521e-001
6.000000000000000e+007 5.007986331404812e-002 1.374912842163973e-001 9.255071664777156e-001 -3.423748105904971e-001 9.255071664777156e-001 -3.423748105904971e-001 5.007986331404812e-002 1.374912842163973e-001
7.000000000000000e+007 6.685659198593963e-002 1.552812004559692e-001 9.005472687305559e-001 -3.936540903488264e-001 9.005472687305559e-001 -3.936540903488264e-001 6.685659198593963e-002 1.552812004559692e-001
8.000000000000000e+007 8.540725921402004e-002 1.709106193731020e-001 8.726191138006656e-001 -4.426077102051085e-001 8.726191138006656e-001 -4.426077102051085e-001 8.540725921402004e-002 1.709106193731020e-001
9.000000000000000e+007 1.054297496389470e-001 1.842161689495220e-001 8.420072512168608e-001 -4.890624844871310e-001 8.420072512168608e-001 -4.890624844871310e-001 1.054297496389470e-001 1.842161689495220e-001
1.000000000000000e+008 1.266125137116250e-001 1.950812975708450e-001 8.090034052962960e-001 -5.328873865330491e-001 8.090034052962960e-001 -5.328873865330491e-001 1.266125137116250e-001 1.950812975708450e-001
1.100000000000000e+008 1.486422757042081e-001 2.034344712871264e-001 7.738992475081220e-001 -5.739926448221826e-001 7.738992475081220e-001 -5.739926448221826e-001 1.486422757042081e-001 2.034344712871264e-001
1.200000000000000e+008 1.712106583417682e-001 2.092463017715993e-001 7.369797916137015e-001 -6.123273786863641e-001 7.369797916137015e-001 -6.123273786863641e-001 1.712106583417682e-001 2.092463017715993e-001
1.300000000000000e+008 1.940197130838514e-001 2.125258895004327e-001 6.985177242459282e-001 -6.478760882031777e-001 6.985177242459282e-001 -6.478760882031777e-001 1.940197130838514e-001 2.125258895004327e-001
1.400000000000000e+008 2.167863474096570e-001 2.133166337850722e-001 6.587688333232828e-001 -6.806543473721092e-001 6.587688333232828e-001 -6.806543473721092e-001 2.167863474096570e-001 2.133166337850722e-001
1.500000000000000e+008 2.392456684049936e-001 2.116917488482842e-001 6.179685798944381e-001 -7.107040290509221e-001 6.179685798944381e-001 -7.107040290509221e-001 2.392456684049936e-001 2.116917488482842e-001
1.600000000000000e+008 2.611533010746510e-001 2.077497061900978e-001 5.763297758851739e-001 -7.380883460156612e-001 5.763297758851739e-001 -7.380883460156612e-001 2.611533010746510e-001 2.077497061900978e-001
1.700000000000000e+008 2.822867767420770e-001 2.016097933779543e-001 5.340412746668430e-001 -7.628869394206436e-001 5.340412746668430e-001 -7.628869394206436e-001 2.822867767420770e-001 2.016097933779543e-001
1.800000000000000e+008 3.024461144576079e-001 1.934079414083679e-001 4.912675478835912e-001 -7.851911912893995e-001 4.912675478835912e-001 -7.851911912893995e-001 3.024461144576079e-001 1.934079414083679e-001
1.900000000000000e+008 3.214537341958716e-001 1.832929318704518e-001 4.481490060204644e-001 -8.050998859039217e-001 4.481490060204644e-001 -8.050998859039217e-001 3.214537341958716e-001 1.832929318704518e-001
2.000000000000000e+008 3.391538453808747e-001 1.714230555631105e-001 4.048029177515419e-001 -8.227152989012757e-001 4.048029177515419e-001 -8.227152989012757e-001 3.391538453808747e-001 1.714230555631105e-001
2.100000000000000e+008 3.554114499831274e-001 1.579632589132336e-001 3.613247905121867e-001 -8.381397541670832e-001 3.613247905121867e-001 -8.381397541670832e-001 3.554114499831274e-001 1.579632589132336e-001
2.200000000000000e+008 3.701110886381536e-001 1.430827851204371e-001 3.177900887160386e-001 -8.514726578939748e-001 3.177900887160386e-001 -8.514726578939748e-001 3.701110886381536e-001 1.430827851204371e-001
2.300000000000000e+008 3.831554434279143e-001 1.269532939423806e-001 2.742561837940775e-001 -8.628079963453318e-001 2.742561837940775e-001 -8.628079963453318e-001 3.831554434279143e-001 1.269532939423806e-001
2.400000000000000e+008 3.944638942714408e-001 1.097474271873201e-001 2.307644495308614e-001 -8.722322682889100e-001 2.307644495308614e-001 -8.722322682889100e-001 3.944638942714408e-001 1.097474271873201e-001
2.500000000000000e+008 4.039711089268301e-001 9.163777556661483e-002 1.873424353327206e-001 -8.798228137801594e-001 1.873424353327206e-001 -8.798228137801594e-001 4.039711089268301e-001 9.163777556661483e-002
2.600000000000000e+008 4.116257305520894e-001 7.279619560166144e-002 1.440060679198104e-001 -8.856464968843897e-001 1.440060679198104e-001 -8.856464968843897e-001 4.116257305520894e-001 7.279619560166144e-002
2.700000000000000e+008 4.173892122949688e-001 5.339342172911446e-002 1.007618477574085e-001 -8.897586999351159e-001 1.007618477574085e-001 -8.897586999351159e-001 4.173892122949688e-001 5.339342172911446e-002
2.800000000000000e+008 4.212348357983021e-001 3.359891760586523e-002 5.760901993772186e-002 -8.922025900290892e-001 5.760901993772186e-002 -8.922025900290892e-001 4.212348357983021e-001 3.359891760586523e-002
2.900000000000000e+008 4.231469398481526e-001 1.358091100212662e-002 1.454171003838854e-002 -8.930086237919365e-001 1.454171003838854e-002 -8.930086237919365e-001 4.231469398481526e-001 1.358091100212662e-002
3.000000000000000e+008 4.231203764820559e-001 -6.493442135571049e-003 -2.844897628155868e-002 -8.921942633011691e-001 -2.844897628155868e-002 -8.921942633011691e-001 4.231203764820559e-001 -6.493442135571049e-003
3.100000000000000e+008 4.211602043998834e-001 -2.645781742346838e-002 -7.137288544964526e-002 -8.897638838602320e-001 -7.137288544964526e-002 -8.897638838602320e-001 4.211602043998834e-001 -2.645781742346838e-002
3.200000000000000e+008 4.172816230803060e-001 -4.614645724129902e-002 -1.142387720593498e-001 -8.857088626338876e-001 -1.142387720593498e-001 -8.857088626338876e-001 4.172816230803060e-001 -4.614645724129902e-002
3.300000000000000e+008 4.115101451559138e-001 -6.539393210228454e-002 -1.570522699339610e-001 -8.800078456253369e-001 -1.570522699339610e-001 -8.800078456253369e-001 4.115101451559138e-001 -6.539393210228454e-002
3.400000000000000e+008 4.038819988783631e-001 -8.403497838408384e-002 -1.998138703769089e-001 -8.726271987933234e-001 -1.998138703769089e-001 -8.726271987933234e-001 4.038819988783631e-001 -8.403497838408384e-002
3.500000000000000e+008 3.944447464595297e-001 -1.019044624629064e-001 -2.425169031030547e-001 -8.635216569791434e-001 -2.425169031030547e-001 -8.635216569791434e-001 3.944447464595297e-001 -1.019044624629064e-001
3.600000000000000e+008 3.832580972858674e-001 -1.188375212986629e-001 -2.851455207898598e-001 -8.526351914200486e-001 -2.851455207898598e-001 -8.526351914200486e-001 3.832580972858674e-001 -1.188375212986629e-001
3.700000000000000e+008 3.703948871095411e-001 -1.346699293272234e-001 -3.276726957807623e-001 -8.399021225893210e-001 -3.276726957807623e-001 -8.399021225893210e-001 3.703948871095411e-001 -1.346699293272234e-001
3.800000000000000e+008 3.559421850500790e-001 -1.492387406332448e-001 -3.700582471878604e-001 -8.252485094615735e-001 -3.700582471878604e-001 -8.252485094615735e-001 3.559421850500790e-001 -1.492387406332448e-001
3.900000000000000e+008 3.400024794539863e-001 -1.623832531738977e-001 -4.122469283786582e-001 -8.085938484899615e-001 -4.122469283786582e-001 -8.085938484899615e-001 3.400024794539863e-001 -1.623832531738977e-001
4.000000000000000e+008 3.226948813982218e-001 -1.739463375482942e-001 -4.541666183650673e-001 -7.898531149320378e-001 -4.541666183650673e-001 -7.898531149320378e-001 3.226948813982218e-001 -1.739463375482942e-001
4.100000000000000e+008 3.041562711690469e-001 -1.837761656161004e-001 -4.957266755186207e-001 -7.689391749215846e-001 -4.957266755186207e-001 -7.689391749215846e-001 3.041562711690469e-001 -1.837761656161004e-001
4.200000000000000e+008 2.845422989877988e-001 -1.917283632821959e-001 -5.368165276226175e-001 -7.457655880676012e-001 -5.368165276226175e-001 -7.457655880676012e-001 2.845422989877988e-001 -1.917283632821959e-001
4.300000000000000e+008 2.640281375411065e-001 -1.976685961541022e-001 -5.773045875137213e-001 -7.202498066284147e-001 -5.773045875137213e-001 -7.202498066284147e-001 2.640281375411065e-001 -1.976685961541022e-001
4.400000000000000e+008 2.428088718624525e-001 -2.014755758930321e-001 -6.170375970538827e-001 -6.923167578870222e-001 -6.170375970538827e-001 -6.923167578870222e-001 2.428088718624525e-001 -2.014755758930321e-001
4.500000000000000e+008 2.210994035729385e-001 -2.030444486047092e-001 -6.558405121070685e-001 -6.619027710021264e-001 -6.558405121070685e-001 -6.619027710021264e-001 2.210994035729385e-001 -2.030444486047092e-001
4.600000000000000e+008 1.991337435462840e-001 -2.022904947716653e-001 -6.935170454298947e-001 -6.289597786099510e-001 -6.935170454298947e-001 -6.289597786099510e-001 1.991337435462840e-001 -2.022904947716653e-001
4.700000000000000e+008 1.771635720604676e-001 -1.991530339704156e-001 -7.298509805672797e-001 -5.934596878147180e-001 -7.298509805672797e-001 -5.934596878147180e-001 1.771635720604676e-001 -1.991530339704156e-001
4.800000000000000e+008 1.554559607609305e-001 -1.935993888197714e-001 -7.646083556461890e-001 -5.553987768514661e-001 -7.646083556461890e-001 -5.553987768514661e-001 1.554559607609305e-001 -1.935993888197714e-001
4.900000000000000e+008 1.342901782474418e-001 -1.856287241769115e-001 -7.975405894252244e-001 -5.148019355783751e-001 -7.975405894252244e-001 -5.148019355783751e-001 1.342901782474418e-001 -1.856287241769115e-001
5.000000000000000e+008 1.139535419647750e-001 -1.752755434581682e-001 -8.283885819348038e-001 -4.717265340110340e-001 -8.283885819348038e-001 -4.717265340110340e-001 1.139535419647750e-001 -1.752755434581682e-001
5.100000000000000e+008 9.473633319490205e-002 -1.626125988482256e-001 -8.568877686709155e-001 -4.262656781106110e-001 -8.568877686709155e-001 -4.262656781106110e-001 9.473633319490205e-002 -1.626125988482256e-001
5.200000000000000e+008 7.692585744751646e-002 -1.477529611944503e-001 -8.827740424617978e-001 -3.785506011226019e-001 -8.827740424617978e-001 -3.785506011226019e-001 7.692585744751646e-002 -1.477529611944503e-001
5.300000000000000e+008 6.079980551848607e-002 -1.308510033989661e-001 -9.057903847285224e-001 -3.287519467863387e-001 -9.057903847285224e-001 -3.287519467863387e-001 6.079980551848607e-002 -1.308510033989661e-001
5.400000000000000e+008 4.661914495158936e-002 -1.121020818201679e-001 -9.256939738975216e-001 -2.770797314114735e-001 -9.256939738975216e-001 -2.770797314114735e-001 4.661914495158936e-002 -1.121020818201679e-001
5.500000000000000e+008 3.462083989006382e-002 -9.174075521923565e-002 -9.422634709122255e-001 -2.237818267987058e-001 -9.422634709122255e-001 -2.237818267987058e-001 3.462083989006382e-002 -9.174075521923565e-002
5.600000000000000e+008 2.501075068495084e-002 -7.003745890691314e-002 -9.553061287971629e-001 -1.691408840472778e-001 -9.553061287971629e-001 -1.691408840472778e-001 2.501075068495084e-002 -7.003745890691314e-002
5.700000000000000e+008 1.795709470511808e-002 -4.729364837599320e-002 -9.646643434911890e-001 -1.134697148624912e-001 -9.646643434911890e-001 -1.134697148624912e-001 1.795709470511808e-002 -4.729364837599320e-002
5.800000000000000e+008 1.358484977561081e-002 -2.383553394304538e-002 -9.702212634883273e-001 -5.710525415492563e-002 -9.702212634883273e-001 -5.710525415492563e-002 1.358484977561081e-002 -2.383553394304538e-002
5.900000000000000e+008 1.197144780054826e-002 -6.635233488259203e-006 -9.719051099683763e-001 -4.013349774211895e-004 -9.719051099683763e-001 -4.013349774211895e-004 1.197144780054826e-002 -6.635233488259203e-006
6.000000000000000e+008 1.314403875264558e-002 2.384052012972874e-002 -9.696919267232902e-001 5.627939767815919e-002 -9.696919267232902e-001 5.627939767815919e-002 1.314403875264558e-002 2.384052012972874e-002
6.100000000000000e+008 1.707850922635346e-002 4.735315695338666e-002 -9.636065754030500e-001 1.125740354245803e-001 -9.636065754030500e-001 1.125740354245803e-001 1.707850922635346e-002 4.735315695338666e-002
6.200000000000000e+008 2.370032421968682e-002 7.018703533460674e-002 -9.537219073583076e-001 1.681279785951284e-001 -9.537219073583076e-001 1.681279785951284e-001 2.370032421968682e-002 7.018703533460674e-002
6.300000000000000e+008 3.288713777707486e-002 9.201481679713204e-002 -9.401561666063689e-001 2.226030907131638e-001 -9.401561666063689e-001 2.226030907131638e-001 3.288713777707486e-002 9.201481679713204e-002
6.400000000000000e+008 4.447300081567340e-002 1.125336099587833e-001 -9.230687959741379e-001 2.756850295259750e-001 -9.230687959741379e-001 2.756850295259750e-001 4.447300081567340e-002 1.125336099587833e-001
6.500000000000000e+008 5.825389521699498e-002 1.314713607289088e-001 -9.026549179356249e-001 3.270894175650627e-001 -9.026549179356249e-001 3.270894175650627e-001 5.825389521699498e-002 1.314713607289088e-001
6.600000000000000e+008 7.399425169247509e-002 1.485918454524974e-001 -8.791388334701619e-001 3.765666086147929e-001 -8.791388334701619e-001 3.765666086147929e-001 7.399425169247509e-002 1.485918454524974e-001
6.700000000000000e+008 9.143407057093778e-002 1.636981322742628e-001 -8.527669208809964e-001 4.239049133258526e-001 -8.527669208809964e-001 4.239049133258526e-001 9.143407057093778e-002 1.636981322742628e-001
6.800000000000000e+008 1.102962604959388e-001 1.766344843385187e-001 -8.238003209502065e-001 4.689322555493553e-001 -8.238003209502065e-001 4.689322555493553e-001 1.102962604959388e-001 1.766344843385187e-001
6.900000000000000e+008 1.302938368167930e-001 1.872867774040649e-001 -7.925077683156874e-001 5.115163299305547e-001 -7.925077683156874e-001 5.115163299305547e-001 1.302938368167930e-001 1.872867774040649e-001
7.000000000000000e+008 1.511366727249741e-001 1.955815856622924e-001 -7.591588780292816e-001 5.515634125178396e-001 -7.591588780292816e-001 5.515634125178396e-001 1.511366727249741e-001 1.955815856622924e-001
7.100000000000000e+008 1.725375635813080e-001 2.014841479044060e-001 -7.240181292443538e-001 5.890160345223622e-001 -7.240181292443538e-001 5.890160345223622e-001 1.725375635813080e-001 2.014841479044060e-001
7.200000000000000e+008 1.942174396304763e-001 2.049954600041284e-001 -6.873397136612270e-001 6.238497632282967e-001 -6.873397136612270e-001 6.238497632282967e-001 1.942174396304763e-001 2.049954600041284e-001
7.300000000000000e+008 2.159096364473703e-001 2.061487502687922e-001 -6.493633426966256e-001 6.560693447165851e-001 -6.493633426966256e-001 6.560693447165851e-001 2.159096364473703e-001 2.061487502687922e-001
7.400000000000000e+008 2.373631997010880e-001 2.050055850730601e-001 -6.103110406484926e-001 6.857044540467731e-001 -6.103110406484926e-001 6.857044540467731e-001 2.373631997010880e-001 2.050055850730601e-001
7.500000000000000e+008 2.583452569222512e-001 2.016518281127700e-001 -5.703848956404451e-001 7.128052746442223e-001 -5.703848956404451e-001 7.128052746442223e-001 2.583452569222512e-001 2.016518281127700e-001
7.600000000000000e+008 2.786425317683625e-001 1.961936427860599e-001 -5.297656980049704e-001 7.374380950659268e-001 -5.297656980049704e-001 7.374380950659268e-001 2.786425317683625e-001 1.961936427860599e-001
7.700000000000000e+008 2.980621054613489e-001 1.887536885012614e-001 -4.886123673430655e-001 7.596810729652991e-001 -4.886123673430655e-001 7.596810729652991e-001 2.980621054613489e-001 1.887536885012614e-001
7.800000000000000e+008 3.164315466516288e-001 1.794676222235335e-001 -4.470620537510599e-001 7.796202770677830e-001 -4.470620537510599e-001 7.796202770677830e-001 3.164315466516288e-001 1.794676222235335e-001
7.900000000000000e+008 3.335985368530672e-001 1.684809793886283e-001 -4.052307937212313e-001 7.973460814192128e-001 -4.052307937212313e-001 7.973460814192128e-001 3.335985368530672e-001 1.684809793886283e-001
8.000000000000000e+008 3.494301161261979e-001 1.559464754643725e-001 -3.632146046612714e-001 8.129499541448972e-001 -3.632146046612714e-001 8.129499541448972e-001 3.494301161261979e-001 1.559464754643725e-001
8.100000000000000e+008 3.638116652551106e-001 1.420217420085193e-001 -3.210909114332621e-001 8.265216565803590e-001 -3.210909114332621e-001 8.265216565803590e-001 3.638116652551106e-001 1.420217420085193e-001
8.200000000000000e+008 3.766457284606810e-001 1.268674893629518e-001 -2.789202115691730e-001 8.381468482585391e-001 -2.789202115691730e-001 8.381468482585391e-001 3.766457284606810e-001 1.268674893629518e-001
8.300000000000000e+008 3.878507665640487e-001 1.106460718809837e-001 -2.367479009992022e-001 8.479050786567395e-001 -2.367479009992022e-001 8.479050786567395e-001 3.878507665640487e-001 1.106460718809837e-001
8.400000000000000e+008 3.973599158905354e-001 9.352042018361194e-002 -1.946061977529054e-001 8.558681372527009e-001 -1.946061977529054e-001 8.558681372527009e-001 3.973599158905354e-001 9.352042018361194e-002
8.500000000000000e+008 4.051198141025387e-001 7.565329756407938e-002 -1.525161160783713e-001 8.620987285538414e-001 -1.525161160783713e-001 8.620987285538414e-001 4.051198141025387e-001 7.565329756407938e-002
8.600000000000000e+008 4.110895412128954e-001 5.720683342767967e-002 -1.104894570414266e-001 8.666494375252722e-001 -1.104894570414266e-001 8.666494375252722e-001 4.110895412128954e-001 5.720683342767967e-002
8.700000000000000e+008 4.152397125870633e-001 3.834228471580455e-002 -6.853079347096255e-002 8.695619524559110e-001 -6.853079347096255e-002 8.695619524559110e-001 4.152397125870633e-001 3.834228471580455e-002
8.800000000000000e+008 4.175517508753680e-001 1.921997586043942e-002 -2.663943687967806e-002 8.708665160527294e-001 -2.663943687967806e-002 8.708665160527294e-001 4.175517508753680e-001 1.921997586043942e-002
8.900000000000000e+008 4.180173554244773e-001 -6.316888498577490e-007 1.518861836951686e-002 8.705815808300028e-001 1.518861836951686e-002 8.705815808300028e-001 4.180173554244773e-001 -6.316888498577490e-007
9.000000000000000e+008 4.166381805704296e-001 -1.916078842847645e-002 5.695877285436050e-002 8.687136511588556e-001 5.695877285436050e-002 8.687136511588556e-001 4.166381805704296e-001 -1.916078842847645e-002
9.100000000000000e+008 4.134257280005382e-001 -3.810227138444695e-002 9.867591758110722e-002 8.652573012520369e-001 9.867591758110722e-002 8.652573012520369e-001 4.134257280005382e-001 -3.810227138444695e-002
9.200000000000000e+008 4.084014527260345e-001 -5.666721069818463e-002 1.403425414496185e-001 8.601953655410898e-001 1.403425414496185e-001 8.601953655410898e-001 4.084014527260345e-001 -5.666721069818463e-002
9.300000000000000e+008 4.015970767480329e-001 -7.469797412999268e-002 1.819568454713710e-001 8.534993050635189e-001 1.819568454713710e-001 8.534993050635189e-001 4.015970767480329e-001 -7.469797412999268e-002
9.400000000000000e+008 3.930550988442739e-001 -9.203715517811931e-002 2.235108609380974e-001 8.451297603363246e-001 2.235108609380974e-001 8.451297603363246e-001 3.930550988442739e-001 -9.203715517811931e-002
