[Version] 2.0
! Touchstone generated by fitter/viewer 
# HZ S  RI R 5.000000e+001
[Number of Ports] 4
[Number of Frequencies] 2000
[Mixed-Mode Order] D1,3 D2,4 C1,3 C2,4 
! 
[Network Data]
1.000000000000000e+007 4.545611000274023e-005 1.658472029554057e-003 9.996232247680971e-001 -2.739810045416060e-002 -5.038730539172519e-011 -1.359476301606051e-009 5.039002548556937e-011 1.359589767158109e-009
                       9.996232247680971e-001 -2.739810045416060e-002 4.545611000274023e-005 1.658472029554057e-003 5.039002548556937e-011 1.359589777566450e-009 -5.038730539172519e-011 -1.359476301606051e-009
                       -5.038730541205398e-011 -1.359476301497631e-009 5.039002548556937e-011 1.359589777566450e-009 4.123968112225028e-004 1.278848122532701e-002 9.993986354002057e-001 -3.222812804093475e-002
                       5.039002548556937e-011 1.359589767158109e-009 -5.038730541205398e-011 -1.359476301497631e-009 9.993986354002057e-001 -3.222812804093475e-002 4.123968112225028e-004 1.278848122532701e-002
2.000000000000000e+007 1.816869533231216e-004 3.311955202695431e-003 9.984931995242055e-001 -5.477525396106046e-002 -2.012236488682173e-010 -2.711197185376393e-009 2.012648936400296e-010 2.712104301555440e-009
                       9.984931995242055e-001 -5.477525396106046e-002 1.816869533231216e-004 3.311955202695431e-003 2.012647271065760e-010 2.712104311963781e-009 -2.012236488682173e-010 -2.711197185376393e-009
                       -2.012236486378244e-010 -2.711197185159553e-009 2.012647271065760e-010 2.712104311963781e-009 1.647335305299790e-003 2.551967070735662e-002 9.975966769098024e-001 -6.439645108153536e-002
                       2.012648936400296e-010 2.712104301555440e-009 -2.012236486378244e-010 -2.711197185159553e-009 9.975966769098024e-001 -6.439645108153536e-002 1.647335305299790e-003 2.551967070735662e-002
3.000000000000000e+007 4.082804992549460e-004 4.955475916023125e-003 9.966108252721042e-001 -8.211053230817524e-002 -4.515351424466858e-010 -4.047469489339844e-009 4.517429208483748e-010 4.050527677157412e-009
                       9.966108252721042e-001 -8.211053230817524e-002 4.082804992549460e-004 4.955475916023125e-003 4.517427543149211e-010 4.050527691035200e-009 -4.515351424466858e-010 -4.047469489339844e-009
                       -4.515351423924757e-010 -4.047469491508249e-009 4.517427543149211e-010 4.050527691035200e-009 3.698082793342774e-003 3.813669306429580e-002 9.946005073633895e-001 -9.644556795549873e-002
                       4.517429208483748e-010 4.050527677157412e-009 -4.515351423924757e-010 -4.047469491508249e-009 9.946005073633895e-001 -9.644556795549873e-002 3.698082793342774e-003 3.813669306429580e-002
4.000000000000000e+007 7.245514596333823e-004 6.584091022563626e-003 9.939776025137330e-001 -1.093830447173465e-001 -7.997095763921137e-010 -5.360723805830636e-009 8.003658846789108e-010 5.367961596058901e-009
                       9.939776025137330e-001 -1.093830447173465e-001 7.245514596333823e-004 6.584091022563626e-003 8.003656626343059e-010 5.367961602997795e-009 -7.997095763921137e-010 -5.360723805830636e-009
                       -7.997095759042228e-010 -5.360723802361189e-009 8.003656626343059e-010 5.367961602997795e-009 6.553494773142222e-003 5.058349960928928e-002 9.904206882990473e-001 -1.283168791031555e-001
                       8.003658846789108e-010 5.367961596058901e-009 -7.997095759042228e-010 -5.360723802361189e-009 9.904206882990473e-001 -1.283168791031555e-001 6.553494773142222e-003 5.058349960928928e-002
5.000000000000000e+007 1.129543428097453e-003 8.192902936190741e-003 9.905956294966586e-001 -1.365719564743739e-001 -1.243515235227477e-009 -6.643574110114237e-009 1.245116676429348e-009 6.657681836386153e-009
                       9.905956294966586e-001 -1.365719564743739e-001 1.129543428097453e-003 8.192902936190741e-003 1.245116676429348e-009 6.657681864141729e-009 -1.243515235227477e-009 -6.643574110114237e-009
                       -1.243515235227477e-009 -6.643574114451045e-009 1.245116676429348e-009 6.657681864141729e-009 1.019812832459065e-002 6.280526677997092e-002 9.850718467565013e-001 -1.599529723734618e-001
                       1.245116676429348e-009 6.657681836386153e-009 -1.243515235227477e-009 -6.643574114451045e-009 9.850718467565013e-001 -1.599529723734618e-001 1.019812832459065e-002 6.280526677997092e-002
6.000000000000000e+007 1.622031864575969e-003 9.777074588043614e-003 9.864675997685318e-001 -1.636565074539930e-001 -1.780123548458627e-009 -7.888874317685257e-009 1.783442837854921e-009 7.913192309749739e-009
                       9.864675997685318e-001 -1.636565074539930e-001 1.622031864575969e-003 9.777074588043614e-003 1.783442671321467e-009 7.913192337505315e-009 -1.780123548458627e-009 -7.888874317685257e-009
                       -1.780123547699686e-009 -7.888874324624151e-009 1.783442671321467e-009 7.913192337505315e-009 1.461239776714040e-002 7.474877708700883e-002 9.785725198988415e-001 -1.912979912448634e-001
                       1.783442837854921e-009 7.913192309749739e-009 -1.780123547699686e-009 -7.888874324624151e-009 9.785725198988415e-001 -1.912979912448634e-001 1.461239776714040e-002 7.474877708700883e-002
7.000000000000000e+007 2.200527914565232e-003 1.133184418652203e-002 9.815967990464776e-001 -1.906160305061870e-001 -2.406137289412413e-009 -9.089772653320116e-009 2.412284261232855e-009 9.128275565983834e-009
                       9.815967990464776e-001 -1.906160305061870e-001 2.200527914565232e-003 1.133184418652203e-002 2.412284261232855e-009 9.128275524350471e-009 -2.406137289412413e-009 -9.089772653320116e-009
                       -2.406137289412413e-009 -9.089772642911775e-009 2.412284261232855e-009 9.128275524350471e-009 1.977276959941532e-002 8.636277743827250e-002 9.709449604458980e-001 -2.222979802882299e-001
                       2.412284261232855e-009 9.128275565983834e-009 -2.406137289412413e-009 -9.089772642911775e-009 9.709449604458980e-001 -2.222979802882299e-001 1.977276959941532e-002 8.636277743827250e-002
8.000000000000000e+007 2.863283049888206e-003 1.285253973321238e-002 9.759871014115273e-001 -2.174299696704754e-001 -3.117628539659953e-009 -1.023975954982798e-008 3.128109826722181e-009 1.029703813881788e-008
                       9.759871014115273e-001 -2.174299696704754e-001 2.863283049888206e-003 1.285253973321238e-002 3.128109660188727e-009 1.029703816657346e-008 -3.117628539659953e-009 -1.023975954982798e-008
                       -3.117628542478879e-009 -1.023975954722589e-008 3.128109660188727e-009 1.029703816657346e-008 2.565199304985412e-002 9.759831024779181e-002 9.622149066010539e-001 -2.529012032475684e-001
                       3.128109826722181e-009 1.029703813881788e-008 -3.117628542478879e-009 -1.023975954722589e-008 9.622149066010539e-001 -2.529012032475684e-001 2.565199304985412e-002 9.759831024779181e-002
9.000000000000000e+007 3.608294514785238e-003 1.433459324806117e-002 9.696429648403400e-001 -2.440778981856811e-001 -3.910175185375953e-009 -1.133271403542385e-008 3.926954927901960e-009 1.141395339354645e-008
                       9.696429648403400e-001 -2.440778981856811e-001 3.608294514785238e-003 1.433459324806117e-002 3.926954816879658e-009 1.141395339354645e-008 -3.910175185375953e-009 -1.133271403542385e-008
                       -3.910175183641229e-009 -1.133271403802594e-008 3.926954816879658e-009 1.141395339354645e-008 3.221936198609908e-002 1.084090133897004e-001 9.524113207369687e-001 -2.830584297651995e-001
                       3.926954927901960e-009 1.141395339354645e-008 -3.910175183641229e-009 -1.133271403802594e-008 9.524113207369687e-001 -2.830584297651995e-001 3.221936198609908e-002 1.084090133897004e-001
1.000000000000000e+008 4.433311558434329e-003 1.577355465825107e-002 9.625694260884719e-001 -2.705395362636967e-001 -4.778906435073255e-009 -1.236294140845307e-008 4.804465825181126e-009 1.247389663783238e-008
                       9.625694260884719e-001 -2.705395362636967e-001 4.433311558434329e-003 1.577355465825107e-002 4.804465825181126e-009 1.247389666558796e-008 -4.778906435073255e-009 -1.236294140845307e-008
                       -4.778906433772212e-009 -1.236294140671834e-008 4.804465825181126e-009 1.247389666558796e-008 3.944100347392233e-002 1.187513857835068e-001 9.415661015651913e-001 -3.127231875042076e-001
                       4.804465825181126e-009 1.247389663783238e-008 -4.778906433772212e-009 -1.236294140671834e-008 9.415661015651913e-001 -3.127231875042076e-001 3.944100347392233e-002 1.187513857835068e-001
1.100000000000000e+008 5.335842432335494e-003 1.716510530654582e-002 9.547720949414282e-001 -2.967947685969317e-001 -5.718550190672578e-009 -1.332520788849267e-008 5.755946552721269e-009 1.347217568059556e-008
                       9.547720949414282e-001 -2.967947685969317e-001 5.335842432335494e-003 1.716510530654582e-002 5.755946386187816e-009 1.347217576386228e-008 -5.718550190672578e-009 -1.332520788849267e-008
                       -5.718550188937854e-009 -1.332520788155378e-008 5.755946386187816e-009 1.347217576386228e-008 4.728018795270669e-002 1.285850161731532e-001 9.297137748411384e-001 -3.418519771970686e-001
                       5.755946552721269e-009 1.347217568059556e-008 -5.718550188937854e-009 -1.332520788155378e-008 9.297137748411384e-001 -3.418519771970686e-001 4.728018795270669e-002 1.285850161731532e-001
1.200000000000000e+008 6.313162128433933e-003 1.850507103635103e-002 9.462571478515403e-001 -3.228236615704379e-001 -6.723480548351257e-009 -1.421476895219209e-008 6.776405159225618e-009 1.440455676959829e-008
                       9.462571478515403e-001 -3.228236615704379e-001 6.313162128433933e-003 1.850507103635103e-002 6.776404992692164e-009 1.440455690837617e-008 -6.723480548351257e-009 -1.421476895219209e-008
                       -6.723480550085981e-009 -1.421476895913099e-008 6.776404992692164e-009 1.440455690837617e-008 5.569765580745402e-002 1.378727734625897e-001 9.168911678457815e-001 -3.704044489496362e-001
                       6.776405159225618e-009 1.440455676959829e-008 -6.723480550085981e-009 -1.421476895913099e-008 9.168911678457815e-001 -3.704044489496362e-001 5.569765580745402e-002 1.378727734625897e-001
1.300000000000000e+008 7.362320831391125e-003 1.978943481236801e-002 9.370313209804710e-001 -3.486064801511477e-001 -7.787770432438751e-009 -1.502739024883404e-008 7.860606665577308e-009 1.526728141132416e-008
                       9.370313209804710e-001 -3.486064801511477e-001 7.362320831391125e-003 1.978943481236801e-002 7.860606665577308e-009 1.526728143907974e-008 -7.787770432438751e-009 -1.502739024883404e-008
                       -7.787770428535623e-009 -1.502739024883404e-008 7.860606665577308e-009 1.526728143907974e-008 6.465195506533294e-002 1.465809577697285e-001 9.031370729403054e-001 -3.983435389288414e-001
                       7.860606665577308e-009 1.526728141132416e-008 -7.787770428535623e-009 -1.502739024883404e-008 9.031370729403054e-001 -3.983435389288414e-001 6.465195506533294e-002 1.465809577697285e-001
1.400000000000000e+008 8.480153056099216e-003 2.101434883749735e-002 9.271019026687337e-001 -3.741237044282172e-001 -8.905242819198800e-009 -1.575936415393331e-008 9.003123468964702e-009 1.605708008223239e-008
                       9.271019026687337e-001 -3.741237044282172e-001 8.480153056099216e-003 2.101434883749735e-002 9.003123302431249e-009 1.605708008223239e-008 -8.905242819198800e-009 -1.575936415393331e-008
                       -8.905242813994629e-009 -1.575936416087220e-008 9.003123302431249e-009 1.605708008223239e-008 7.409978502152276e-002 1.546794121349590e-001 8.884919054163853e-001 -4.256355663368674e-001
                       9.003123468964702e-009 1.605708008223239e-008 -8.905242813994629e-009 -1.575936416087220e-008 8.884919054163853e-001 -4.256355663368674e-001 7.409978502152276e-002 1.546794121349590e-001
1.500000000000000e+008 9.663287439315965e-003 2.217614612857085e-002 9.164767253550892e-001 -3.993560457801508e-001 -1.006952321785243e-008 -1.640751993992051e-008 1.019838580251786e-008 1.677117864029576e-008
                       9.164767253550892e-001 -3.993560457801508e-001 9.663287439315965e-003 2.217614612857085e-002 1.019838563598441e-008 1.677117861254018e-008 -1.006952321785243e-008 -1.640751993992051e-008
                       -1.006952322218924e-008 -1.640751993992051e-008 1.019838563598441e-008 1.677117861254018e-008 8.399634079387952e-002 1.621415955487530e-001 8.729973606732373e-001 -4.522502913030584e-001
                       1.019838580251786e-008 1.677117864029576e-008 -1.006952322218924e-008 -1.640751993992051e-008 8.729973606732373e-001 -4.522502913030584e-001 8.399634079387952e-002 1.621415955487530e-001
1.600000000000000e+008 1.090815715225110e-002 2.327135151552343e-002 9.051641569700235e-001 -4.242844626461422e-001 -1.127409054568068e-008 -1.696922809213408e-008 1.144073258352307e-008 1.740729979604616e-008
                       9.051641569700235e-001 -4.242844626461422e-001 1.090815715225110e-002 2.327135151552343e-002 1.144073241698962e-008 1.740729979604616e-008 -1.127409054568068e-008 -1.696922809213408e-008
                       -1.127409054307860e-008 -1.696922810601187e-008 1.144073241698962e-008 1.740729979604616e-008 9.429565410479446e-002 1.689446186272732e-001 8.566960754572508e-001 -4.781609349894394e-001
                       1.144073258352307e-008 1.740729979604616e-008 -1.127409054307860e-008 -1.696922810601187e-008 8.566960754572508e-001 -4.781609349894394e-001 9.429565410479446e-002 1.689446186272732e-001
1.700000000000000e+008 1.221101089901215e-002 2.429669203078437e-002 8.931730918286578e-001 -4.488901758809362e-001 -1.251232717349587e-008 -1.744239960452254e-008 1.272445987465787e-008 1.796365739492600e-008
                       8.931730918286578e-001 -4.488901758809362e-001 1.221101089901215e-002 2.429669203078437e-002 1.272445987465787e-008 1.796365745043715e-008 -1.251232717349587e-008 -1.744239960452254e-008
                       -1.251232717436324e-008 -1.744239959411420e-008 1.272445987465787e-008 1.796365745043715e-008 1.049509259749402e-001 1.750692438511171e-001 8.396312975173441e-001 -5.033441637922689e-001
                       1.272445987465787e-008 1.796365739492600e-008 -1.251232717436324e-008 -1.744239959411420e-008 8.396312975173441e-001 -5.033441637922689e-001 1.049509259749402e-001 1.750692438511171e-001
1.800000000000000e+008 1.356792446405987e-002 2.524910665791238e-002 8.805129410495104e-001 -4.731546836744333e-001 -1.377756880804881e-008 -1.782547925238687e-008 1.404387006687102e-008 1.843894811837110e-008
                       8.805129410495104e-001 -4.731546836744333e-001 1.356792446405987e-002 2.524910665791238e-002 1.404386990033757e-008 1.843894820163783e-008 -1.377756880804881e-008 -1.782547925238687e-008
                       -1.377756880804881e-008 -1.782547923157019e-008 1.404386990033757e-008 1.843894820163783e-008 1.159148474692776e-001 1.804998527800334e-001 8.218465675774413e-001 -5.277800400202108e-001
                       1.404387006687102e-008 1.843894811837110e-008 -1.377756880804881e-008 -1.782547923157019e-008 8.218465675774413e-001 -5.277800400202108e-001 1.159148474692776e-001 1.804998527800334e-001
1.900000000000000e+008 1.497481277021729e-002 2.612575541086422e-002 8.671936225263586e-001 -4.970597760192594e-001 -1.506314705867345e-008 -1.811743664814625e-008 1.539331179190029e-008 1.883233705091136e-008
                       8.671936225263586e-001 -4.970597760192594e-001 1.497481277021729e-002 2.612575541086422e-002 1.539331179190029e-008 1.883233713417809e-008 -1.506314705867345e-008 -1.811743664814625e-008
                       -1.506314706301026e-008 -1.811743666202403e-008 1.539331179190029e-008 1.883233713417809e-008 1.271399051418892e-001 1.852243830594180e-001 8.033854170254013e-001 -5.514519418332733e-001
                       1.539331179190029e-008 1.883233705091136e-008 -1.506314706301026e-008 -1.811743666202403e-008 8.033854170254013e-001 -5.514519418332733e-001 1.271399051418892e-001 1.852243830594180e-001
2.000000000000000e+008 1.642744240734058e-002 2.692402771770205e-002 8.532255504811721e-001 -5.205875487115564e-001 -1.636243712396790e-008 -1.831775025065707e-008 1.676722721777324e-008 1.914343916720185e-008
                       8.532255504811721e-001 -5.205875487115564e-001 1.642744240734058e-002 2.692402771770205e-002 1.676722705123979e-008 1.914343911169070e-008 -1.636243712396790e-008 -1.831775025065707e-008
                       -1.636243711355956e-008 -1.831775024718763e-008 1.676722705123979e-008 1.914343911169070e-008 1.385786683642032e-001 1.892342383401047e-001 7.842910841841450e-001 -5.743464555331563e-001
                       1.676722721777324e-008 1.914343916720185e-008 -1.636243711355956e-008 -1.831775024718763e-008 7.842910841841450e-001 -5.743464555331563e-001 1.385786683642032e-001 1.892342383401047e-001
2.100000000000000e+008 1.792144459048049e-002 2.764155008504038e-002 8.386196246266182e-001 -5.437204168723044e-001 -1.766889351322021e-008 -1.842638969878907e-008 1.816018585509838e-008 1.937229632265058e-008
                       8.386196246266182e-001 -5.437204168723044e-001 1.792144459048049e-002 2.764155008504038e-002 1.816018568856492e-008 1.937229637816174e-008 -1.766889351322021e-008 -1.842638969878907e-008
                       -1.766889352883272e-008 -1.842638970572796e-008 1.816018568856492e-008 1.937229637816174e-008 1.501840562731679e-001 1.925241744425313e-001 7.646062514834046e-001 -5.964532435061885e-001
                       1.816018585509838e-008 1.937229632265058e-008 -1.766889352883272e-008 -1.842638970572796e-008 7.646062514834046e-001 -5.964532435061885e-001 1.501840562731679e-001 1.925241744425313e-001
2.200000000000000e+008 1.945232850525389e-002 2.827619302208963e-002 8.233872189670140e-001 -5.664411279785957e-001 -1.897608869518008e-008 -1.844379480045455e-008 1.956692136095839e-008 1.951935435506869e-008
                       8.233872189670140e-001 -5.664411279785957e-001 1.945232850525389e-002 2.827619302208963e-002 1.956692130544724e-008 1.951935441057984e-008 -1.897608869518008e-008 -1.844379480045455e-008
                       -1.897608870038425e-008 -1.844379481086289e-008 1.956692130544724e-008 1.951935441057984e-008 1.619095826255983e-001 1.950921652139023e-001 7.443728053058188e-001 -6.177648912388090e-001
                       1.956692136095839e-008 1.951935435506869e-008 -1.897608870038425e-008 -1.844379481086289e-008 7.443728053058188e-001 -6.177648912388090e-001 1.619095826255983e-001 1.950921652139023e-001
2.300000000000000e+008 2.101549499721425e-002 2.882607720572683e-002 8.075401702668019e-001 -5.887327743963398e-001 -2.027774670398941e-008 -1.837085195424693e-008 2.098236207004334e-008 1.958543377478250e-008
                       8.075401702668019e-001 -5.887327743963398e-001 2.101549499721425e-002 2.882607720572683e-002 2.098236195902103e-008 1.958543383029365e-008 -2.027774670398941e-008 -1.837085195424693e-008
                       -2.027774671786720e-008 -1.837085196465527e-008 2.098236195902103e-008 1.958543383029365e-008 1.737095773778890e-001 1.969392515591070e-001 7.236316197533901e-001 -6.382767368591893e-001
                       2.098236207004334e-008 1.958543377478250e-008 -2.027774671786720e-008 -1.837085196465527e-008 7.236316197533901e-001 -6.382767368591893e-001 1.737095773778890e-001 1.969392515591070e-001
2.400000000000000e+008 2.260625056122552e-002 2.928957887064716e-002 7.910907662156717e-001 -6.105788054079839e-001 -2.156777109511843e-008 -1.820886710683645e-008 2.240165802858130e-008 1.957170026045674e-008
                       7.910907662156717e-001 -6.105788054079839e-001 2.260625056122552e-002 2.928957887064716e-002 2.240165797307014e-008 1.957170037147904e-008 -2.156777109511843e-008 -1.820886710683645e-008
