[Version] 2.0
! Touchstone generated by fitter/viewer 
# HZ S  RI R 5.000000e+001
[Number of Ports] 4
[Number of Frequencies] 2000
[Mixed-Mode Order] D1,3 D2,4 C1,3 C2,4 
! 
[Network Data]
1.000000000000000e+007 1.150250774759946e-004 4.125181451235683e-003 9.996029659274714e-001 -2.787256996089847e-002 -5.543232538973318e-011 -6.432936644311382e-010 1.473691724207527e-010 4.795294222467716e-009
                       9.996029659274714e-001 -2.787256996089847e-002 1.150250774759946e-004 4.125181451235683e-003 1.473693389542063e-010 4.795294217263546e-009 -5.543232538973318e-011 -6.432936644311382e-010
                       -5.543232539650944e-011 -6.432936639974574e-010 1.473693389542063e-010 4.795294217263546e-009 3.470101136912807e-004 1.100033945167236e-002 9.994422792252621e-001 -3.152780697953965e-002
                       1.473691724207527e-010 4.795294222467716e-009 -5.543232539650944e-011 -6.432936639974574e-010 9.994422792252621e-001 -3.152780697953965e-002 3.470101136912807e-004 1.100033945167236e-002
2.000000000000000e+007 4.597272265785756e-004 8.237403966072306e-003 9.984122853201241e-001 -5.572111223424515e-002 -2.212156014196488e-010 -1.275347214987899e-009 5.889760346100559e-010 9.574889242580653e-009
                       9.984122853201241e-001 -5.572111223424515e-002 4.597272265785756e-004 8.237403966072306e-003 5.889762566546608e-010 9.574889242580653e-009 -2.212156014196488e-010 -1.275347214987899e-009
                       -2.212156015009639e-010 -1.275347214987899e-009 5.889762566546608e-010 9.574889242580653e-009 1.386325373868101e-003 2.195429273435852e-002 9.977707303385086e-001 -6.300521257997734e-002
                       5.889760346100559e-010 9.574889242580653e-009 -2.212156015009639e-010 -1.275347214987899e-009 9.977707303385086e-001 -6.300521257997734e-002 1.386325373868101e-003 2.195429273435852e-002
3.000000000000000e+007 1.032988628302391e-003 1.232375324677992e-002 9.964292218012332e-001 -8.352163780118345e-002 -4.958166100995157e-010 -1.885016103278514e-009 1.323322673663085e-009 1.432317235650071e-008
                       9.964292218012332e-001 -8.352163780118345e-002 1.032988628302391e-003 1.232375324677992e-002 1.323322673663085e-009 1.432317235650071e-008 -4.958166100995157e-010 -1.885016103278514e-009
                       -4.958166099910955e-010 -1.885016105013238e-009 1.323322673663085e-009 1.432317235650071e-008 3.112815365755666e-003 3.281576603306181e-002 9.949901789429482e-001 -9.438209410284588e-002
                       1.323322673663085e-009 1.432317235650071e-008 -4.958166099910955e-010 -1.885016105013238e-009 9.949901789429482e-001 -9.438209410284588e-002 3.112815365755666e-003 3.281576603306181e-002
4.000000000000000e+007 1.832951012571769e-003 1.637140406952461e-002 9.936558773931831e-001 -1.112502347923742e-001 -8.766954940871499e-010 -2.461345882318056e-009 2.347925853740662e-009 1.902470275760848e-008
                       9.936558773931831e-001 -1.112502347923742e-001 1.832951012571769e-003 1.637140406952461e-002 2.347925798229511e-009 1.902470274373069e-008 -8.766954940871499e-010 -2.461345882318056e-009
                       -8.766954939787297e-010 -2.461345884052779e-009 2.347925798229511e-009 1.902470274373069e-008 5.517978580251128e-003 4.353924670459659e-002 9.911086189255496e-001 -1.256088826487616e-001
                       2.347925853740662e-009 1.902470275760848e-008 -8.766954939787297e-010 -2.461345884052779e-009 9.911086189255496e-001 -1.256088826487616e-001 5.517978580251128e-003 4.353924670459659e-002
5.000000000000000e+007 2.857022771699506e-003 2.036766431426617e-002 9.900951865219172e-001 -1.388831065946828e-001 -1.360330681649327e-009 -2.993664066641699e-009 3.659344161022204e-009 2.366429428801720e-008
                       9.900951865219172e-001 -1.388831065946828e-001 2.857022771699506e-003 2.036766431426617e-002 3.659344161022204e-009 2.366429423250605e-008 -1.360330681649327e-009 -2.993664066641699e-009
                       -1.360330681432487e-009 -2.993664066641699e-009 3.659344161022204e-009 2.366429423250605e-008 8.590015339056014e-003 5.408008509848127e-002 9.861371401321012e-001 -1.566368311869616e-001
                       3.659344161022204e-009 2.366429428801720e-008 -1.360330681432487e-009 -2.993664066641699e-009 9.861371401321012e-001 -1.566368311869616e-001 8.590015339056014e-003 5.408008509848127e-002
6.000000000000000e+007 4.101888861630047e-003 2.430001839053110e-002 9.857509076810134e-001 -1.663966094006780e-001 -1.942253136100192e-009 -3.471668848231690e-009 5.253207535638182e-009 2.822709499472609e-008
                       9.857509076810134e-001 -1.663966094006780e-001 4.101888861630047e-003 2.430001839053110e-002 5.253207313593578e-009 2.822709498084830e-008 -1.942253136100192e-009 -3.471668848231690e-009
                       -1.942253136100192e-009 -3.471668848231690e-009 5.253207313593578e-009 2.822709498084830e-008 1.231392821672031e-002 6.439476606851846e-002 9.800898287944264e-001 -1.874182722376953e-001
                       5.253207535638182e-009 2.822709499472609e-008 -1.942253136100192e-009 -3.471668848231690e-009 9.800898287944264e-001 -1.874182722376953e-001 1.231392821672031e-002 6.439476606851846e-002
7.000000000000000e+007 5.563523434065154e-003 2.815616986485237e-002 9.806276128125051e-001 -1.937672890226402e-001 -2.617086769952232e-009 -3.885513419690789e-009 7.124257239699006e-009 3.269866259703047e-008
                       9.806276128125051e-001 -1.937672890226402e-001 5.563523434065154e-003 2.815616986485237e-002 7.124257239699006e-009 3.269866255539711e-008 -2.617086769952232e-009 -3.885513419690789e-009
                       -2.617086769518551e-009 -3.885513417956066e-009 7.124257239699006e-009 3.269866255539711e-008 1.667164833962298e-002 7.444116707924239e-002 9.729836423387588e-001 -2.179068620459627e-001
                       7.124257239699006e-009 3.269866259703047e-008 -2.617086769518551e-009 -3.885513417956066e-009 9.729836423387588e-001 -2.179068620459627e-001 1.667164833962298e-002 7.444116707924239e-002
8.000000000000000e+007 7.237205127272868e-003 3.192408310169971e-002 9.747306744769115e-001 -2.209719167990420e-001 -3.378601674906140e-009 -4.225884295272486e-009 9.266395040175013e-009 3.706503345912715e-008
                       9.747306744769115e-001 -2.209719167990420e-001 7.237205127272868e-003 3.192408310169971e-002 9.266395095686164e-009 3.706503345912715e-008 -3.378601674906140e-009 -4.225884295272486e-009
                       -3.378601676207182e-009 -4.225884295272486e-009 9.266395095686164e-009 3.706503345912715e-008 2.164218555269590e-002 8.417880008929374e-002 9.648382605961581e-001 -2.480578084032142e-001
                       9.266395040175013e-009 3.706503345912715e-008 -3.378601676207182e-009 -4.225884295272486e-009 9.648382605961581e-001 -2.480578084032142e-001 2.164218555269590e-002 8.417880008929374e-002
9.000000000000000e+007 9.117534928821417e-003 3.559202373711248e-002 9.680662508995059e-001 -2.479875244291315e-001 -4.219767814686581e-009 -4.484074004468264e-009 1.167273627755705e-008 4.131278635854940e-008
                       9.680662508995059e-001 -2.479875244291315e-001 9.117534928821417e-003 3.559202373711248e-002 1.167273627755705e-008 4.131278627528268e-008 -4.219767814686581e-009 -4.484074004468264e-009
                       -4.219767816421305e-009 -4.484073994059923e-009 1.167273627755705e-008 4.131278627528268e-008 2.720180010684828e-002 9.356903472425998e-002 9.556759157763914e-001 -2.778280796043993e-001
                       1.167273627755705e-008 4.131278635854940e-008 -4.219767816421305e-009 -4.484073994059923e-009 9.556759157763914e-001 -2.778280796043993e-001 2.720180010684828e-002 9.356903472425998e-002
1.000000000000000e+008 1.119845650971753e-002 3.914859781292390e-002 9.606412689936097e-001 -2.747914375802568e-001 -5.132822054540465e-009 -4.652046216996331e-009 1.433566970687750e-008 4.542909831650732e-008
                       9.606412689936097e-001 -2.747914375802568e-001 1.119845650971753e-002 3.914859781292390e-002 1.433566981789980e-008 4.542909823324060e-008 -5.132822054540465e-009 -4.652046216996331e-009
                       -5.132822049336294e-009 -4.652046220465778e-009 1.433566981789980e-008 4.542909823324060e-008 3.332419324083284e-002 1.025753006245123e-001 9.455212038486860e-001 -3.071765924011222e-001
                       1.433566970687750e-008 4.542909831650732e-008 -5.132822049336294e-009 -4.652046220465778e-009 9.455212038486860e-001 -3.071765924011222e-001 3.332419324083284e-002 1.025753006245123e-001
1.100000000000000e+008 1.347327891669797e-002 4.258278940929779e-002 9.524634054743849e-001 -3.013613081228043e-001 -6.109335870529975e-009 -4.722494444109326e-009 1.724692466620326e-008 4.940179454404614e-008
                       9.524634054743849e-001 -3.013613081228043e-001 1.347327891669797e-002 4.258278940929779e-002 1.724692483273671e-008 4.940179454404614e-008 -6.109335870529975e-009 -4.722494444109326e-009
                       -6.109335870529975e-009 -4.722494444109326e-009 1.724692483273671e-008 4.940179454404614e-008 3.998071381606182e-002 1.111632672579253e-001 9.344008801908244e-001 -3.360643772164911e-001
                       1.724692466620326e-008 4.940179454404614e-008 -6.109335870529975e-009 -4.722494444109326e-009 9.344008801908244e-001 -3.360643772164911e-001 3.998071381606182e-002 1.111632672579253e-001
1.200000000000000e+008 1.593470149771088e-002 4.588399662419633e-002 9.435410661882347e-001 -3.276751448589481e-001 -7.140287250351207e-009 -4.688890872794893e-009 2.039763624672730e-008 5.321938797986370e-008
                       9.435410661882347e-001 -3.276751448589481e-001 1.593470149771088e-002 4.588399662419633e-002 2.039763624672730e-008 5.321938792435255e-008 -7.140287250351207e-009 -4.688890872794893e-009
                       -7.140287253820654e-009 -4.688890872794893e-009 2.039763624672730e-008 5.321938792435255e-008 4.714057801451017e-002 1.193009999114848e-001 9.223436425193431e-001 -3.644547193119084e-001
                       2.039763624672730e-008 5.321938797986370e-008 -7.140287253820654e-009 -4.688890872794893e-009 9.223436425193431e-001 -3.644547193119084e-001 4.714057801451017e-002 1.193009999114848e-001
1.300000000000000e+008 1.857484092512732e-002 4.904206576020506e-002 9.338833637933033e-001 -3.537113426237225e-001 -8.216139765065966e-009 -4.545529164873274e-009 2.377842034384514e-008 5.687111298557923e-008
                       9.338833637933033e-001 -3.537113426237225e-001 1.857484092512732e-002 4.904206576020506e-002 2.377842039935629e-008 5.687111290231250e-008 -8.216139765065966e-009 -4.545529164873274e-009
                       -8.216139765065966e-009 -4.545529161403827e-009 2.377842039935629e-008 5.687111290231250e-008 5.477109902925377e-002 1.269590910079069e-001 9.093799041971984e-001 -3.923132750288492e-001
                       2.377842034384514e-008 5.687111298557923e-008 -8.216139765065966e-009 -4.545529161403827e-009 9.093799041971984e-001 -3.923132750288492e-001 5.477109902925377e-002 1.269590910079069e-001
1.400000000000000e+008 2.138526017194383e-002 5.204732359174837e-002 9.235000939356770e-001 -3.794487096500697e-001 -9.326921681165890e-009 -4.287556653465030e-009 2.737944510000645e-008 6.034694913226169e-008
                       9.235000939356770e-001 -3.794487096500697e-001 2.138526017194383e-002 5.204732359174837e-002 2.737944504449530e-008 6.034694904899496e-008 -9.326921681165890e-009 -4.287556653465030e-009
                       -9.326921679431166e-009 -4.287556656934477e-009 2.737944504449530e-008 6.034694904899496e-008 6.283792366293375e-002 1.341107663222036e-001 8.955415610326237e-001 -4.196081626582668e-001
                       2.737944510000645e-008 6.034694913226169e-008 -9.326921679431166e-009 -4.287556656934477e-009 8.955415610326237e-001 -4.196081626582668e-001 6.283792366293375e-002 1.341107663222036e-001
1.500000000000000e+008 2.435699928829652e-002 5.489060759896172e-002 9.124017100736277e-001 -4.048664931033424e-001 -1.046230280708771e-008 -3.911001279777171e-009 3.119050395739009e-008 6.363763824235313e-008
                       9.124017100736277e-001 -4.048664931033424e-001 2.435699928829652e-002 5.489060759896172e-002 3.119050395739009e-008 6.363763815908641e-008 -1.046230280708771e-008 -3.911001279777171e-009
                       -1.046230280882243e-008 -3.911001286716065e-009 3.119050395739009e-008 6.363763815908641e-008 7.130527279831139e-002 1.407319660879988e-001 8.808617546372700e-001 -4.463100279060589e-001
                       3.119050395739009e-008 6.363763824235313e-008 -1.046230280882243e-008 -3.911001286716065e-009 8.808617546372700e-001 -4.463100279060589e-001 7.130527279831139e-002 1.407319660879988e-001
1.600000000000000e+008 2.748060781899463e-002 5.756329406822583e-002 9.005992971085681e-001 -4.299444027051146e-001 -1.161168017814462e-008 -3.412785654771655e-009 3.520109209675937e-008 6.673469027385082e-008
                       9.005992971085681e-001 -4.299444027051146e-001 2.748060781899463e-002 5.756329406822583e-002 3.520109193022591e-008 6.673469019058409e-008 -1.161168017814462e-008 -3.412785654771655e-009
                       -1.161168017987935e-008 -3.412785665179996e-009 3.520109193022591e-008 6.673469019058409e-008 8.013618281199739e-002 1.468014013748594e-001 8.653746353081289e-001 -4.723920843155753e-001
                       3.520109209675937e-008 6.673469027385082e-008 -1.161168017987935e-008 -3.412785665179996e-009 8.653746353081289e-001 -4.723920843155753e-001 8.013618281199739e-002 1.468014013748594e-001
1.700000000000000e+008 3.074617869756203e-002 6.005732397344343e-002 8.881045439862934e-001 -4.546626323809059e-001 -1.276425360026423e-008 -2.790738251601255e-009 3.940047571537875e-008 6.963038573504221e-008
                       8.881045439862934e-001 -4.546626323809059e-001 3.074617869756203e-002 6.005732397344343e-002 3.940047560435644e-008 6.963038567953106e-008 -1.276425360026423e-008 -2.790738251601255e-009
                       -1.276425360546840e-008 -2.790738251601255e-009 3.940047560435644e-008 6.963038567953106e-008 8.929274516105429e-002 1.523005864778126e-001 8.491151272426185e-001 -4.978301293693054e-001
                       3.940047571537875e-008 6.963038573504221e-008 -1.276425360546840e-008 -2.790738251601255e-009 8.491151272426185e-001 -4.978301293693054e-001 8.929274516105429e-002 1.523005864778126e-001
1.800000000000000e+008 3.414338344842964e-002 6.236522656640790e-002 8.749297154355176e-001 -4.790018798814137e-001 -1.390910653667477e-008 -2.043593894801576e-009 4.377776446906623e-008 7.231776696925429e-008
                       8.749297154355176e-001 -4.790018798814137e-001 3.414338344842964e-002 6.236522656640790e-002 4.377776446906623e-008 7.231776694149872e-008 -1.390910653667477e-008 -2.043593894801576e-009
                       -1.390910653320532e-008 -2.043593891332129e-009 4.377776446906623e-008 7.231776694149872e-008 9.873634157499632e-002 1.572138483819656e-001 8.321186986969704e-001 -5.226025373150889e-001
                       4.377776446906623e-008 7.231776696925429e-008 -1.390910653320532e-008 -2.043593891332129e-009 8.321186986969704e-001 -5.226025373150889e-001 9.873634157499632e-002 1.572138483819656e-001
1.900000000000000e+008 3.766150852646243e-002 6.448014061892898e-002 8.610876230127218e-001 -5.029433643419146e-001 -1.503528229349072e-008 -1.170986210774494e-009 4.832197797455251e-008 7.479062219539756e-008
                       8.610876230127218e-001 -5.029433643419146e-001 3.766150852646243e-002 6.448014061892898e-002 4.832197797455251e-008 7.479062208437526e-008 -1.503528229349072e-008 -1.170986210774494e-009
                       -1.503528229002127e-008 -1.170986210774494e-009 4.832197797455251e-008 7.479062208437526e-008 1.084278725245683e-001 1.615283146438043e-001 8.144211394629699e-001 -5.466902300425300e-001
                       4.832197797455251e-008 7.479062219539756e-008 -1.503528229002127e-008 -1.170986210774494e-009 8.144211394629699e-001 -5.466902300425300e-001 1.084278725245683e-001 1.615283146438043e-001
2.000000000000000e+008 4.128949262187213e-002 6.639583327360021e-002 8.465915956228980e-001 -5.264688417595064e-001 -1.613185702034614e-008 -1.734379931339625e-010 5.302210914770456e-008 7.704346716153054e-008
                       8.465915956228980e-001 -5.264688417595064e-001 4.128949262187213e-002 6.639583327360021e-002 5.302210898117110e-008 7.704346721704170e-008 -1.613185702034614e-008 -1.734379931339625e-010
                       -1.613185701687669e-008 -1.734379861950686e-010 5.302210898117110e-008 7.704346721704170e-008 1.183279769050383e-001 1.652338812630403e-001 7.960583477756282e-001 -5.700766275695202e-001
                       5.302210914770456e-008 7.704346716153054e-008 -1.613185701687669e-008 -1.734379861950686e-010 7.960583477756282e-001 -5.700766275695202e-001 1.183279769050383e-001 1.652338812630403e-001
2.100000000000000e+008 4.501596475877278e-002 6.810671647407748e-002 8.314554496849549e-001 -5.495606183826616e-001 -1.718800896055583e-008 9.476599990843049e-010 5.786718426659121e-008 7.907151672315038e-008
                       8.314554496849549e-001 -5.495606183826616e-001 4.501596475877278e-002 6.810671647407748e-002 5.786718432210236e-008 7.907151661212808e-008 -1.718800896055583e-008 9.476599990843049e-010
                       -1.718800896055583e-008 9.476599921454110e-010 5.786718432210236e-008 7.907151661212808e-008 1.283972411570575e-001 1.683231623031485e-001 7.770661284830871e-001 -5.927475798852477e-001
                       5.786718426659121e-008 7.907151672315038e-008 -1.718800896055583e-008 9.476599921454110e-010 7.770661284830871e-001 -5.927475798852477e-001 1.283972411570575e-001 1.683231623031485e-001
2.200000000000000e+008 4.882928301704655e-002 6.960786095935947e-002 8.156934591084107e-001 -5.722015620220255e-001 -1.819308603767667e-008 2.190071853036546e-009 6.284631692832221e-008 8.087065228590262e-008
                       8.156934591084107e-001 -5.722015620220255e-001 4.882928301704655e-002 6.960786095935947e-002 6.284631709485566e-008 8.087065223039147e-008 -1.819308603767667e-008 2.190071853036546e-009
                       -1.819308603767667e-008 2.190071873853228e-009 6.284631709485566e-008 8.087065223039147e-008 1.385963963440552e-001 1.707914231548897e-001 7.574800040183345e-001 -6.146912820347623e-001
                       6.284631692832221e-008 8.087065228590262e-008 -1.819308603767667e-008 2.190071873853228e-009 7.574800040183345e-001 -6.146912820347623e-001 1.385963963440552e-001 1.707914231548897e-001
2.300000000000000e+008 5.271757370982052e-002 7.089500781970909e-002 7.993203252445600e-001 -5.943751113054024e-001 -1.913666614061782e-008 3.550745357461249e-009 6.794875945237422e-008 8.243738569557735e-008
                       7.993203252445600e-001 -5.943751113054024e-001 5.271757370982052e-002 7.089500781970909e-002 6.794875928584077e-008 8.243738569557735e-008 -1.913666614061782e-008 3.550745357461249e-009
                       -1.913666614061782e-008 3.550745350522355e-009 6.794875928584077e-008 8.243738569557735e-008 1.488865020039721e-001 1.726364994263631e-001 7.373350394177954e-001 -6.358981744222702e-001
                       6.794875945237422e-008 8.243738569557735e-008 -1.913666614061782e-008 3.550745350522355e-009 7.373350394177954e-001 -6.358981744222702e-001 1.488865020039721e-001 1.726364994263631e-001
2.400000000000000e+008 5.666877085255859e-002 7.196457762440800e-002 7.823511469706828e-001 -6.160652829132981e-001 -2.000861539994125e-008 5.025844601602714e-009 7.316394334822007e-008 8.376882021376986e-008
                       7.823511469706828e-001 -6.160652829132981e-001 5.666877085255859e-002 7.196457762440800e-002 7.316394340373122e-008 8.376882004723640e-008 -2.000861539994125e-008 5.025844601602714e-009
