! Touchstone generated by fitter/viewer 
# HZ S  RI R 5.000000e+001
! 
1.000000000000000e+007 2.289264102253164e-004 7.223475267964242e-003 9.995109301345428e-001 -2.981311288795795e-002 1.834703506099175e-004 5.565004597886482e-003 -1.122946839456147e-004 -2.415013793387085e-003
                       9.995109301345428e-001 -2.981311288795795e-002 2.289264102253164e-004 7.223475267964242e-003 -1.122946839457069e-004 -2.415013793387075e-003 1.834703506099175e-004 5.565004597886482e-003
                       1.834703506098456e-004 5.565004597886485e-003 -1.122946839457069e-004 -2.415013793387075e-003 2.289265109999272e-004 7.223477986916844e-003 9.995109300337628e-001 -2.981311560713749e-002
                       -1.122946839456147e-004 -2.415013793387085e-003 1.834703506098456e-004 5.565004597886485e-003 9.995109300337628e-001 -2.981311560713749e-002 2.289265109999272e-004 7.223477986916844e-003
2.000000000000000e+007 9.145109280878083e-004 1.441581024382886e-002 9.980449384182701e-001 -5.958584980919368e-002 7.328241759884172e-004 1.110385775233061e-002 -4.482613072014212e-004 -4.810598560237449e-003
                       9.980449384182701e-001 -5.958584980919368e-002 9.145109280878083e-004 1.441581024382886e-002 -4.482613072016221e-004 -4.810598560237437e-003 7.328241759884172e-004 1.110385775233061e-002
                       7.328241759882535e-004 1.110385775233061e-002 -4.482613072016221e-004 -4.810598560237437e-003 9.145113305351060e-004 1.441581566622323e-002 9.980449380157406e-001 -5.958585523340230e-002
                       -4.482613072014212e-004 -4.810598560237449e-003 7.328241759882535e-004 1.110385775233061e-002 9.980449380157406e-001 -5.958585523340230e-002 9.145113305351060e-004 1.441581566622323e-002
3.000000000000000e+007 2.053181194763720e-003 2.154608044269000e-002 9.956056667694911e-001 -8.927804608130943e-002 1.644901147043971e-003 1.659060857413636e-002 -1.005158954357334e-003 -7.167517823661769e-003
                       9.956056667694911e-001 -8.927804608130943e-002 2.053181194763720e-003 2.154608044269000e-002 -1.005158954357530e-003 -7.167517823661753e-003 1.644901147043971e-003 1.659060857413636e-002
                       1.644901147043862e-003 1.659060857413637e-002 -1.005158954357530e-003 -7.167517823661753e-003 2.053182097834005e-003 2.154608853762898e-002 9.956056658660055e-001 -8.927805418236480e-002
                       -1.005158954357334e-003 -7.167517823661769e-003 1.644901147043862e-003 1.659060857413637e-002 9.956056658660055e-001 -8.927805418236480e-002 2.053182097834005e-003 2.154608853762898e-002
4.000000000000000e+007 3.639022316678231e-003 2.858378995520269e-002 9.921991462067574e-001 -1.188499565422896e-001 2.914471656754440e-003 2.199970429336287e-002 -1.778457107342797e-003 -9.466917192904508e-003
                       9.921991462067574e-001 -1.188499565422896e-001 3.639022316678231e-003 2.858378995520269e-002 -1.778457107342913e-003 -9.466917192904496e-003 2.914471656754440e-003 2.199970429336287e-002
                       2.914471656754407e-003 2.199970429336286e-002 -1.778457107342913e-003 -9.466917192904496e-003 3.639023916097384e-003 2.858380067665030e-002 9.921991446060259e-001 -1.188499672782128e-001
                       -1.778457107342797e-003 -9.466917192904508e-003 2.914471656754407e-003 2.199970429336286e-002 9.921991446060259e-001 -1.188499672782128e-001 3.639023916097384e-003 2.858380067665030e-002
5.000000000000000e+007 5.663834632828824e-003 3.549907821450677e-002 9.878337393716981e-001 -1.482624577662362e-001 4.534292448246584e-003 2.730618192189014e-002 -2.761891370078603e-003 -1.169050794954401e-002
                       9.878337393716981e-001 -1.482624577662362e-001 5.663834632828824e-003 3.549907821450677e-002 -2.761891370078608e-003 -1.169050794954398e-002 4.534292448246584e-003 2.730618192189014e-002
                       4.534292448246623e-003 2.730618192189012e-002 -2.761891370078608e-003 -1.169050794954398e-002 5.663837119859294e-003 3.549909150165499e-002 9.878337368814647e-001 -1.482624710815999e-001
                       -2.761891370078603e-003 -1.169050794954401e-002 4.534292448246623e-003 2.730618192189012e-002 9.878337368814647e-001 -1.482624710815999e-001 5.663837119859294e-003 3.549909150165499e-002
6.000000000000000e+007 8.117213035734650e-003 4.226291794865197e-002 9.825200616171309e-001 -1.774772414362361e-001 6.495182951282289e-003 3.248585124948264e-002 -3.947539934845020e-003 -1.382074189543521e-002
                       9.825200616171309e-001 -1.774772414362361e-001 8.117213035734650e-003 4.226291794865197e-002 -3.947539934845190e-003 -1.382074189543518e-002 6.495182951282289e-003 3.248585124948264e-002
                       6.495182951282165e-003 3.248585124948265e-002 -3.947539934845190e-003 -1.382074189543518e-002 8.117216595981747e-003 4.226293372640060e-002 9.825200580502453e-001 -1.774772572626208e-001
                       -3.947539934845020e-003 -1.382074189543521e-002 6.495182951282165e-003 3.248585124948265e-002 9.825200580502453e-001 -1.774772572626208e-001 8.117216595981747e-003 4.226293372640060e-002
7.000000000000000e+007 1.098664635085300e-002 4.884730172262468e-002 9.762708821584734e-001 -2.064569962689332e-001 8.786120842425034e-003 3.751546662587531e-002 -5.325919300289758e-003 -1.584097489102148e-002
                       9.762708821584734e-001 -2.064569962689332e-001 1.098664635085300e-002 4.884730172262468e-002 -5.325919300289793e-003 -1.584097489102150e-002 8.786120842425034e-003 3.751546662587531e-002
                       8.786120842425074e-003 3.751546662587527e-002 -5.325919300289793e-003 -1.584097489102150e-002 1.098665116312758e-002 4.884731990216999e-002 9.762708773339049e-001 -2.064570145254843e-001
                       -5.325919300289758e-003 -1.584097489102148e-002 8.786120842425074e-003 3.751546662587527e-002 9.762708773339049e-001 -2.064570145254843e-001 1.098665116312758e-002 4.884731990216999e-002
8.000000000000000e+007 1.425763493224264e-002 5.522541475074262e-002 9.691010071344017e-001 -2.351655761619841e-001 1.139435499998303e-002 4.237288525728977e-002 -6.886097405236678e-003 -1.773561678854656e-002
                       9.691010071344017e-001 -2.351655761619841e-001 1.425763493224264e-002 5.522541475074262e-002 -6.886097405236870e-003 -1.773561678854651e-002 1.139435499998303e-002 4.237288525728977e-002
                       1.139435499998292e-002 4.237288525728978e-002 -6.886097405236870e-003 -1.773561678854651e-002 1.425764116749972e-002 5.522543523026172e-002 9.691010008781823e-001 -2.351655967560604e-001
                       -6.886097405236678e-003 -1.773561678854656e-002 1.139435499998292e-002 4.237288525728978e-002 9.691010008781823e-001 -2.351655967560604e-001 1.425764116749972e-002 5.522543523026172e-002
9.000000000000000e+007 1.791382434026700e-002 6.137179198616683e-002 9.610271467156106e-001 -2.635681525614873e-001 1.430553373565699e-002 4.703721007081968e-002 -8.615822051685439e-003 -1.949026578975921e-002
                       9.610271467156106e-001 -2.635681525614873e-001 1.791382434026700e-002 6.137179198616683e-002 -8.615822051685597e-003 -1.949026578975921e-002 1.430553373565699e-002 4.703721007081968e-002
                       1.430553373565689e-002 4.703721007081965e-002 -8.615822051685597e-003 -1.949026578975921e-002 1.791383216061737e-002 6.137181465159490e-002 9.610271388617008e-001 -2.635681753893941e-001
                       -8.615822051685439e-003 -1.949026578975921e-002 1.430553373565689e-002 4.703721007081965e-002 9.610271388617008e-001 -2.635681753893941e-001 1.791383216061737e-002 6.137181465159490e-002
1.000000000000000e+008 2.193715273727193e-002 6.726245785793764e-002 9.520677686312987e-001 -2.916313494100559e-001 1.750384595774405e-002 5.148891556262796e-002 -1.050166226164024e-002 -2.109182562025549e-002
                       9.520677686312987e-001 -2.916313494100559e-001 2.193715273727193e-002 6.726245785793764e-002 -1.050166226164030e-002 -2.109182562025545e-002 1.750384595774405e-002 5.148891556262796e-002
                       1.750384595774400e-002 5.148891556262794e-002 -1.050166226164030e-002 -2.109182562025545e-002 2.193716229508480e-002 6.726248258382045e-002 9.520677590223671e-001 -2.916313743578492e-001
                       -1.050166226164024e-002 -2.109182562025549e-002 1.750384595774400e-002 5.148891556262794e-002 9.520677590223671e-001 -2.916313743578492e-001 2.193716229508480e-002 6.726248258382045e-002
1.100000000000000e+008 2.630800947397094e-002 7.287504741464172e-002 9.422429406472310e-001 -3.193233594248248e-001 2.097217276018565e-002 5.570995543330377e-002 -1.252916005014485e-002 -2.252860430006852e-002
                       9.422429406472310e-001 -3.193233594248248e-001 2.630800947397094e-002 7.287504741464172e-002 -1.252916005014493e-002 -2.252860430006847e-002 2.097217276018565e-002 5.570995543330377e-002
                       2.097217276018562e-002 5.570995543330377e-002 -1.252916005014493e-002 -2.252860430006847e-002 2.630802091107132e-002 7.287507406505750e-002 9.422429291353381e-001 -3.193233863691763e-001
                       -1.252916005014485e-002 -2.252860430006852e-002 2.097217276018562e-002 5.570995543330377e-002 9.422429291353381e-001 -3.193233863691763e-001 2.630802091107132e-002 7.287507406505750e-002
1.200000000000000e+008 3.100540224446347e-002 7.818890803470154e-002 9.315741646250673e-001 -3.466140408554807e-001 2.469224683951015e-002 5.968385121311941e-002 -1.468299000287932e-002 -2.379039368959922e-002
                       9.315741646250673e-001 -3.466140408554807e-001 3.100540224446347e-002 7.818890803470154e-002 -1.468299000287953e-002 -2.379039368959913e-002 2.469224683951015e-002 5.968385121311941e-002
                       2.469224683951001e-002 5.968385121311945e-002 -1.468299000287953e-002 -2.379039368959913e-002 3.100541569142457e-002 7.818893646423944e-002 9.315741510722572e-001 -3.466140696645944e-001
                       -1.468299000287932e-002 -2.379039368959922e-002 2.469224683951001e-002 5.968385121311945e-002 9.315741510722572e-001 -3.466140696645944e-001 3.100541569142457e-002 7.818893646423944e-002
1.300000000000000e+008 3.600713016059165e-002 8.318518126365813e-002 9.200842048209962e-001 -3.734749942727137e-001 2.864481711697098e-002 6.339576147868037e-002 -1.694712402008276e-002 -2.486852938884688e-002
                       9.200842048209962e-001 -3.734749942727137e-001 3.600713016059165e-002 8.318518126365813e-002 -1.694712402008287e-002 -2.486852938884690e-002 2.864481711697098e-002 6.339576147868037e-002
                       2.864481711697091e-002 6.339576147868033e-002 -1.694712402008287e-002 -2.486852938884690e-002 3.600714573613251e-002 8.318521131843863e-002 9.200841890997829e-001 -3.734750248072765e-001
                       -1.694712402008276e-002 -2.486852938884688e-002 2.864481711697091e-002 6.339576147868033e-002 9.200841890997829e-001 -3.734750248072765e-001 3.600714573613251e-002 8.318521131843863e-002
1.400000000000000e+008 4.128996013356823e-002 8.784686472686416e-002 9.077969130456841e-001 -3.998796193254628e-001 3.280981598271181e-002 6.683253164873097e-002 -1.930499862617416e-002 -2.575593095432507e-002
                       9.077969130456841e-001 -3.998796193254628e-001 4.128996013356823e-002 8.784686472686416e-002 -1.930499862617424e-002 -2.575593095432513e-002 3.280981598271181e-002 6.683253164873097e-002
                       3.280981598271184e-002 6.683253164873088e-002 -1.930499862617424e-002 -2.575593095432513e-002 4.128997794405387e-002 8.784689624559247e-002 9.077968950394374e-001 -3.998796514396229e-001
                       -1.930499862617416e-002 -2.575593095432507e-002 3.280981598271184e-002 6.683253164873088e-002 9.077968950394374e-001 -3.998796514396229e-001 4.128997794405387e-002 8.784689624559247e-002
1.500000000000000e+008 4.682980404707460e-002 9.215885443114209e-002 8.947370532125503e-001 -4.258031517704266e-001 3.716652667728190e-002 6.998272471009119e-002 -2.173968234092597e-002 -2.644712276145386e-002
                       8.947370532125503e-001 -4.258031517704266e-001 4.682980404707460e-002 9.215885443114209e-002 -2.173968234092613e-002 -2.644712276145383e-002 3.716652667728190e-002 6.998272471009119e-002
                       3.716652667728176e-002 6.998272471009114e-002 -2.173968234092613e-002 -2.644712276145383e-002 4.682982418612103e-002 9.215888724618197e-002 8.947370328157788e-001 -4.258031853127838e-001
                       -2.173968234092597e-002 -2.644712276145386e-002 3.716652667728176e-002 6.998272471009114e-002 8.947370328157788e-001 -4.258031853127838e-001 4.682982418612103e-002 9.215888724618197e-002
1.600000000000000e+008 5.260189435443230e-002 9.610796810217034e-002 8.809301276543708e-001 -4.512226814104916e-001 4.169374847627175e-002 7.283663355587501e-002 -2.423404075638636e-002 -2.693823617164868e-002
                       8.809301276543708e-001 -4.512226814104916e-001 5.260189435443230e-002 9.610796810217034e-002 -2.423404075638642e-002 -2.693823617164867e-002 4.169374847627175e-002 7.283663355587501e-002
                       4.169374847627171e-002 7.283663355587496e-002 -2.423404075638642e-002 -2.693823617164867e-002 5.260191690261340e-002 9.610800204062654e-002 8.809301047729058e-001 -4.512227162250912e-001
                       -2.423404075638636e-002 -2.693823617164868e-002 4.169374847627171e-002 7.283663355587496e-002 8.809301047729058e-001 -4.512227162250912e-001 5.260191690261340e-002 9.610800204062654e-002
1.700000000000000e+008 5.858095592464907e-002 9.968295049855129e-002 8.664022073974621e-001 -4.761171518729458e-001 4.636995753796406e-002 7.538627591016649e-002 -2.677089715565693e-002 -2.722699395566642e-002
                       8.664022073974621e-001 -4.761171518729458e-001 5.858095592464907e-002 9.968295049855129e-002 -2.677089715565691e-002 -2.722699395566638e-002 4.636995753796406e-002 7.538627591016649e-002
                       4.636995753796411e-002 7.538627591016645e-002 -2.677089715565691e-002 -2.722699395566638e-002 5.858098094930342e-002 9.968298538335049e-002 8.664021819485422e-001 -4.761171878002606e-001
                       -2.677089715565693e-002 -2.722699395566642e-002 4.636995753796411e-002 7.538627591016645e-002 8.664021819485422e-001 -4.761171878002606e-001 5.858098094930342e-002 9.968298538335049e-002
1.800000000000000e+008 6.474137218910003e-002 1.028744618934938e-001 8.511797683573470e-001 -5.004673434083746e-001 5.117346150260901e-002 7.762537306106061e-002 -2.933318673603441e-002 -2.731267817288892e-002
                       8.511797683573470e-001 -5.004673434083746e-001 6.474137218910003e-002 1.028744618934938e-001 -2.933318673603459e-002 -2.731267817288877e-002 5.117346150260901e-002 7.762537306106061e-002
                       5.117346150260890e-002 7.762537306106064e-002 -2.933318673603459e-002 -2.731267817288877e-002 6.474139974423765e-002 1.028744975444523e-001 8.511797402696071e-001 -5.004673802862709e-001
                       -2.933318673603441e-002 -2.731267817288892e-002 5.117346150260890e-002 7.762537306106064e-002 8.511797402696071e-001 -5.004673802862709e-001 6.474139974423765e-002 1.028744975444523e-001
1.900000000000000e+008 7.105734389290630e-002 1.056750511177046e-001 8.352895351691928e-001 -5.242558400939300e-001 5.608254618583605e-002 7.954931382427698e-002 -3.190410275047864e-002 -2.719608290700704e-002
                       8.352895351691928e-001 -5.242558400939300e-001 7.105734389290630e-002 1.056750511177046e-001 -3.190410275047862e-002 -2.719608290700696e-002 5.608254618583605e-002 7.954931382427698e-002
                       5.608254618583605e-002 7.954931382427699e-002 -3.190410275047862e-002 -2.719608290700696e-002 7.105737401920043e-002 1.056750873525779e-001 8.352895043825693e-001 -5.242558777586042e-001
                       -3.190410275047864e-002 -2.719608290700704e-002 5.608254618583605e-002 7.954931382427699e-002 8.352895043825693e-001 -5.242558777586042e-001 7.105737401920043e-002 1.056750873525779e-001
2.000000000000000e+008 7.750303902333489e-002 1.080791147111533e-001 8.187583340998869e-001 -5.474669829789181e-001 6.107561297843141e-002 8.115510531120147e-002 -3.446723314851363e-002 -2.687945341080000e-002
                       8.187583340998869e-001 -5.474669829789181e-001 7.750303902333489e-002 1.080791147111533e-001 -3.446723314851372e-002 -2.687945341080000e-002 6.107561297843141e-002 8.115510531120147e-002
                       6.107561297843140e-002 8.115510531120143e-002 -3.446723314851372e-002 -2.687945341080000e-002 7.750307174820914e-002 1.080791513466538e-001 8.187583005654325e-001 -5.474670212657963e-001
                       -3.446723314851363e-002 -2.687945341080000e-002 6.107561297843140e-002 8.115510531120143e-002 8.187583005654325e-001 -5.474670212657963e-001 7.750307174820914e-002 1.080791513466538e-001
2.100000000000000e+008 8.405273276293079e-002 1.100828438373963e-001 8.016129562151982e-001 -5.700868108169509e-001 6.613130584134389e-002 8.244131217874560e-002 -3.700668657160675e-002 -2.636641331694206e-002
                       8.016129562151982e-001 -5.700868108169509e-001 8.405273276293079e-002 1.100828438373963e-001 -3.700668657160688e-002 -2.636641331694201e-002 6.613130584134389e-002 8.244131217874560e-002
                       6.613130584134373e-002 8.244131217874558e-002 -3.700668657160688e-002 -2.636641331694201e-002 8.405276810071782e-002 1.100828806901757e-001 8.016129198948268e-001 -5.700868495615435e-001
                       -3.700668657160675e-002 -2.636641331694206e-002 6.613130584134373e-002 8.244131217874558e-002 8.016129198948268e-001 -5.700868495615435e-001 8.405276810071782e-002 1.100828806901757e-001
2.200000000000000e+008 9.068093658933751e-002 1.116841606742013e-001 7.838800317033388e-001 -5.921029900893488e-001 7.122862706017233e-002 8.340798609590644e-002 -3.950720683059752e-002 -2.566188163010667e-002
                       7.838800317033388e-001 -5.921029900893488e-001 9.068093658933751e-002 1.116841606742013e-001 -3.950720683059764e-002 -2.566188163010668e-002 7.122862706017233e-002 8.340798609590644e-002
                       7.122862706017227e-002 8.340798609590641e-002 -3.950720683059764e-002 -2.566188163010668e-002 9.068097454151491e-002 1.116841975617909e-001 7.838799925694961e-001 -5.921030291280576e-001
                       -3.950720683059752e-002 -2.566188163010667e-002 7.122862706017227e-002 8.340798609590641e-002 7.838799925694961e-001 -5.921030291280576e-001 9.068097454151491e-002 1.116841975617909e-001
2.300000000000000e+008 9.736251590980505e-002 1.128826460115651e-001 7.655859159924592e-001 -6.135047360423316e-001 7.634704119033749e-002 8.405658717669021e-002 -4.195427525670595e-002 -2.477198123142476e-002
                       7.655859159924592e-001 -6.135047360423316e-001 9.736251590980505e-002 1.128826460115651e-001 -4.195427525670601e-002 -2.477198123142472e-002 7.634704119033749e-002 8.405658717669021e-002
                       7.634704119033746e-002 8.405658717669015e-002 -4.195427525670601e-002 -2.477198123142472e-002 9.736255646529846e-002 1.128826827532690e-001 7.655858740277352e-001 -6.135047752131992e-001
                       -4.195427525670595e-002 -2.477198123142476e-002 7.634704119033746e-002 8.405658717669015e-002 7.655858740277352e-001 -6.135047752131992e-001 9.736255646529846e-002 1.128826827532690e-001
2.400000000000000e+008 1.040727958700523e-001 1.136794597672313e-001 7.467565880503799e-001 -6.342827264402086e-001 8.146656687659790e-002 8.438989910545122e-002 -4.433420056695083e-002 -2.370394060392414e-002
                       7.467565880503799e-001 -6.342827264402086e-001 1.040727958700523e-001 1.136794597672313e-001 -4.433420056695088e-002 -2.370394060392402e-002 8.146656687659790e-002 8.438989910545122e-002
