! Touchstone generated by fitter/viewer 
# HZ S  RI R 5.000000e+001
! 
1.000000000000000e+007 2.310175401513126e-004 7.562759808160370e-003 9.995226227237375e-001 -2.970018367492488e-002 1.159925181076417e-004 3.437579000218350e-003 -8.034335110471228e-005 -1.827618509320591e-003
                       9.995226227237375e-001 -2.970018367492488e-002 2.310175401513126e-004 7.562759808160370e-003 -8.034335110465532e-005 -1.827618509320598e-003 1.159925181076417e-004 3.437579000218350e-003
                       1.159925181076446e-004 3.437579000218341e-003 -8.034335110465532e-005 -1.827618509320598e-003 2.310176510159634e-004 7.562761094747699e-003 9.995226224289989e-001 -2.970019326551332e-002
                       -8.034335110471228e-005 -1.827618509320591e-003 1.159925181076446e-004 3.437579000218341e-003 9.995226224289989e-001 -2.970019326551332e-002 2.310176510159634e-004 7.562761094747699e-003
2.000000000000000e+007 9.230260790077383e-004 1.509584707486822e-002 9.980915084182939e-001 -5.936315283222209e-002 4.632990736447776e-004 6.858444384143124e-003 -3.207774908077244e-004 -3.642050172866090e-003
                       9.980915084182939e-001 -5.936315283222209e-002 9.230260790077383e-004 1.509584707486822e-002 -3.207774908077084e-004 -3.642050172866099e-003 4.632990736447776e-004 6.858444384143124e-003
                       4.632990736447489e-004 6.858444384143107e-003 -3.207774908077084e-004 -3.642050172866099e-003 9.230265214389410e-004 1.509584962556265e-002 9.980915072403416e-001 -5.936317198200057e-002
                       -3.207774908077244e-004 -3.642050172866090e-003 4.632990736447489e-004 6.858444384143107e-003 9.980915072403416e-001 -5.936317198200057e-002 9.230265214389410e-004 1.509584962556265e-002
3.000000000000000e+007 2.072901501212421e-003 2.256975775490479e-002 9.957097016954148e-001 -8.895185162884244e-002 1.039913368726654e-003 1.024600639314096e-002 -7.195214291424176e-004 -5.430228150831223e-003
                       9.957097016954148e-001 -8.895185162884244e-002 2.072901501212421e-003 2.256975775490479e-002 -7.195214291424177e-004 -5.430228150831226e-003 1.039913368726654e-003 1.024600639314096e-002
                       1.039913368726625e-003 1.024600639314095e-002 -7.195214291424177e-004 -5.430228150831226e-003 2.072902492845641e-003 2.256976152493700e-002 9.957096990487695e-001 -8.895188027518716e-002
                       -7.195214291424176e-004 -5.430228150831223e-003 1.039913368726625e-003 1.024600639314095e-002 9.957096990487695e-001 -8.895188027518716e-002 2.072902492845641e-003 2.256976152493700e-002
4.000000000000000e+007 3.675463919715960e-003 2.995532292571476e-002 9.923822505072937e-001 -1.184295396958653e-001 1.842513783839713e-003 1.358392131753602e-002 -1.273629233816654e-003 -7.179323928193700e-003
                       9.923822505072937e-001 -1.184295396958653e-001 3.675463919715960e-003 2.995532292571476e-002 -1.273629233816728e-003 -7.179323928193727e-003 1.842513783839713e-003 1.358392131753602e-002
                       1.842513783839652e-003 1.358392131753599e-002 -1.273629233816728e-003 -7.179323928193727e-003 3.675465673106948e-003 2.995532784840653e-002 9.923822458114420e-001 -1.184295777452708e-001
                       -1.273629233816654e-003 -7.179323928193700e-003 1.842513783839652e-003 1.358392131753599e-002 9.923822458114420e-001 -1.184295777452708e-001 3.675465673106948e-003 2.995532784840653e-002
5.000000000000000e+007 5.723517695047087e-003 3.722387171270971e-002 9.881161669863547e-001 -1.477599452265282e-001 2.866496283678259e-003 1.685621039210759e-002 -1.979023194907959e-003 -8.876862296139400e-003
                       9.881161669863547e-001 -1.477599452265282e-001 5.723517695047087e-003 3.722387171270971e-002 -1.979023194907967e-003 -8.876862296139440e-003 2.866496283678259e-003 1.685621039210759e-002
                       2.866496283678257e-003 1.685621039210756e-002 -1.979023194907967e-003 -8.876862296139440e-003 5.723520415708450e-003 3.722387770003784e-002 9.881161596676665e-001 -1.477599925551167e-001
                       -1.979023194907959e-003 -8.876862296139400e-003 2.866496283678257e-003 1.685621039210756e-002 9.881161596676665e-001 -1.477599925551167e-001 5.723520415708450e-003 3.722387770003784e-002
6.000000000000000e+007 8.207906596922054e-003 4.434738875785600e-002 9.829203734909286e-001 -1.769074125920919e-001 4.106019677545173e-003 2.004737383899374e-002 -2.830539443293422e-003 -1.051083141850864e-002
                       9.829203734909286e-001 -1.769074125920919e-001 8.207906596922054e-003 4.434738875785600e-002 -2.830539443293490e-003 -1.051083141850865e-002 4.106019677545173e-003 2.004737383899374e-002
                       4.106019677545101e-003 2.004737383899370e-002 -2.830539443293490e-003 -1.051083141850865e-002 8.207910481428327e-003 4.434739570119370e-002 9.829203629845138e-001 -1.769074690462819e-001
                       -2.830539443293422e-003 -1.051083141850864e-002 4.106019677545101e-003 2.004737383899370e-002 9.829203629845138e-001 -1.769074690462819e-001 8.207910481428327e-003 4.434739570119370e-002
7.000000000000000e+007 1.111758326975731e-002 5.129866458653404e-002 9.768056346998906e-001 -2.058370428356391e-001 5.554062452778920e-003 2.314249860719507e-002 -3.821985236873222e-003 -1.206978651166126e-002
                       9.768056346998906e-001 -2.058370428356391e-001 1.111758326975731e-002 5.129866458653404e-002 -3.821985236873156e-003 -1.206978651166129e-002 5.554062452778920e-003 2.314249860719507e-002
                       5.554062452778917e-003 2.314249860719502e-002 -3.821985236873156e-003 -1.206978651166129e-002 1.111758850393085e-002 5.129867235756088e-002 9.768056204513761e-001 -2.058371082329643e-001
                       -3.821985236873222e-003 -1.206978651166126e-002 5.554062452778917e-003 2.314249860719502e-002 9.768056204513761e-001 -2.058371082329643e-001 1.111758850393085e-002 5.129867235756088e-002
8.000000000000000e+007 1.443969196138273e-002 5.805143736961251e-002 9.697844768029312e-001 -2.345148255360950e-001 7.202490212711547e-003 2.612735849379706e-002 -4.946206940376685e-003 -1.354294580208612e-002
                       9.697844768029312e-001 -2.345148255360950e-001 1.443969196138273e-002 5.805143736961251e-002 -4.946206940376732e-003 -1.354294580208613e-002 7.202490212711547e-003 2.612735849379706e-002
                       7.202490212711505e-003 2.612735849379703e-002 -4.946206940376732e-003 -1.354294580208613e-002 1.443969871858608e-002 5.805144582138110e-002 9.697844582701410e-001 -2.345148996661619e-001
                       -4.946206940376685e-003 -1.354294580208612e-002 7.202490212711505e-003 2.612735849379703e-002 9.697844582701410e-001 -2.345148996661619e-001 1.443969871858608e-002 5.805144582138110e-002
9.000000000000000e+007 1.815966329806706e-002 6.458052474661231e-002 9.618710950106864e-001 -2.629077607039794e-001 9.042132589013457e-003 2.898850549357383e-002 -6.195167561557245e-003 -1.492027758763384e-002
                       9.618710950106864e-001 -2.629077607039794e-001 1.815966329806706e-002 6.458052474661231e-002 -6.195167561557261e-003 -1.492027758763391e-002 9.042132589013457e-003 2.898850549357383e-002
                       9.042132589013431e-003 2.898850549357375e-002 -6.195167561557261e-003 -1.492027758763391e-002 1.815967173760269e-002 6.458053371476033e-002 9.618710716652139e-001 -2.629078433295521e-001
                       -6.195167561557245e-003 -1.492027758763384e-002 9.042132589013431e-003 2.898850549357375e-002 9.618710716652139e-001 -2.629078433295521e-001 1.815967173760269e-002 6.458053371476033e-002
1.000000000000000e+008 2.226131974245316e-002 7.086194456667197e-002 9.530812507568189e-001 -2.909839695615916e-001 1.106286836555766e-002 3.171335140579426e-002 -7.560032572461902e-003 -1.619257741043266e-002
                       9.530812507568189e-001 -2.909839695615916e-001 2.226131974245316e-002 7.086194456667197e-002 -7.560032572461847e-003 -1.619257741043271e-002 1.106286836555766e-002 3.171335140579426e-002
                       1.106286836555769e-002 3.171335140579421e-002 -7.560032572461847e-003 -1.619257741043271e-002 2.226133000809727e-002 7.086195387076440e-002 9.530812220854794e-001 -2.909840604197882e-001
                       -7.560032572461902e-003 -1.619257741043266e-002 1.106286836555769e-002 3.171335140579421e-002 9.530812220854794e-001 -2.909840604197882e-001 2.226133000809727e-002 7.086195387076440e-002
1.100000000000000e+008 2.672699025704406e-002 7.687302361111721e-002 9.434321600795307e-001 -3.187127932678536e-001 1.325371744968195e-002 3.429023892431383e-002 -9.031262641780355e-003 -1.735153454684341e-002
                       9.434321600795307e-001 -3.187127932678536e-001 2.672699025704406e-002 7.687302361111721e-002 -9.031262641780296e-003 -1.735153454684342e-002 1.325371744968195e-002 3.429023892431383e-002
                       1.325371744968192e-002 3.429023892431377e-002 -9.031262641780296e-003 -1.735153454684342e-002 2.672700247571580e-002 7.687303305610610e-002 9.434321255856811e-001 -3.187128920714427e-001
                       -9.031262641780355e-003 -1.735153454684341e-002 1.325371744968192e-002 3.429023892431377e-002 9.434321255856811e-001 -3.187128920714427e-001 2.672700247571580e-002 7.687303305610610e-002
1.200000000000000e+008 3.153763261582332e-002 8.259249357894984e-002 9.329423747514266e-001 -3.460648788660408e-001 1.560293825839969e-002 3.670850164364435e-002 -1.059871183444589e-002 -1.838978722648012e-002
                       9.329423747514266e-001 -3.460648788660408e-001 3.153763261582332e-002 8.259249357894984e-002 -1.059871183444589e-002 -1.838978722648019e-002 1.560293825839969e-002 3.670850164364435e-002
                       1.560293825839965e-002 3.670850164364426e-002 -1.059871183444589e-002 -1.838978722648019e-002 3.153764689639782e-002 8.259250295673158e-002 9.329423339561539e-001 -3.460649853048167e-001
                       -1.059871183444589e-002 -1.838978722648012e-002 1.560293825839965e-002 3.670850164364426e-002 9.329423339561539e-001 -3.460649853048167e-001 3.153764689639782e-002 8.259250295673158e-002
1.300000000000000e+008 3.667296176105084e-002 8.800057383852693e-002 9.216316577736725e-001 -3.730122519551734e-001 1.809812905206326e-002 3.895851262385100e-002 -1.225172979805245e-002 -1.930096620256336e-002
                       9.216316577736725e-001 -3.730122519551734e-001 3.667296176105084e-002 8.800057383852693e-002 -1.225172979805247e-002 -1.930096620256341e-002 1.809812905206326e-002 3.895851262385100e-002
                       1.809812905206324e-002 3.895851262385092e-002 -1.225172979805247e-002 -1.930096620256341e-002 3.667297819333037e-002 8.800058292958525e-002 9.216316102168317e-001 -3.730123656973993e-001
                       -1.225172979805245e-002 -1.930096620256336e-002 1.809812905206324e-002 3.895851262385092e-002 9.216316102168317e-001 -3.730123656973993e-001 3.667297819333037e-002 8.800058292958525e-002
1.400000000000000e+008 4.211158259051717e-002 9.307904066941945e-002 9.095208548635967e-001 -3.995283758072198e-001 2.072633174549503e-002 4.103172136522772e-002 -1.397926645152657e-002 -2.007972650409857e-002
                       9.095208548635967e-001 -3.995283758072198e-001 4.211158259051717e-002 9.307904066941945e-002 -1.397926645152657e-002 -2.007972650409864e-002 2.072633174549503e-002 4.103172136522772e-002
                       2.072633174549495e-002 4.103172136522763e-002 -1.397926645152657e-002 -2.007972650409864e-002 4.211160124436053e-002 9.307904924453277e-002 9.095208001047065e-001 -3.995284965011179e-001
                       -1.397926645152657e-002 -2.007972650409857e-002 2.072633174549495e-002 4.103172136522763e-002 9.095208001047065e-001 -3.995284965011179e-001 4.211160124436053e-002 9.307904924453277e-002
1.500000000000000e+008 4.783112558100122e-002 9.781128293247911e-002 8.966317635459541e-001 -4.255881968670631e-001 2.347413675500750e-002 4.292067924451865e-002 -1.576997771817882e-002 -2.072176740135821e-002
                       8.966317635459541e-001 -4.255881968670631e-001 4.783112558100122e-002 9.781128293247911e-002 -1.576997771817884e-002 -2.072176740135830e-002 2.347413675500750e-002 4.292067924451865e-002
                       2.347413675500744e-002 4.292067924451853e-002 -1.576997771817884e-002 -2.072176740135830e-002 4.783114650560683e-002 9.781129075448167e-002 8.966317011649462e-001 -4.255883241423395e-001
                       -1.576997771817882e-002 -2.072176740135821e-002 2.347413675500744e-002 4.292067924451853e-002 8.966317011649462e-001 -4.255883241423395e-001 4.783114650560683e-002 9.781129075448167e-002
1.600000000000000e+008 5.380838370381591e-002 1.021823443087571e-001 8.829870014094419e-001 -4.511681767756554e-001 2.632778749650146e-002 4.461905365331688e-002 -1.761233090021966e-002 -2.122384080523038e-002
                       8.829870014094419e-001 -4.511681767756554e-001 5.380838370381591e-002 1.021823443087571e-001 -1.761233090021980e-002 -2.122384080523046e-002 2.632778749650146e-002 4.461905365331688e-002
                       2.632778749650137e-002 4.461905365331679e-002 -1.761233090021980e-002 -2.122384080523046e-002 5.380840692717626e-002 1.021823511343284e-001 8.829869310072578e-001 -4.511683102450359e-001
                       -1.761233090021966e-002 -2.122384080523038e-002 2.632778749650137e-002 4.461905365331679e-002 8.829869310072578e-001 -4.511683102450359e-001 5.380840692717626e-002 1.021823511343284e-001
1.700000000000000e+008 6.001944916505464e-002 1.061789524348899e-001 8.686098750149328e-001 -4.762463112447206e-001 2.927328323174621e-002 4.612163125218468e-002 -1.949470837183743e-002 -2.158374849419979e-002
                       8.686098750149328e-001 -4.762463112447206e-001 6.001944916505464e-002 1.061789524348899e-001 -1.949470837183747e-002 -2.158374849419981e-002 2.927328323174621e-002 4.612163125218468e-002
                       2.927328323174612e-002 4.612163125218462e-002 -1.949470837183747e-002 -2.158374849419981e-002 6.001947469356184e-002 1.061789580163664e-001 8.686097962139815e-001 -4.762464505054920e-001
                       -1.949470837183743e-002 -2.158374849419979e-002 2.927328323174612e-002 4.612163125218462e-002 8.686097962139815e-001 -4.762464505054920e-001 6.001947469356184e-002 1.061789580163664e-001
1.800000000000000e+008 6.643984860260654e-002 1.097895354305930e-001 8.535242508440096e-001 -5.008021362804851e-001 3.229647906328343e-002 4.742431090777895e-002 -2.140550836927369e-002 -2.180032871683753e-002
                       8.535242508440096e-001 -5.008021362804851e-001 6.643984860260654e-002 1.097895354305930e-001 -2.140550836927377e-002 -2.180032871683759e-002 3.229647906328343e-002 4.742431090777895e-002
                       3.229647906328335e-002 4.742431090777884e-002 -2.140550836927377e-002 -2.180032871683759e-002 6.643987642081961e-002 1.097895395177808e-001 8.535241632884807e-001 -5.008022809160190e-001
                       -2.140550836927369e-002 -2.180032871683753e-002 3.229647906328335e-002 4.742431090777884e-002 8.535241632884807e-001 -5.008022809160190e-001 6.643987642081961e-002 1.097895395177808e-001
1.900000000000000e+008 7.304467549023319e-002 1.130042264603806e-001 8.377544295598249e-001 -5.248167224016009e-001 3.538318199905304e-002 4.852408701243775e-002 -2.333324177487598e-002 -2.187343285030773e-002
                       8.377544295598249e-001 -5.248167224016009e-001 7.304467549023319e-002 1.130042264603806e-001 -2.333324177487603e-002 -2.187343285030785e-002 3.538318199905304e-002 4.852408701243775e-002
                       3.538318199905297e-002 4.852408701243768e-002 -2.333324177487603e-002 -2.187343285030785e-002 7.304470556079779e-002 1.130042288023530e-001 8.377543329158691e-001 -5.248168719828452e-001
                       -2.333324177487598e-002 -2.187343285030773e-002 3.538318199905297e-002 4.852408701243768e-002 8.377543329158691e-001 -5.248168719828452e-001 7.304470556079779e-002 1.130042288023530e-001
2.000000000000000e+008 7.980871863159833e-002 1.158148570948824e-001 8.213250247213735e-001 -5.482726576210468e-001 3.851924214158322e-002 4.941902399472013e-002 -2.526662392363490e-002 -2.180389290500690e-002
                       8.213250247213735e-001 -5.482726576210468e-001 7.980871863159833e-002 1.158148570948824e-001 -2.526662392363503e-002 -2.180389290500691e-002 3.851924214158322e-002 4.941902399472013e-002
                       3.851924214158310e-002 4.941902399472004e-002 -2.526662392363503e-002 -2.180389290500691e-002 7.980875089531236e-002 1.158148574417584e-001 8.213249186771552e-001 -5.482728117079811e-001
                       -2.526662392363490e-002 -2.180389290500690e-002 3.851924214158310e-002 4.941902399472004e-002 8.213249186771552e-001 -5.482728117079811e-001 7.980875089531236e-002 1.158148574417584e-001
2.100000000000000e+008 8.670658576990631e-002 1.182149403362732e-001 8.042608469512064e-001 -5.711540200624388e-001 4.169063819914250e-002 5.010822291453568e-002 -2.719466060093394e-002 -2.159348075129309e-002
                       8.042608469512064e-001 -5.711540200624388e-001 8.670658576990631e-002 1.182149403362732e-001 -2.719466060093402e-002 -2.159348075129319e-002 4.169063819914250e-002 5.010822291453568e-002
                       4.169063819914236e-002 5.010822291453554e-002 -2.719466060093402e-002 -2.159348075129319e-002 8.670662014592423e-002 1.182149384409532e-001 8.042607312168378e-001 -5.711541782054721e-001
                       -2.719466060093394e-002 -2.159348075129309e-002 4.169063819914236e-002 5.010822291453554e-002 8.042607312168378e-001 -5.711541782054721e-001 8.670662014592423e-002 1.182149384409532e-001
2.200000000000000e+008 9.371282148746496e-002 1.201996442471966e-001 7.865867944096907e-001 -5.934463411577425e-001 4.488355666350441e-002 5.059178109776524e-002 -2.910672754503826e-002 -2.124486000636842e-002
                       7.865867944096907e-001 -5.934463411577425e-001 9.371282148746496e-002 1.201996442471966e-001 -2.910672754503819e-002 -2.124486000636851e-002 4.488355666350441e-002 5.059178109776524e-002
                       4.488355666350433e-002 5.059178109776510e-002 -2.910672754503819e-002 -2.124486000636851e-002 9.371285787363703e-002 1.201996398670529e-001 7.865866687170567e-001 -5.934465028990470e-001
                       -2.910672754503826e-002 -2.124486000636842e-002 4.488355666350433e-002 5.059178109776510e-002 7.865866687170567e-001 -5.934465028990470e-001 9.371285787363703e-002 1.201996398670529e-001
2.300000000000000e+008 1.008020187202303e-001 1.217657571737816e-001 7.683277502799382e-001 -6.151365604264515e-001 4.808446414707591e-002 5.087074580332709e-002 -3.099264291338228e-002 -2.076153155843392e-002
                       7.683277502799382e-001 -6.151365604264515e-001 1.008020187202303e-001 1.217657571737816e-001 -3.099264291338234e-002 -2.076153155843388e-002 4.808446414707591e-002 5.087074580332709e-002
                       4.808446414707580e-002 5.087074580332703e-002 -3.099264291338234e-002 -2.076153155843388e-002 1.008020569935626e-001 1.217657500722909e-001 7.683276143824195e-001 -6.151367253012229e-001
                       -3.099264291338228e-002 -2.076153155843392e-002 4.808446414707580e-002 5.087074580332703e-002 7.683276143824195e-001 -6.151367253012229e-001 1.008020569935626e-001 1.217657500722909e-001
2.400000000000000e+008 1.079489233615396e-001 1.229116455820091e-001 7.495084878201505e-001 -6.362129728670237e-001 5.128017251759638e-002 5.094706293175645e-002 -3.284273231447690e-002 -2.014777372254488e-002
                       7.495084878201505e-001 -6.362129728670237e-001 1.079489233615396e-001 1.229116455820091e-001 -3.284273231447690e-002 -2.014777372254498e-002 5.128017251759638e-002 5.094706293175645e-002
