! Touchstone generated by fitter/viewer 
# HZ S  RI R 5.000000e+001
! 
1.000000000000000e+007 1.015576414688324e-002 1.063280898344775e-002 9.891596745706707e-001 -3.383028728429784e-002 2.638743941861035e-004 1.651465447338922e-003 -2.442604825809018e-004 -1.153867651342784e-003
                       9.891596745706707e-001 -3.383028728429784e-002 1.015576414688324e-002 1.063280898344775e-002 -2.442604825806117e-004 -1.153867651342809e-003 2.638743941861035e-004 1.651465447338922e-003
                       2.638743941861762e-004 1.651465447338861e-003 -2.442604825806117e-004 -1.153867651342809e-003 1.015576267939167e-002 1.063281409173533e-002 9.891596763062371e-001 -3.383028699825866e-002
                       -2.442604825809018e-004 -1.153867651342784e-003 2.638743941861762e-004 1.651465447338861e-003 9.891596763062371e-001 -3.383028699825866e-002 1.015576267939167e-002 1.063281409173533e-002
2.000000000000000e+007 1.249128145461220e-002 1.894562087579980e-002 9.856141773553544e-001 -6.494466210324949e-002 5.281677483668914e-004 3.162421231835957e-003 -4.665565018573317e-004 -2.176596989239371e-003
                       9.856141773553544e-001 -6.494466210324949e-002 1.249128145461220e-002 1.894562087579980e-002 -4.665565018571498e-004 -2.176596989239389e-003 5.281677483668914e-004 3.162421231835957e-003
                       5.281677483669560e-004 3.162421231835939e-003 -4.665565018571498e-004 -2.176596989239389e-003 1.249127992799270e-002 1.894563202910007e-002 9.856141796604389e-001 -6.494466261500646e-002
                       -4.665565018573317e-004 -2.176596989239371e-003 5.281677483669560e-004 3.162421231835939e-003 9.856141796604389e-001 -6.494466261500646e-002 1.249127992799270e-002 1.894563202910007e-002
3.000000000000000e+007 1.492403114755414e-002 2.679736337701767e-002 9.814623461288641e-001 -9.543014407747380e-002 8.795319724776760e-004 4.626154339141855e-003 -7.542355342112801e-004 -3.158236465862068e-003
                       9.814623461288641e-001 -9.543014407747380e-002 1.492403114755414e-002 2.679736337701767e-002 -7.542355342112553e-004 -3.158236465862063e-003 8.795319724776760e-004 4.626154339141855e-003
                       8.795319724776834e-004 4.626154339141860e-003 -7.542355342112553e-004 -3.158236465862063e-003 1.492403012764243e-002 2.679738067198929e-002 9.814623486716464e-001 -9.543014555912714e-002
                       -7.542355342112801e-004 -3.158236465862068e-003 8.795319724776834e-004 4.626154339141860e-003 9.814623486716464e-001 -9.543014555912714e-002 1.492403012764243e-002 2.679738067198929e-002
4.000000000000000e+007 1.761269659327747e-002 3.433759778743693e-002 9.765398168667715e-001 -1.254757023724228e-001 1.322529784227760e-003 6.046266530931747e-003 -1.112103417509434e-003 -4.102802982622272e-003
                       9.765398168667715e-001 -1.254757023724228e-001 1.761269659327747e-002 3.433759778743693e-002 -1.112103417509447e-003 -4.102802982622258e-003 1.322529784227760e-003 6.046266530931747e-003
                       1.322529784227770e-003 6.046266530931772e-003 -1.112103417509447e-003 -4.102802982622258e-003 1.761269656306264e-002 3.433762121789323e-002 9.765398193981232e-001 -1.254757048865214e-001
                       -1.112103417509434e-003 -4.102802982622272e-003 1.322529784227770e-003 6.046266530931772e-003 9.765398193981232e-001 -1.254757048865214e-001 1.761269656306264e-002 3.433762121789323e-002
5.000000000000000e+007 2.061299701535524e-002 4.161164595581504e-002 9.707971202110951e-001 -1.551356562348840e-001 1.856444977958471e-003 7.420251804903380e-003 -1.539967247984133e-003 -5.008756398762727e-003
                       9.707971202110951e-001 -1.551356562348840e-001 2.061299701535524e-002 4.161164595581504e-002 -1.539967247984069e-003 -5.008756398762745e-003 1.856444977958471e-003 7.420251804903380e-003
                       1.856444977958516e-003 7.420251804903357e-003 -1.539967247984069e-003 -5.008756398762745e-003 2.061299841872155e-002 4.161167545883909e-002 9.707971225165779e-001 -1.551356597907640e-001
                       -1.539967247984133e-003 -5.008756398762727e-003 1.856444977958516e-003 7.420251804903357e-003 9.707971225165779e-001 -1.551356597907640e-001 2.061299841872155e-002 4.161167545883909e-002
6.000000000000000e+007 2.394753003310413e-002 4.862901376672878e-002 9.642188172416072e-001 -1.844263750035627e-001 2.478761520009780e-003 8.743958208582949e-003 -2.035890343489489e-003 -5.872917463967421e-003
                       9.642188172416072e-001 -1.844263750035627e-001 2.394753003310413e-002 4.862901376672878e-002 -2.035890343489501e-003 -5.872917463967473e-003 2.478761520009780e-003 8.743958208582949e-003
                       2.478761520009781e-003 8.743958208582937e-003 -2.035890343489501e-003 -5.872917463967473e-003 2.394753328738075e-002 4.862904923905668e-002 9.642188191285604e-001 -1.844263795742737e-001
                       -2.035890343489489e-003 -5.872917463967421e-003 2.478761520009781e-003 8.743958208582937e-003 9.642188191285604e-001 -1.844263795742737e-001 2.394753328738075e-002 4.862904923905668e-002
7.000000000000000e+007 2.762212580006673e-002 5.538491037177012e-002 9.568021796126658e-001 -2.133476068566794e-001 3.186040740208240e-003 1.001270356837626e-002 -2.596979990290464e-003 -6.691601933197091e-003
                       9.568021796126658e-001 -2.133476068566794e-001 2.762212580006673e-002 5.538491037177012e-002 -2.596979990290583e-003 -6.691601933197081e-003 3.186040740208240e-003 1.001270356837626e-002
                       3.186040740208189e-003 1.001270356837624e-002 -2.596979990290583e-003 -6.691601933197081e-003 2.762213130111957e-002 5.538495167728207e-002 9.568021809063948e-001 -2.133476123872351e-001
                       -2.596979990290464e-003 -6.691601933197091e-003 3.186040740208189e-003 1.001270356837624e-002 9.568021809063948e-001 -2.133476123872351e-001 2.762213130111957e-002 5.538495167728207e-002
8.000000000000000e+007 3.163329191893360e-002 6.186887224485044e-002 9.485510433304348e-001 -2.418898262940067e-001 3.974213520351681e-003 1.122170150718406e-002 -3.219716328689992e-003 -7.461073875266938e-003
                       9.485510433304348e-001 -2.418898262940067e-001 3.163329191893360e-002 6.186887224485044e-002 -3.219716328689977e-003 -7.461073875266899e-003 3.974213520351681e-003 1.122170150718406e-002
                       3.974213520351697e-003 1.122170150718413e-002 -3.219716328689977e-003 -7.461073875266899e-003 3.163330004305709e-002 6.186891921866642e-002 9.485510438730332e-001 -2.418898327067131e-001
                       -3.219716328689992e-003 -7.461073875266938e-003 3.974213520351697e-003 1.122170150718413e-002 9.485510438730332e-001 -2.418898327067131e-001 3.163330004305709e-002 6.186891921866642e-002
9.000000000000000e+007 3.597214757438649e-002 6.806821155876629e-002 9.394737144698644e-001 -2.700380714363529e-001 4.838711861424441e-003 1.236628109098144e-002 -3.900126504676416e-003 -8.177753338331982e-003
                       9.394737144698644e-001 -2.700380714363529e-001 3.597214757438649e-002 6.806821155876629e-002 -3.900126504676529e-003 -8.177753338331904e-003 4.838711861424441e-003 1.236628109098144e-002
                       4.838711861424400e-003 1.236628109098142e-002 -3.900126504676529e-003 -8.177753338331904e-003 3.597215867863424e-002 6.806826401006037e-002 9.394737141198934e-001 -2.700380786346924e-001
                       -3.900126504676416e-003 -8.177753338331982e-003 4.838711861424400e-003 1.236628109098142e-002 9.394737141198934e-001 -2.700380786346924e-001 3.597215867863424e-002 6.806826401006037e-002
1.000000000000000e+008 4.062647710116729e-002 7.396942628765293e-002 9.295819384438395e-001 -2.977743364781568e-001 5.774552328253631e-003 1.344201937718507e-002 -4.633890103057129e-003 -8.838324072347924e-003
                       9.295819384438395e-001 -2.977743364781568e-001 4.062647710116729e-002 7.396942628765293e-002 -4.633890103057163e-003 -8.838324072347897e-003 5.774552328253631e-003 1.344201937718507e-002
                       5.774552328253626e-003 1.344201937718508e-002 -4.633890103057163e-003 -8.838324072347897e-003 4.062649152296016e-002 7.396948400200785e-002 9.295819370763521e-001 -2.977743443498270e-001
                       -4.633890103057129e-003 -8.838324072347924e-003 5.774552328253626e-003 1.344201937718508e-002 9.295819370763521e-001 -2.977743443498270e-001 4.062649152296016e-002 7.396948400200785e-002
1.100000000000000e+008 4.558178422884729e-002 7.955884814700553e-002 9.188901881265894e-001 -3.250791124323347e-001 6.776402883528641e-003 1.444482691565653e-002 -5.416412098573717e-003 -9.439796884363735e-003
                       9.188901881265894e-001 -3.250791124323347e-001 4.558178422884729e-002 7.955884814700553e-002 -5.416412098573711e-003 -9.439796884363791e-003 6.776402883528641e-003 1.444482691565653e-002
                       6.776402883528633e-003 1.444482691565648e-002 -5.416412098573711e-003 -9.439796884363791e-003 4.558180228530129e-002 7.955891088859966e-002 9.188901856333124e-001 -3.250791208517811e-001
                       -5.416412098573717e-003 -9.439796884363735e-003 6.776402883528633e-003 1.444482691565648e-002 9.188901856333124e-001 -3.250791208517811e-001 4.558180228530129e-002 7.955891088859966e-002
1.200000000000000e+008 5.082184415673352e-002 8.482301293617522e-002 9.074151017208818e-001 -3.519323730140949e-001 7.838642339288332e-003 1.537100422472287e-002 -6.242880590575374e-003 -9.979550635470787e-003
                       9.074151017208818e-001 -3.519323730140949e-001 5.082184415673352e-002 8.482301293617522e-002 -6.242880590575461e-003 -9.979550635470801e-003 7.838642339288332e-003 1.537100422472287e-002
                       7.838642339288268e-003 1.537100422472279e-002 -6.242880590575461e-003 -9.979550635470801e-003 5.082186614393058e-002 8.482308044990339e-002 9.074150980104708e-001 -3.519323818447414e-001
                       -6.242880590575374e-003 -9.979550635470787e-003 7.838642339288268e-003 1.537100422472279e-002 9.074150980104708e-001 -3.519323818447414e-001 5.082186614393058e-002 8.482308044990339e-002
1.300000000000000e+008 5.632901656628508e-002 8.974892441746332e-002 8.951750293721399e-001 -3.783141992045230e-001 8.955415402063998e-003 1.621727898936274e-002 -7.108317523761695e-003 -1.045535985973366e-002
                       8.951750293721399e-001 -3.783141992045230e-001 5.632901656628508e-002 8.974892441746332e-002 -7.108317523761682e-003 -1.045535985973362e-002 8.955415402063998e-003 1.621727898936274e-002
                       8.955415402063998e-003 1.621727898936273e-002 -7.108317523761682e-003 -1.045535985973362e-002 5.632904275859862e-002 8.974899643101654e-002 8.951750243704386e-001 -3.783142083008285e-001
                       -7.108317523761695e-003 -1.045535985973366e-002 8.955415402063998e-003 1.621727898936273e-002 8.951750243704386e-001 -3.783142083008285e-001 5.632904275859862e-002 8.974899643101654e-002
1.400000000000000e+008 6.208445091073500e-002 9.432426747486090e-002 8.821896695136279e-001 -4.042051720577664e-001 1.012068443693206e-002 1.698082972830958e-002 -8.007626083448682e-003 -1.086541288167263e-002
                       8.821896695136279e-001 -4.042051720577664e-001 6.208445091073500e-002 9.432426747486090e-002 -8.007626083448842e-003 -1.086541288167259e-002 1.012068443693206e-002 1.698082972830958e-002
                       1.012068443693201e-002 1.698082972830957e-002 -8.007626083448842e-003 -1.086541288167259e-002 6.208448156026236e-002 9.432434370077204e-002 8.821896631638776e-001 -4.042051812671759e-001
                       -8.007626083448682e-003 -1.086541288167263e-002 1.012068443693201e-002 1.698082972830957e-002 8.821896631638776e-001 -4.042051812671759e-001 6.208448156026236e-002 9.432434370077204e-002
1.500000000000000e+008 6.806824633106667e-002 9.853758696759241e-002 8.684797783054573e-001 -4.295866182334765e-001 1.132827843963340e-002 1.765929947320514e-002 -8.935636231653828e-003 -1.120832229754455e-002
                       8.684797783054573e-001 -4.295866182334765e-001 6.806824633106667e-002 9.853758696759241e-002 -8.935636231654024e-003 -1.120832229754443e-002 1.132827843963340e-002 1.765929947320514e-002
                       1.132827843963330e-002 1.765929947320507e-002 -8.935636231654024e-003 -1.120832229754443e-002 6.806828166718604e-002 9.853766710523863e-002 8.684797705684363e-001 -4.295866273983072e-001
                       -8.935636231653828e-003 -1.120832229754455e-002 1.132827843963330e-002 1.765929947320507e-002 8.684797705684363e-001 -4.295866273983072e-001 6.806828166718604e-002 9.853766710523863e-002
1.600000000000000e+008 7.425959410387140e-002 1.023784367556267e-001 8.540669366098902e-001 -4.544407620316730e-001 1.257193942719846e-002 1.825080172855212e-002 -9.887148785238142e-003 -1.148312888858626e-002
                       8.540669366098902e-001 -4.544407620316730e-001 7.425959410387140e-002 1.023784367556267e-001 -9.887148785238177e-003 -1.148312888858617e-002 1.257193942719846e-002 1.825080172855212e-002
                       1.257193942719849e-002 1.825080172855217e-002 -9.887148785238177e-003 -1.148312888858617e-002 7.425963433293858e-002 1.023785204931869e-001 8.540669274639408e-001 -4.544407709909467e-001
                       -9.887148785238142e-003 -1.148312888858626e-002 1.257193942719849e-002 1.825080172855217e-002 8.540669274639408e-001 -4.544407709909467e-001 7.425963433293858e-002 1.023785204931869e-001
1.700000000000000e+008 8.063691393032513e-002 1.058375006035602e-001 8.389733610353094e-001 -4.787508176500860e-001 1.384536630650769e-002 1.875392023238966e-002 -1.085697795107233e-002 -1.168929971796717e-002
                       8.389733610353094e-001 -4.787508176500860e-001 8.063691393032513e-002 1.058375006035602e-001 -1.085697795107237e-002 -1.168929971796722e-002 1.384536630650769e-002 1.875392023238966e-002
                       1.384536630650760e-002 1.875392023238950e-002 -1.085697795107237e-002 -1.168929971796722e-002 8.063695923550163e-002 1.058375876199190e-001 8.389733504762488e-001 -4.787508262413163e-001
                       -1.085697795107233e-002 -1.168929971796717e-002 1.384536630650760e-002 1.875392023238950e-002 8.389733504762488e-001 -4.787508262413163e-001 8.063695923550163e-002 1.058375876199190e-001
1.800000000000000e+008 8.717798768938168e-002 1.089066865955545e-001 8.232217481651079e-001 -5.025010426277818e-001 1.514225619153320e-002 1.916770359481829e-002 -1.183999203473457e-002 -1.182672103771363e-002
                       8.232217481651079e-001 -5.025010426277818e-001 8.717798768938168e-002 1.089066865955545e-001 -1.183999203473462e-002 -1.182672103771360e-002 1.514225619153320e-002 1.916770359481829e-002
                       1.514225619153315e-002 1.916770359481824e-002 -1.183999203473462e-002 -1.182672103771360e-002 8.717803823059900e-002 1.089067765621439e-001 8.232217362060069e-001 -5.025010506887063e-001
                       -1.183999203473457e-002 -1.182672103771363e-002 1.514225619153315e-002 1.916770359481824e-002 8.232217362060069e-001 -5.025010506887063e-001 8.717803823059900e-002 1.089067765621439e-001
1.900000000000000e+008 9.386009094737646e-002 1.115791971640532e-001 8.068351435984553e-001 -5.256767654484036e-001 1.645634309067299e-002 1.949165562843235e-002 -1.283115198304709e-002 -1.189568658091215e-002
                       8.068351435984553e-001 -5.256767654484036e-001 9.386009094737646e-002 1.115791971640532e-001 -1.283115198304717e-002 -1.189568658091217e-002 1.645634309067299e-002 1.949165562843235e-002
                       1.645634309067289e-002 1.949165562843223e-002 -1.283115198304717e-002 -1.189568658091217e-002 9.386014686142352e-002 1.115792897466329e-001 8.068351302692878e-001 -5.256767728186601e-001
                       -1.283115198304709e-002 -1.189568658091215e-002 1.645634309067289e-002 1.949165562843223e-002 8.068351302692878e-001 -5.256767728186601e-001 9.386014686142352e-002 1.115792897466329e-001
2.000000000000000e+008 1.006601212685300e-001 1.138495772166024e-001 7.898368295930399e-001 -5.482643953186381e-001 1.778143386401429e-002 1.972572202722847e-002 -1.382554743355014e-002 -1.189688179055932e-002
                       7.898368295930399e-001 -5.482643953186381e-001 1.006601212685300e-001 1.138495772166024e-001 -1.382554743355030e-002 -1.189688179055925e-002 1.778143386401429e-002 1.972572202722847e-002
                       1.778143386401420e-002 1.972572202722841e-002 -1.382554743355030e-002 -1.189688179055925e-002 1.006601826692626e-001 1.138496720769627e-001 7.898368149401973e-001 -5.482644018413644e-001
                       -1.382554743355014e-002 -1.189688179055932e-002 1.778143386401420e-002 1.972572202722841e-002 7.898368149401973e-001 -5.482644018413644e-001 1.006601826692626e-001 1.138496720769627e-001
2.100000000000000e+008 1.075547220833870e-001 1.157137430139222e-001 7.722502268412960e-001 -5.702514190872202e-001 1.911144134886614e-002 1.987027395480830e-002 -1.481842998858624e-002 -1.183136452013768e-002
                       7.722502268412960e-001 -5.702514190872202e-001 1.075547220833870e-001 1.157137430139222e-001 -1.481842998858611e-002 -1.183136452013772e-002 1.911144134886614e-002 1.987027395480830e-002
                       1.911144134886623e-002 1.987027395480838e-002 -1.481842998858611e-002 -1.183136452013772e-002 1.075547890620467e-001 1.157138398115126e-001 7.722502109269797e-001 -5.702514246105802e-001
                       -1.481842998858624e-002 -1.183136452013768e-002 1.911144134886623e-002 1.987027395480838e-002 7.722502109269797e-001 -5.702514246105802e-001 1.075547890620467e-001 1.157138398115126e-001
2.200000000000000e+008 1.145204009942280e-001 1.171689944360655e-001 7.540988072537865e-001 -5.916263884125345e-001 2.044041456463591e-002 1.992608904246028e-002 -1.580524348890290e-002 -1.170054272470760e-002
                       7.540988072537865e-001 -5.916263884125345e-001 1.145204009942280e-001 1.171689944360655e-001 -1.580524348890267e-002 -1.170054272470774e-002 2.044041456463591e-002 1.992608904246028e-002
                       2.044041456463604e-002 1.992608904246034e-002 -1.580524348890267e-002 -1.170054272470774e-002 1.145204736198608e-001 1.171690928295401e-001 7.540987901552795e-001 -5.916263927911509e-001
                       -1.580524348890290e-002 -1.170054272470760e-002 2.044041456463604e-002 1.992608904246034e-002 7.540987901552795e-001 -5.916263927911509e-001 1.145204736198608e-001 1.171690928295401e-001
2.300000000000000e+008 1.215336416622541e-001 1.182140131314134e-001 7.354060156246549e-001 -6.123788991723989e-001 2.176256593057618e-002 1.989433025727508e-002 -1.678165112186320e-002 -1.150614964233970e-002
                       7.354060156246549e-001 -6.123788991723989e-001 1.215336416622541e-001 1.182140131314134e-001 -1.678165112186311e-002 -1.150614964233970e-002 2.176256593057618e-002 1.989433025727508e-002
                       2.176256593057631e-002 1.989433025727520e-002 -1.678165112186311e-002 -1.150614964233970e-002 1.215337199822277e-001 1.182141127800846e-001 7.354059974334839e-001 -6.123789022686870e-001
                       -1.678165112186320e-002 -1.150614964233970e-002 2.176256593057631e-002 1.989433025727520e-002 7.354059974334839e-001 -6.123789022686870e-001 1.215337199822277e-001 1.182141127800846e-001
2.400000000000000e+008 1.285710087079864e-001 1.188488488297063e-001 7.161951987799331e-001 -6.324995644543250e-001 2.307229545852805e-002 1.977652307037608e-002 -1.774355925746808e-002 -1.125021694350494e-002
                       7.161951987799331e-001 -6.324995644543250e-001 1.285710087079864e-001 1.188488488297063e-001 -1.774355925746813e-002 -1.125021694350484e-002 2.307229545852805e-002 1.977652307037608e-002
