[Version] 2.0
! Touchstone generated by fitter/viewer 
# HZ S  RI R 5.000000e+001
[Number of Ports] 4
[Number of Frequencies] 2000
[Mixed-Mode Order] D1,3 D2,4 C1,3 C2,4 
! 
[Network Data]
1.000000000000000e+007 9.891889018951300e-003 8.981346090252636e-003 9.894039359210332e-001 -3.267641948993541e-002 7.337457846173789e-010 -2.554143789697261e-009 -8.677834562043074e-010 -1.430195822882396e-010
                       9.894039359210332e-001 -3.267641948993541e-002 9.891889018951300e-003 8.981346090252636e-003 -8.677831231374000e-010 -1.430196065743683e-010 7.337457846173789e-010 -2.554143789697261e-009
                       7.337457846173789e-010 -2.554143790564623e-009 -8.677831231374000e-010 -1.430196065743683e-010 1.041963780732358e-002 1.228427698493042e-002 9.889154149558717e-001 -3.498415479262100e-002
                       -8.677834562043074e-010 -1.430195822882396e-010 7.337457846173789e-010 -2.554143790564623e-009 9.889154149558717e-001 -3.498415479262100e-002 1.041963780732358e-002 1.228427698493042e-002
2.000000000000000e+007 1.196311294293551e-002 1.578320522061397e-002 9.860807350097525e-001 -6.276806536988852e-002 7.633097504761155e-010 -5.576650132996242e-009 -1.152542283833213e-009 2.558784920059232e-010
                       9.860807350097525e-001 -6.276806536988852e-002 1.196311294293551e-002 1.578320522061397e-002 -1.152542172810911e-009 2.558784781281354e-010 7.633097504761155e-010 -5.576650132996242e-009
                       7.633097504761155e-010 -5.576650136465688e-009 -1.152542172810911e-009 2.558784781281354e-010 1.301944843966936e-002 2.210804768428585e-002 9.851476220060380e-001 -6.712125934836727e-002
                       -1.152542283833213e-009 2.558784920059232e-010 7.633097504761155e-010 -5.576650136465688e-009 9.851476220060380e-001 -6.712125934836727e-002 1.301944843966936e-002 2.210804768428585e-002
3.000000000000000e+007 1.404449866512058e-002 2.217121768536159e-002 9.822165829344651e-001 -9.227190835243829e-002 5.099558544538474e-010 -8.647485807283806e-009 -1.271391159018975e-009 7.408266708419653e-010
                       9.822165829344651e-001 -9.227190835243829e-002 1.404449866512058e-002 2.217121768536159e-002 -1.271391159018975e-009 7.408266777808592e-010 5.099558544538474e-010 -8.647485807283806e-009
                       5.099558535864857e-010 -8.647485807283806e-009 -1.271391159018975e-009 7.408266777808592e-010 1.580356261007594e-002 3.142352636364529e-002 9.807081118660426e-001 -9.858838128416239e-002
                       -1.271391159018975e-009 7.408266708419653e-010 5.099558535864857e-010 -8.647485807283806e-009 9.807081118660426e-001 -9.858838128416239e-002 1.580356261007594e-002 3.142352636364529e-002
4.000000000000000e+007 1.629016679394227e-002 2.829134297173328e-002 9.776519215499553e-001 -1.213729006468497e-001 1.510741705346153e-011 -1.171522814868986e-008 -1.265675841910507e-009 1.257049291047974e-009
                       9.776519215499553e-001 -1.213729006468497e-001 1.629016679394227e-002 2.829134297173328e-002 -1.265675897421659e-009 1.257049311864655e-009 1.510741705346153e-011 -1.171522814868986e-008
                       1.510741705346153e-011 -1.171522814868986e-008 -1.265675897421659e-009 1.257049311864655e-009 1.893522636239779e-002 4.038387603359678e-002 9.754277147149365e-001 -1.295785066120942e-001
                       -1.265675841910507e-009 1.257049291047974e-009 1.510741705346153e-011 -1.171522814868986e-008 9.754277147149365e-001 -1.295785066120942e-001 1.893522636239779e-002 4.038387603359678e-002
5.000000000000000e+007 1.875655273907988e-002 3.419140890242364e-002 9.723370886118192e-001 -1.501269016140611e-001 -7.016831542888680e-010 -1.475151202232072e-008 -1.152741402332680e-009 1.777939989677790e-009
                       9.723370886118192e-001 -1.501269016140611e-001 1.875655273907988e-002 3.419140890242364e-002 -1.152741402332680e-009 1.777939975800003e-009 -7.016831542888680e-010 -1.475151202232072e-008
                       -7.016831560235914e-010 -1.475151202232072e-008 -1.152741402332680e-009 1.777939975800003e-009 2.246944269499686e-002 4.903191251223037e-002 9.692571541158510e-001 -1.601444144115865e-001
                       -1.152741402332680e-009 1.777939989677790e-009 -7.016831560235914e-010 -1.475151202232072e-008 9.692571541158510e-001 -1.601444144115865e-001 2.246944269499686e-002 4.903191251223037e-002
6.000000000000000e+007 2.146877014023263e-002 3.988507329430973e-002 9.662547085285720e-001 -1.785534598249505e-001 -1.627138311241505e-009 -1.773616394723510e-008 -9.434766301552600e-010 2.285355543696355e-009
                       9.662547085285720e-001 -1.785534598249505e-001 2.146877014023263e-002 3.988507329430973e-002 -9.434766856664112e-010 2.285355502062991e-009 -1.627138311241505e-009 -1.773616394723510e-008
                       -1.627138311241505e-009 -1.773616394723510e-008 -9.434766856664112e-010 2.285355502062991e-009 2.642629318025219e-002 5.737298971147559e-002 9.621829278415930e-001 -1.902992947528854e-001
                       -9.434766301552600e-010 2.285355543696355e-009 -1.627138311241505e-009 -1.773616394723510e-008 9.621829278415930e-001 -1.902992947528854e-001 2.642629318025219e-002 5.737298971147559e-002
7.000000000000000e+007 2.443608781038490e-002 4.537222745614978e-002 9.593991602498193e-001 -2.066560076887599e-001 -2.750526421207988e-009 -2.065275597762373e-008 -6.468643953816411e-010 2.765277867800009e-009
                       9.593991602498193e-001 -2.066560076887599e-001 2.443608781038490e-002 4.537222745614978e-002 -6.468645619150948e-010 2.765277867800009e-009 -2.750526421207988e-009 -2.065275597762373e-008
                       -2.750526421207988e-009 -2.065275597762373e-008 -6.468645619150948e-010 2.765277867800009e-009 3.080816929080132e-002 6.539763459290227e-002 9.542052002692384e-001 -2.200392115551540e-001
                       -6.468643953816411e-010 2.765277867800009e-009 -2.750526421207988e-009 -2.065275597762373e-008 9.542052002692384e-001 -2.200392115551540e-001 3.080816929080132e-002 6.539763459290227e-002
8.000000000000000e+007 2.765908246064362e-002 5.064719422457427e-002 9.517707599304226e-001 -2.344287556250926e-001 -4.062061745996326e-009 -2.348690799139352e-008 -2.712992608344678e-010 3.206353169082910e-009
                       9.517707599304226e-001 -2.344287556250926e-001 2.765908246064362e-002 5.064719422457427e-002 -2.712991498121653e-010 3.206353196838485e-009 -4.062061745996326e-009 -2.348690799139352e-008
                       -4.062061745996326e-009 -2.348690798792408e-008 -2.712991498121653e-010 3.206353196838485e-009 3.560750950134697e-002 7.309059723894242e-002 9.453313272730426e-001 -2.493509033756265e-001
                       -2.712992608344678e-010 3.206353169082910e-009 -4.062061745996326e-009 -2.348690798792408e-008 9.453313272730426e-001 -2.493509033756265e-001 3.560750950134697e-002 7.309059723894242e-002
9.000000000000000e+007 3.113344126508590e-002 5.570195669343182e-002 9.433738407995540e-001 -2.618603216971904e-001 -5.552123876970128e-009 -2.622564704291008e-008 1.749855260690936e-010 3.599169740020614e-009
                       9.433738407995540e-001 -2.618603216971904e-001 3.113344126508590e-002 5.570195669343182e-002 1.749854150467911e-010 3.599169795531765e-009 -5.552123876970128e-009 -2.622564704291008e-008
                       -5.552123875235404e-009 -2.622564704291008e-008 1.749854150467911e-010 3.599169795531765e-009 4.081086498793472e-002 8.043451887539464e-002 9.355735877902012e-001 -2.782158283738542e-001
                       1.749855260690936e-010 3.599169740020614e-009 -5.552123875235404e-009 -2.622564704291008e-008 9.355735877902012e-001 -2.782158283738542e-001 4.081086498793472e-002 8.043451887539464e-002
1.000000000000000e+008 3.485193198381005e-002 6.052743576764524e-002 9.342158278631516e-001 -2.889360163416436e-001 -7.210896432047198e-009 -2.885717746009542e-008 6.837437838136395e-010 3.935835074520000e-009
                       9.342158278631516e-001 -2.889360163416436e-001 3.485193198381005e-002 6.052743576764524e-002 6.837437838136395e-010 3.935835130031151e-009 -7.210896432047198e-009 -2.885717746009542e-008
                       -7.210896435516645e-009 -2.885717746009542e-008 6.837437838136395e-010 3.935835130031151e-009 4.640103664031729e-002 8.741147452201534e-002 9.249480476570373e-001 -3.066126644863394e-001
                       6.837437838136395e-010 3.935835074520000e-009 -7.210896435516645e-009 -2.885717746009542e-008 9.249480476570373e-001 -3.066126644863394e-001 4.640103664031729e-002 8.741147452201534e-002
1.100000000000000e+008 3.880539037354560e-002 6.511405260214601e-002 9.243065989785233e-001 -3.156393197576937e-001 -9.028226999330258e-009 -3.137079706422297e-008 1.246638514640353e-009 4.209723181158864e-009
                       9.243065989785233e-001 -3.156393197576937e-001 3.880539037354560e-002 6.511405260214601e-002 1.246638514640353e-009 4.209723153403289e-009 -9.028226999330258e-009 -3.137079706422297e-008
                       -9.028226999330258e-009 -3.137079705728407e-008 1.246638514640353e-009 4.209723153403289e-009 5.235819614060285e-002 9.400370643345897e-002 9.134737747813759e-001 -3.345189135264212e-001
                       1.246638514640353e-009 4.209723181158864e-009 -9.028226999330258e-009 -3.137079705728407e-008 9.134737747813759e-001 -3.345189135264212e-001 5.235819614060285e-002 9.400370643345897e-002
1.200000000000000e+008 4.298321281104370e-002 6.945204246831638e-002 9.136579804562504e-001 -3.419528267939469e-001 -1.099359853498627e-008 -3.375686408180201e-008 1.855205489231793e-009 4.415323245909875e-009
                       9.136579804562504e-001 -3.419528267939469e-001 4.298321281104370e-002 6.945204246831638e-002 1.855205433720641e-009 4.415323245909875e-009 -1.099359853498627e-008 -3.375686408180201e-008
                       -1.099359853498627e-008 -3.375686407486311e-008 1.855205433720641e-009 4.415323245909875e-009 5.866049748962027e-002 1.001940509177620e-001 9.011722192750996e-001 -3.619119280648885e-001
                       1.855205489231793e-009 4.415323245909875e-009 -1.099359853498627e-008 -3.375686407486311e-008 9.011722192750996e-001 -3.619119280648885e-001 5.866049748962027e-002 1.001940509177620e-001
1.300000000000000e+008 4.737361426037778e-002 7.353168143487709e-002 9.022833443950497e-001 -3.678588438929416e-001 -1.309615676667320e-008 -3.600677660892115e-008 2.500850637687790e-009 4.548152687799956e-009
                       9.022833443950497e-001 -3.678588438929416e-001 4.737361426037778e-002 7.353168143487709e-002 2.500850637687790e-009 4.548152771066683e-009 -1.309615676667320e-008 -3.600677660892115e-008
                       -1.309615676320375e-008 -3.600677660892115e-008 2.500850637687790e-009 4.548152771066683e-009 6.528444506450576e-002 1.059662394136025e-001 8.880667093475262e-001 -3.887695636124089e-001
                       2.500850637687790e-009 4.548152687799956e-009 -1.309615676320375e-008 -3.600677660892115e-008 8.880667093475262e-001 -3.887695636124089e-001 6.528444506450576e-002 1.059662394136025e-001
1.400000000000000e+008 5.196378179856658e-002 7.734347585950679e-002 8.901972924222003e-001 -3.933397637807979e-001 -1.532476368026892e-008 -3.811295556932492e-008 3.174875251588105e-009 4.604704756383526e-009
                       8.901972924222003e-001 -3.933397637807979e-001 5.196378179856658e-002 7.734347585950679e-002 3.174875085054651e-009 4.604704756383526e-009 -1.532476368026892e-008 -3.811295556932492e-008
                       -1.532476368026892e-008 -3.811295557626382e-008 3.174875085054651e-009 4.604704756383526e-009 7.220515067243061e-002 1.113051353161259e-001 8.741820402553027e-001 -4.150705895441432e-001
                       3.174875251588105e-009 4.604704756383526e-009 -1.532476368026892e-008 -3.811295557626382e-008 8.741820402553027e-001 -4.150705895441432e-001 7.220515067243061e-002 1.113051353161259e-001
1.500000000000000e+008 5.673998555949293e-002 8.087832756321031e-002 8.774154106685994e-001 -4.183783005183468e-001 -1.766805967848284e-008 -4.006882311363702e-008 3.868510567439643e-009 4.582415280562913e-009
                       8.774154106685994e-001 -4.183783005183468e-001 5.673998555949293e-002 8.087832756321031e-002 3.868510456417340e-009 4.582415447096366e-009 -1.766805967848284e-008 -4.006882311363702e-008
                       -1.766805967501339e-008 -4.006882311363702e-008 3.868510456417340e-009 4.582415447096366e-009 7.939654243875960e-002 1.161969265096205e-001 8.595441382052915e-001 -4.407949451134357e-001
                       3.868510567439643e-009 4.582415280562913e-009 -1.766805967501339e-008 -4.006882311363702e-008 8.595441382052915e-001 -4.407949451134357e-001 7.939654243875960e-002 1.161969265096205e-001
1.600000000000000e+008 6.168767479120642e-002 8.412767689585454e-002 8.639540808221524e-001 -4.429576376227230e-001 -2.011453359776483e-008 -4.186878008877182e-008 4.572974665606466e-009 4.479636772636297e-009
                       8.639540808221524e-001 -4.429576376227230e-001 6.168767479120642e-002 8.412767689585454e-002 4.572974721117618e-009 4.479636911414175e-009 -2.011453359776483e-008 -4.186878008877182e-008
                       -2.011453359429538e-008 -4.186878009571071e-008 4.572974721117618e-009 4.479636911414175e-009 8.683155364560334e-002 1.206292803529588e-001 8.441797832516762e-001 -4.659238953998954e-001
                       4.572974665606466e-009 4.479636772636297e-009 -2.011453359429538e-008 -4.186878009571071e-008 8.441797832516762e-001 -4.659238953998954e-001 8.683155364560334e-002 1.206292803529588e-001
1.700000000000000e+008 6.679157027640562e-002 8.708362387934990e-002 8.498303337068502e-001 -4.670615222277332e-001 -2.265258825656646e-008 -4.350817939258178e-008 5.279530257418230e-009 4.295615169125355e-009
                       8.498303337068502e-001 -4.670615222277332e-001 6.679157027640562e-002 8.708362387934990e-002 5.279530257418230e-009 4.295615169125355e-009 -2.265258825656646e-008 -4.350817939258178e-008
                       -2.265258824962757e-008 -4.350817939952067e-008 5.279530257418230e-009 4.295615169125355e-009 9.448230288942089e-002 1.245914643441290e-001 8.281163778047055e-001 -4.904401216636677e-001
                       5.279530257418230e-009 4.295615169125355e-009 -2.265258824962757e-008 -4.350817939952067e-008 8.281163778047055e-001 -4.904401216636677e-001 9.448230288942089e-002 1.245914643441290e-001
1.800000000000000e+008 7.203575676845705e-002 8.973902798403080e-002 8.350617342202908e-001 -4.906743256205298e-001 -2.527060866119868e-008 -4.498329470026263e-008 5.979550465884387e-009 4.030462241733090e-009
                       8.350617342202908e-001 -4.906743256205298e-001 7.203575676845705e-002 8.973902798403080e-002 5.979550465884387e-009 4.030462241733090e-009 -2.527060866119868e-008 -4.498329470026263e-008
                       -2.527060866813757e-008 -4.498329470026263e-008 5.979550465884387e-009 4.030462241733090e-009 1.023202691515234e-001 1.280744351736673e-001 8.113817501508216e-001 -5.143277676959570e-001
                       5.979550465884387e-009 4.030462241733090e-009 -2.527060866813757e-008 -4.498329470026263e-008 8.113817501508216e-001 -5.143277676959570e-001 1.023202691515234e-001 1.280744351736673e-001
1.900000000000000e+008 7.740377581372694e-002 9.208758782691064e-002 8.196662889169175e-001 -5.137810825526190e-001 -2.795702352953455e-008 -4.629128985689235e-008 6.664583829252280e-009 3.685128258101855e-009
                       8.196662889169175e-001 -5.137810825526190e-001 7.740377581372694e-002 9.208758782691064e-002 6.664583718229977e-009 3.685128313613006e-009 -2.795702352953455e-008 -4.629128985689235e-008
                       -2.795702353647345e-008 -4.629128985689235e-008 6.664583718229977e-009 3.685128313613006e-009 1.103164619950728e-001 1.310708990837752e-001 7.940039849508234e-001 -5.375724557144432e-001
                       6.664583829252280e-009 3.685128258101855e-009 -2.795702353647345e-008 -4.629128985689235e-008 7.940039849508234e-001 -5.375724557144432e-001 1.103164619950728e-001 1.310708990837752e-001
2.000000000000000e+008 8.287871810488194e-002 9.412390261955397e-002 8.036623697001677e-001 -5.363675167894413e-001 -3.070036630470341e-008 -4.743018015840317e-008 7.326421358477830e-009 3.261363124007488e-009
                       8.036623697001677e-001 -5.363675167894413e-001 8.287871810488194e-002 9.412390261955397e-002 7.326421247455528e-009 3.261363124007488e-009 -3.070036630470341e-008 -4.743018015840317e-008
                       -3.070036630470341e-008 -4.743018015840317e-008 7.326421247455528e-009 3.261363124007488e-009 1.184415858329104e-001 1.335753466740108e-001 7.760112748330672e-001 -5.601612803705598e-001
                       7.326421358477830e-009 3.261363124007488e-009 -3.070036630470341e-008 -4.743018015840317e-008 7.760112748330672e-001 -5.601612803705598e-001 1.184415858329104e-001 1.335753466740108e-001
2.100000000000000e+008 8.844331422385053e-002 9.584351745790892e-002 7.870686488727228e-001 -5.584200573287617e-001 -3.348932985092201e-008 -4.839879520074364e-008 7.957158099092254e-009 2.761679995799682e-009
                       7.870686488727228e-001 -5.584200573287617e-001 8.844331422385053e-002 9.584351745790892e-002 7.957158265625708e-009 2.761679940288531e-009 -3.348932985092201e-008 -4.839879520074364e-008
                       -3.348932985092201e-008 -4.839879519380474e-008 7.957158265625708e-009 2.761679940288531e-009 1.266661969215829e-001 1.355840653675255e-001 7.574317888955506e-001 -5.820827863690370e-001
                       7.957158099092254e-009 2.761679995799682e-009 -3.348932985092201e-008 -4.839879519380474e-008 7.574317888955506e-001 -5.820827863690370e-001 1.266661969215829e-001 1.355840653675255e-001
2.200000000000000e+008 9.408002274240830e-002 9.724295459034235e-002 7.699040421934347e-001 -5.799258478771343e-001 -3.631281639271400e-008 -4.919673730202634e-008 8.549253471823448e-009 2.189308345723617e-009
                       7.699040421934347e-001 -5.799258478771343e-001 9.408002274240830e-002 9.724295459034235e-002 8.549253582845751e-009 2.189308179190164e-009 -3.631281639271400e-008 -4.919673730202634e-008
                       -3.631281639271400e-008 -4.919673730896523e-008 8.549253582845751e-009 2.189308179190164e-009 1.349608518716802e-001 1.370951326752629e-001 7.382935552156291e-001 -6.033269333265495e-001
                       8.549253471823448e-009 2.189308345723617e-009 -3.631281639271400e-008 -4.919673730896523e-008 7.382935552156291e-001 -6.033269333265495e-001 1.349608518716802e-001 1.370951326752629e-001
2.300000000000000e+008 9.977111489166450e-002 9.831973269847372e-002 7.521876576509314e-001 -6.008727510782024e-001 -3.915998679493438e-008 -4.982433560174471e-008 9.095585395968442e-009 1.548144057395007e-009
                       7.521876576509314e-001 -6.008727510782024e-001 9.977111489166450e-002 9.831973269847372e-002 9.095585618013047e-009 1.548144057395007e-009 -3.915998679493438e-008 -4.982433560174471e-008
                       -3.915998679493438e-008 -4.982433560174471e-008 9.095585618013047e-009 1.548144057395007e-009 1.432962467528169e-001 1.381083932130240e-001 7.186243554072052e-001 -6.238850503628817e-001
                       9.095585395968442e-009 1.548144057395007e-009 -3.915998679493438e-008 -4.982433560174471e-008 7.186243554072052e-001 -6.238850503628817e-001 1.432962467528169e-001 1.381083932130240e-001
2.400000000000000e+008 1.054987552697569e-001 9.907237604193435e-002 7.339387484479012e-001 -6.212493483535191e-001 -4.202029865035817e-008 -5.028260430250953e-008 9.589498917161876e-009 8.426997433197414e-010
                       7.339387484479012e-001 -6.212493483535191e-001 1.054987552697569e-001 9.907237604193435e-002 9.589498861650725e-009 8.426998543420439e-010 -4.202029865035817e-008 -5.028260430250953e-008
