[Version] 2.0
! Touchstone generated by fitter/viewer 
# HZ S  RI R 5.000000e+001
[Number of Ports] 4
[Number of Frequencies] 2000
[Mixed-Mode Order] D1,3 D2,4 C1,3 C2,4 
! 
[Network Data]
1.000000000000000e+007 9.773798413959645e-003 7.805057974354419e-003 9.895370531144714e-001 -3.120721549894087e-002 -5.752500698008589e-010 -5.136267700218966e-010 4.732161329457085e-010 -2.132723790973512e-009
                       9.895370531144714e-001 -3.120721549894087e-002 9.773798413959645e-003 7.805057974354419e-003 4.732162439680110e-010 -2.132723789238789e-009 -5.752500698008589e-010 -5.136267700218966e-010
                       -5.752500698008589e-010 -5.136267695882157e-010 4.732162439680110e-010 -2.132723789238789e-009 1.120839940114225e-002 2.957013720253665e-002 9.884677933685190e-001 -4.283421612920469e-002
                       4.732161329457085e-010 -2.132723790973512e-009 -5.752500698008589e-010 -5.136267695882157e-010 9.884677933685190e-001 -4.283421612920469e-002 1.120839940114225e-002 2.957013720253665e-002
2.000000000000000e+007 1.168404289763993e-002 1.348591658479477e-002 9.864032568019765e-001 -5.989252031742403e-002 -7.408761390839680e-010 -6.619257884865615e-010 4.424901556276950e-010 -4.578174589431328e-009
                       9.864032568019765e-001 -5.989252031742403e-002 1.168404289763993e-002 1.348591658479477e-002 4.424898780719389e-010 -4.578174589431328e-009 -7.408761390839680e-010 -6.619257884865615e-010
                       -7.408761382166063e-010 -6.619257850171145e-010 4.424898780719389e-010 -4.578174589431328e-009 1.622781750475671e-002 5.641452675010431e-002 9.829521163650821e-001 -8.272909706996863e-002
                       4.424901556276950e-010 -4.578174589431328e-009 -7.408761382166063e-010 -6.619257850171145e-010 9.829521163650821e-001 -8.272909706996863e-002 1.622781750475671e-002 5.641452675010431e-002
3.000000000000000e+007 1.353105617325533e-002 1.877762522188111e-002 9.828149588286017e-001 -8.801745598366556e-002 -7.734171610443430e-010 -7.576741248294105e-010 1.870264498826657e-010 -7.052615214053759e-009
                       9.828149588286017e-001 -8.801745598366556e-002 1.353105617325533e-002 1.877762522188111e-002 1.870262833492120e-010 -7.052615200175971e-009 -7.734171610443430e-010 -7.576741248294105e-010
                       -7.734171601769813e-010 -7.576741317683045e-010 1.870262833492120e-010 -7.052615200175971e-009 2.290937371326314e-002 8.233042961872228e-002 9.756084412813001e-001 -1.216180810929295e-001
                       1.870264498826657e-010 -7.052615214053759e-009 -7.734171601769813e-010 -7.576741317683045e-010 9.756084412813001e-001 -1.216180810929295e-001 2.290937371326314e-002 8.233042961872228e-002
4.000000000000000e+007 1.546860341575696e-002 2.382754793821529e-002 9.786131464515038e-001 -1.157672532981838e-001 -7.013520823134778e-010 -8.435444842636031e-010 -2.651852626378570e-010 -9.518061665214628e-009
                       9.786131464515038e-001 -1.157672532981838e-001 1.546860341575696e-002 2.382754793821529e-002 -2.651850961044033e-010 -9.518061741542461e-009 -7.013520823134778e-010 -8.435444842636031e-010
                       -7.013520840482013e-010 -8.435444773247092e-010 -2.651850961044033e-010 -9.518061741542461e-009 3.133370242903737e-002 1.073351122668707e-001 9.663510887104421e-001 -1.595475465633838e-001
                       -2.651852626378570e-010 -9.518061665214628e-009 -7.013520840482013e-010 -8.435444773247092e-010 9.663510887104421e-001 -1.595475465633838e-001 3.133370242903737e-002 1.073351122668707e-001
5.000000000000000e+007 1.755447269138760e-002 2.868695743026045e-002 9.737468186367049e-001 -1.432006925378464e-001 -5.382405077192232e-010 -9.425744351698739e-010 -8.996380862491549e-010 -1.195228455097563e-008
                       9.737468186367049e-001 -1.432006925378464e-001 1.755447269138760e-002 2.868695743026045e-002 -8.996382527826086e-010 -1.195228456485342e-008 -5.382405077192232e-010 -9.425744351698739e-010
                       -5.382405077192232e-010 -9.425744351698739e-010 -8.996382527826086e-010 -1.195228456485342e-008 4.146306037180034e-002 1.313425339947450e-001 9.552195739506059e-001 -1.964430904178144e-001
                       -8.996380862491549e-010 -1.195228455097563e-008 -5.382405077192232e-010 -9.425744351698739e-010 9.552195739506059e-001 -1.964430904178144e-001 4.146306037180034e-002 1.313425339947450e-001
6.000000000000000e+007 1.981583324190544e-002 3.337357326788675e-002 9.681966011830199e-001 -1.703409118242087e-001 -2.941910066250886e-010 -1.071513641703881e-009 -1.705282748343251e-009 -1.433909334325190e-008
                       9.681966011830199e-001 -1.703409118242087e-001 1.981583324190544e-002 3.337357326788675e-002 -1.705282914876705e-009 -1.433909331549632e-008 -2.941910066250886e-010 -1.071513641703881e-009
                       -2.941910048903651e-010 -1.071513641703881e-009 -1.705282914876705e-009 -1.433909331549632e-008 5.321371193385523e-002 1.542431504173570e-001 9.423000627935905e-001 -2.322054449291728e-001
                       -1.705282748343251e-009 -1.433909334325190e-008 -2.941910048903651e-010 -1.071513641703881e-009 9.423000627935905e-001 -2.322054449291728e-001 5.321371193385523e-002 1.542431504173570e-001
7.000000000000000e+007 2.226449849610286e-002 3.789148815016823e-002 9.619545217885331e-001 -1.971951380336369e-001 2.126276758829260e-011 -1.243662003241886e-009 -2.672272847448198e-009 -1.666543102130103e-008
                       9.619545217885331e-001 -1.971951380336369e-001 2.226449849610286e-002 3.789148815016823e-002 -2.672273013981652e-009 -1.666543095191209e-008 2.126276758829260e-011 -1.243662003241886e-009
                       2.126276238412217e-011 -1.243661992833545e-009 -2.672273013981652e-009 -1.666543095191209e-008 6.647505786399158e-002 1.759279441464579e-001 9.277033492564792e-001 -2.667345715016928e-001
                       -2.672272847448198e-009 -1.666543102130103e-008 2.126276238412217e-011 -1.243661992833545e-009 9.277033492564792e-001 -2.667345715016928e-001 6.647505786399158e-002 1.759279441464579e-001
8.000000000000000e+007 2.490396854249367e-002 4.223916081719772e-002 9.550182711152913e-001 -2.237614057786528e-001 3.984657048761164e-010 -1.469787090646602e-009 -3.791069569381023e-009 -1.892027660932438e-008
                       9.550182711152913e-001 -2.237614057786528e-001 2.490396854249367e-002 4.223916081719772e-002 -3.791069402847569e-009 -1.892027659544660e-008 3.984657048761164e-010 -1.469787090646602e-009
                       3.984657048761164e-010 -1.469787069829920e-009 -3.791069402847569e-009 -1.892027659544660e-008 8.111912337347590e-002 1.962982894033735e-001 9.115559805752516e-001 -2.999388539425483e-001
                       -3.791069569381023e-009 -1.892027660932438e-008 3.984657048761164e-010 -1.469787069829920e-009 9.115559805752516e-001 -2.999388539425483e-001 8.111912337347590e-002 1.962982894033735e-001
9.000000000000000e+007 2.773316515414859e-002 4.641255119674763e-002 9.473893094743849e-001 -2.500320877464733e-001 8.275266565743733e-010 -1.758578387078824e-009 -5.052071205824404e-009 -2.109424354634903e-008
                       9.473893094743849e-001 -2.500320877464733e-001 2.773316515414859e-002 4.641255119674763e-002 -5.052071039290951e-009 -2.109424357410461e-008 8.275266565743733e-010 -1.758578387078824e-009
                       8.275266513702029e-010 -1.758578407895506e-009 -5.052071039290951e-009 -2.109424357410461e-008 9.700670085301391e-002 2.152702976264662e-001 8.939950782406909e-001 -3.317396489732667e-001
                       -5.052071205824404e-009 -2.109424354634903e-008 8.275266513702029e-010 -1.758578407895506e-009 8.939950782406909e-001 -3.317396489732667e-001 9.700670085301391e-002 2.152702976264662e-001
1.000000000000000e+008 3.074835927199097e-002 5.040634957622771e-002 9.390719613793096e-001 -2.759961129998152e-001 1.298365913046662e-009 -2.116929489343056e-009 -6.445522671150172e-009 -2.317942746077328e-008
                       9.390719613793096e-001 -2.759961129998152e-001 3.074835927199097e-002 5.040634957622771e-002 -6.445522560127870e-009 -2.317942768281789e-008 1.298365913046662e-009 -2.116929489343056e-009
                       1.298365921720279e-009 -2.116929492812503e-009 -6.445522560127870e-009 -2.317942768281789e-008 1.139918617705879e-001 2.327766597605405e-001 8.751643722926285e-001 -3.620736561666220e-001
                       -6.445522671150172e-009 -2.317942746077328e-008 1.298365921720279e-009 -2.116929492812503e-009 8.751643722926285e-001 -3.620736561666220e-001 1.139918617705879e-001 2.327766597605405e-001
1.100000000000000e+008 3.394412868819421e-002 5.421450878857953e-002 9.300727980324053e-001 -3.016403980953759e-001 1.800806170848546e-009 -2.550136653928226e-009 -7.961557579871936e-009 -2.516932809393246e-008
                       9.300727980324053e-001 -3.016403980953759e-001 3.394412868819421e-002 5.421450878857953e-002 -7.961557357827331e-009 -2.516932820495477e-008 1.800806170848546e-009 -2.550136653928226e-009
                       1.800806170848546e-009 -2.550136657397673e-009 -7.961557357827331e-009 -2.516932820495477e-008 1.319255398867515e-001 2.487671901118597e-001 8.552108045614177e-001 -3.908939472802059e-001
                       -7.961557579871936e-009 -2.516932809393246e-008 1.800806170848546e-009 -2.550136657397673e-009 8.552108045614177e-001 -3.908939472802059e-001 1.319255398867515e-001 2.487671901118597e-001
1.200000000000000e+008 3.731382650332744e-002 5.783053570076042e-002 9.204001561604187e-001 -3.269507594871020e-001 2.324676784404289e-009 -3.062046293605958e-009 -9.590307326057257e-009 -2.705877905073706e-008
                       9.204001561604187e-001 -3.269507594871020e-001 3.731382650332744e-002 5.783053570076042e-002 -9.590307159523803e-009 -2.705877927278166e-008 2.324676784404289e-009 -3.062046293605958e-009
                       2.324676784404289e-009 -3.062046283197617e-009 -9.590307159523803e-009 -2.705877927278166e-008 1.506585038071591e-001 2.632085928664589e-001 8.342815528296248e-001 -4.181700734876255e-001
                       -9.590307326057257e-009 -2.705877905073706e-008 2.324676784404289e-009 -3.062046283197617e-009 8.342815528296248e-001 -4.181700734876255e-001 1.506585038071591e-001 2.632085928664589e-001
1.300000000000000e+008 4.084981665940993e-002 6.124769980131632e-002 9.100637594989232e-001 -3.519124876717081e-001 2.859924259218660e-009 -3.655178500150402e-009 -1.132202992470965e-008 -2.884387007018319e-008
                       9.100637594989232e-001 -3.519124876717081e-001 4.084981665940993e-002 6.124769980131632e-002 -1.132202986919850e-008 -2.884387007018319e-008 2.859924259218660e-009 -3.655178500150402e-009
                       2.859924255749213e-009 -3.655178493211508e-009 -1.132202986919850e-008 -2.884387007018319e-008 1.700438585244711e-001 2.760837087444088e-001 8.125214532426545e-001 -4.438875179713910e-001
                       -1.132202992470965e-008 -2.884387007018319e-008 2.859924255749213e-009 -3.655178493211508e-009 8.125214532426545e-001 -4.438875179713910e-001 1.700438585244711e-001 2.760837087444088e-001
1.400000000000000e+008 4.454360505850971e-002 6.445920773181525e-002 8.990744269169058e-001 -3.765107060387012e-001 3.396714701175974e-009 -4.330845640443393e-009 -1.314723679923802e-008 -3.052184710528039e-008
                       8.990744269169058e-001 -3.765107060387012e-001 4.454360505850971e-002 6.445920773181525e-002 -1.314723663270456e-008 -3.052184704976924e-008 3.396714701175974e-009 -4.330845640443393e-009
                       3.396714715053761e-009 -4.330845626565605e-009 -1.314723663270456e-008 -3.052184704976924e-008 1.899391348417940e-001 2.873903968339819e-001 7.900708217925538e-001 -4.680466869477558e-001
                       -1.314723679923802e-008 -3.052184710528039e-008 3.396714715053761e-009 -4.330845626565605e-009 7.900708217925538e-001 -4.680466869477558e-001 1.899391348417940e-001 2.873903968339819e-001
1.500000000000000e+008 4.838592753917605e-002 6.745835629602405e-002 8.874438516252704e-001 -4.007305952611662e-001 3.925530494414131e-009 -5.089259638713095e-009 -1.505680424784828e-008 -3.209100923884378e-008
                       8.874438516252704e-001 -4.007305952611662e-001 4.838592753917605e-002 6.745835629602405e-002 -1.505680419233713e-008 -3.209100907231033e-008 3.925530494414131e-009 -5.089259638713095e-009
                       3.925530497883578e-009 -5.089259624835307e-009 -1.505680419233713e-008 -3.209100907231033e-008 2.102079940278498e-001 2.971401643296330e-001 7.670636722176754e-001 -4.906615872716071e-001
                       -1.505680424784828e-008 -3.209100923884378e-008 3.925530497883578e-009 -5.089259624835307e-009 7.670636722176754e-001 -4.906615872716071e-001 2.102079940278498e-001 2.971401643296330e-001
1.600000000000000e+008 5.236682235239233e-002 7.023866604542295e-002 8.751844360986156e-001 -4.245575347836359e-001 4.437252801303693e-009 -5.929647668712068e-009 -1.704207081010267e-008 -3.355058819654033e-008
                       8.751844360986156e-001 -4.245575347836359e-001 5.236682235239233e-002 7.023866604542295e-002 -1.704207081010267e-008 -3.355058819654033e-008 4.437252801303693e-009 -5.929647668712068e-009
                       4.437252801303693e-009 -5.929647634017599e-009 -1.704207081010267e-008 -3.355058819654033e-008 2.307215670761560e-001 3.053566357851858e-001 7.436263180278295e-001 -5.117583079940252e-001
                       -1.704207081010267e-008 -3.355058819654033e-008 4.437252801303693e-009 -5.929647634017599e-009 7.436263180278295e-001 -5.117583079940252e-001 2.307215670761560e-001 3.053566357851858e-001
1.700000000000000e+008 5.647569856380731e-002 7.279399555196464e-002 8.623091690189875e-001 -4.479771936220747e-001 4.923229202785651e-009 -6.850360945165335e-009 -1.909491059715052e-008 -3.490063085753725e-008
                       8.623091690189875e-001 -4.479771936220747e-001 5.647569856380731e-002 7.279399555196464e-002 -1.909491059715052e-008 -3.490063088529283e-008 4.923229202785651e-009 -6.850360945165335e-009
                       4.923229185438416e-009 -6.850360945165335e-009 -1.909491059715052e-008 -3.490063088529283e-008 2.513594500277735e-001 3.120739391766039e-001 7.198763365728835e-001 -5.313733999649430e-001
                       -1.909491059715052e-008 -3.490063085753725e-008 4.923229185438416e-009 -6.850360945165335e-009 7.198763365728835e-001 -5.313733999649430e-001 2.513594500277735e-001 3.120739391766039e-001
1.800000000000000e+008 6.070140429261962e-002 7.511863682761358e-002 8.488315329621512e-001 -4.709755903068733e-001 5.375326402740077e-009 -7.848987092218263e-009 -2.120778747061181e-008 -3.614187563116822e-008
                       8.488315329621512e-001 -4.709755903068733e-001 6.070140429261962e-002 7.511863682761358e-002 -2.120778730407835e-008 -3.614187554790149e-008 5.375326402740077e-009 -7.848987092218263e-009
                       5.375326406209524e-009 -7.848987099157156e-009 -2.120778730407835e-008 -3.614187554790149e-008 2.720103821331431e-001 3.173350736050818e-001 6.959218649910260e-001 -5.495522285295598e-001
                       -2.120778747061181e-008 -3.614187563116822e-008 5.375326406209524e-009 -7.848987099157156e-009 6.959218649910260e-001 -5.495522285295598e-001 2.720103821331431e-001 3.173350736050818e-001
1.900000000000000e+008 6.503229542712552e-002 7.720739305472024e-002 8.347654340074319e-001 -4.935391340093358e-001 5.785967011062709e-009 -8.922457543636408e-009 -2.337379201300394e-008 -3.727563527289313e-008
                       8.347654340074319e-001 -4.935391340093358e-001 6.503229542712552e-002 7.720739305472024e-002 -2.337379217953739e-008 -3.727563524513755e-008 5.785967011062709e-009 -8.922457543636408e-009
                       5.785967038818285e-009 -8.922457550575302e-009 -2.337379217953739e-008 -3.727563524513755e-008 2.925726388918062e-001 3.211903114962265e-001 6.718611920907052e-001 -5.663473580028899e-001
                       -2.337379201300394e-008 -3.727563527289313e-008 5.785967038818285e-009 -8.922457550575302e-009 6.718611920907052e-001 -5.663473580028899e-001 2.925726388918062e-001 3.211903114962265e-001
2.000000000000000e+008 6.945630421144780e-002 7.905564030717890e-002 8.201251466280763e-001 -5.156546540470115e-001 6.148150481777304e-009 -1.006715038415207e-008 -2.558665934682125e-008 -3.830368355828284e-008
                       8.201251466280763e-001 -5.156546540470115e-001 6.945630421144780e-002 7.905564030717890e-002 -2.558665940233240e-008 -3.830368344726054e-008 6.148150481777304e-009 -1.006715038415207e-008
                       6.148150460960622e-009 -1.006715039109096e-008 -2.558665940233240e-008 -3.830368344726054e-008 3.129541758064949e-001 3.236956765795309e-001 6.477826068166397e-001 -5.818170122605234e-001
                       -2.558665934682125e-008 -3.830368355828284e-008 6.148150460960622e-009 -1.006715039109096e-008 6.477826068166397e-001 -5.818170122605234e-001 3.129541758064949e-001 3.236956765795309e-001
2.100000000000000e+008 7.396100678112560e-002 8.065937519151903e-002 8.049252690052546e-001 -5.373094219809088e-001 6.455461401544405e-009 -1.127898596048338e-008 -2.784077185458145e-008 -3.922814961754284e-008
                       8.049252690052546e-001 -5.373094219809088e-001 7.396100678112560e-002 8.065937519151903e-002 -2.784077168804799e-008 -3.922814956203169e-008 6.455461401544405e-009 -1.127898596048338e-008
                       6.455461415422192e-009 -1.127898593966670e-008 -2.784077168804799e-008 -3.922814956203169e-008 3.330725605821342e-001 3.249115280616423e-001 6.237644627400317e-001 -5.960236432297970e-001
                       -2.784077185458145e-008 -3.922814961754284e-008 6.455461415422192e-009 -1.127898593966670e-008 6.237644627400317e-001 -5.960236432297970e-001 3.330725605821342e-001 3.249115280616423e-001
2.200000000000000e+008 7.853368880095374e-002 8.201525037238860e-002 7.891806853108110e-001 -5.584911687060949e-001 6.702066145114483e-009 -1.255351760043322e-008 -3.013115196237592e-008 -4.005141990282013e-008
                       7.891806853108110e-001 -5.584911687060949e-001 7.853368880095374e-002 8.201525037238860e-002 -3.013115190686477e-008 -4.005142012486473e-008 6.702066145114483e-009 -1.255351760043322e-008
                       6.702066124297801e-009 -1.255351758655543e-008 -3.013115190686477e-008 -4.005142012486473e-008 3.528547315498832e-001 3.249012715702907e-001 5.998754186635291e-001 -6.090326282522318e-001
                       -3.013115196237592e-008 -4.005141990282013e-008 6.702066124297801e-009 -1.255351758655543e-008 5.998754186635291e-001 -6.090326282522318e-001 3.528547315498832e-001 3.249012715702907e-001
2.300000000000000e+008 8.316140856950641e-002 8.312059984176329e-002 7.729065325707856e-001 -5.791880978579006e-001 6.882700402666142e-009 -1.388600971014009e-008 -3.245344287750029e-008 -4.077605253449690e-008
                       7.729065325707856e-001 -5.791880978579006e-001 8.316140856950641e-002 8.312059984176329e-002 -3.245344254443339e-008 -4.077605242347460e-008 6.882700402666142e-009 -1.388600971014009e-008
                       6.882700409605036e-009 -1.388600970320120e-008 -3.245344254443339e-008 -4.077605242347460e-008 3.722366185964575e-001 3.237302088889661e-001 5.761748175409118e-001 -6.209111081984523e-001
                       -3.245344287750029e-008 -4.077605253449690e-008 6.882700409605036e-009 -1.388600970320120e-008 5.761748175409118e-001 -6.209111081984523e-001 3.722366185964575e-001 3.237302088889661e-001
2.400000000000000e+008 8.783105718333109e-002 8.397345560788116e-002 7.561181705137974e-001 -5.993888962314545e-001 6.992647107184613e-009 -1.527151079205869e-008 -3.480388116594568e-008 -4.140469433977501e-008
