! Touchstone generated by fitter/viewer 
# HZ S  RI R 5.000000e+001
! 
1.000000000000000e+007 1.019872012026313e-002 2.724702032392243e-003 9.887384539096337e-001 -3.410872339397512e-002 5.576666115784286e-004 3.411028286963729e-003 -4.537230576511203e-004 -1.270546893093592e-003
                       9.887384539096337e-001 -3.410872339397512e-002 1.019872012026313e-002 2.724702032392243e-003 -4.537230576511016e-004 -1.270546893093600e-003 5.576666115784286e-004 3.411028286963729e-003
                       5.576666115784547e-004 3.411028286963734e-003 -4.537230576511016e-004 -1.270546893093600e-003 1.019871702442088e-002 2.724679263529374e-003 9.887384554313372e-001 -3.410872913384327e-002
                       -4.537230576511203e-004 -1.270546893093592e-003 5.576666115784547e-004 3.411028286963734e-003 9.887384554313372e-001 -3.410872913384327e-002 1.019871702442088e-002 2.724679263529374e-003
2.000000000000000e+007 1.184653675183323e-002 3.030201550848750e-003 9.850641189846053e-001 -6.522821685500815e-002 1.064809447911715e-003 6.518460328724589e-003 -7.267869294228042e-004 -2.283959985534401e-003
                       9.850641189846053e-001 -6.522821685500815e-002 1.184653675183323e-002 3.030201550848750e-003 -7.267869294224793e-004 -2.283959985534429e-003 1.064809447911715e-003 6.518460328724589e-003
                       1.064809447911776e-003 6.518460328724547e-003 -7.267869294224793e-004 -2.283959985534429e-003 1.184653042089445e-002 3.030157712149152e-003 9.850641204399271e-001 -6.522822925578295e-002
                       -7.267869294228042e-004 -2.283959985534401e-003 1.064809447911776e-003 6.518460328724547e-003 9.850641204399271e-001 -6.522822925578295e-002 1.184653042089445e-002 3.030157712149152e-003
3.000000000000000e+007 1.306875128917695e-002 2.946926704485382e-003 9.808809207961097e-001 -9.568147097627704e-002 1.715136165908777e-003 9.536315981133362e-003 -1.017158351435373e-003 -3.242158092959799e-003
                       9.808809207961097e-001 -9.568147097627704e-002 1.306875128917695e-002 2.946926704485382e-003 -1.017158351435338e-003 -3.242158092959812e-003 1.715136165908777e-003 9.536315981133362e-003
                       1.715136165908830e-003 9.536315981133347e-003 -1.017158351435338e-003 -3.242158092959812e-003 1.306874067335573e-002 2.946862361324153e-003 9.808809215683964e-001 -9.568149011355920e-002
                       -1.017158351435373e-003 -3.242158092959799e-003 1.715136165908830e-003 9.536315981133347e-003 9.808809215683964e-001 -9.568149011355920e-002 1.306874067335573e-002 2.946862361324153e-003
4.000000000000000e+007 1.405211842188026e-002 2.661413334497053e-003 9.760003893883757e-001 -1.256897531588732e-001 2.521969724922188e-003 1.247853291300957e-002 -1.340400624751673e-003 -4.163515914482543e-003
                       9.760003893883757e-001 -1.256897531588732e-001 1.405211842188026e-002 2.661413334497053e-003 -1.340400624751671e-003 -4.163515914482554e-003 2.521969724922188e-003 1.247853291300957e-002
                       2.521969724922223e-003 1.247853291300958e-002 -1.340400624751671e-003 -4.163515914482554e-003 1.405210241008470e-002 2.661328982126031e-003 9.760003889435217e-001 -1.256897790189663e-001
                       -1.340400624751673e-003 -4.163515914482543e-003 2.521969724922223e-003 1.247853291300958e-002 9.760003889435217e-001 -1.256897790189663e-001 1.405210241008470e-002 2.661328982126031e-003
5.000000000000000e+007 1.487202910569796e-002 2.250212709369345e-003 9.703624351380350e-001 -1.553235258752633e-001 3.486982500959566e-003 1.534489954003731e-002 -1.701916454343151e-003 -5.054583393852892e-003
                       9.703624351380350e-001 -1.553235258752633e-001 1.487202910569796e-002 2.250212709369345e-003 -1.701916454343347e-003 -5.054583393852843e-003 3.486982500959566e-003 1.534489954003731e-002
                       3.486982500959545e-003 1.534489954003733e-002 -1.701916454343347e-003 -5.054583393852843e-003 1.487200659015053e-002 2.250108856644744e-003 9.703624329829739e-001 -1.553235583932446e-001
                       -1.701916454343151e-003 -5.054583393852892e-003 3.486982500959545e-003 1.534489954003733e-002 9.703624329829739e-001 -1.553235583932446e-001 1.487200659015053e-002 2.250108856644744e-003
6.000000000000000e+007 1.556841711422796e-002 1.750320488835347e-003 9.639441274184972e-001 -1.846114466637824e-001 4.608286817736279e-003 1.813126478045361e-002 -2.103974260950991e-003 -5.917815713042013e-003
                       9.639441274184972e-001 -1.846114466637824e-001 1.556841711422796e-002 1.750320488835347e-003 -2.103974260951094e-003 -5.917815713042033e-003 4.608286817736279e-003 1.813126478045361e-002
                       4.608286817736242e-003 1.813126478045357e-002 -2.103974260951094e-003 -5.917815713042033e-003 1.556838700884644e-002 1.750197676831031e-003 9.639441230867479e-001 -1.846114857422841e-001
                       -2.103974260950991e-003 -5.917815713042013e-003 4.608286817736242e-003 1.813126478045357e-002 9.639441230867479e-001 -1.846114857422841e-001 1.556838700884644e-002 1.750197676831031e-003
7.000000000000000e+007 1.616338136641893e-002 1.182614547478164e-003 9.567354156709400e-001 -2.135632419159740e-001 5.882484525896146e-003 2.083184006266966e-002 -2.547354407305587e-003 -6.753978990502076e-003
                       9.567354156709400e-001 -2.135632419159740e-001 1.616338136641893e-002 1.182614547478164e-003 -2.547354407305792e-003 -6.753978990502080e-003 5.882484525896146e-003 2.083184006266966e-002
                       5.882484525896126e-003 2.083184006266957e-002 -2.547354407305792e-003 -6.753978990502080e-003 1.616334261240560e-002 1.182473357905521e-003 9.567354087134139e-001 -2.135632874320954e-001
                       -2.547354407305587e-003 -6.753978990502076e-003 5.882484525896126e-003 2.083184006266957e-002 9.567354087134139e-001 -2.135632874320954e-001 1.616334261240560e-002 1.182473357905521e-003
8.000000000000000e+007 1.666973563561924e-002 5.613161729430514e-004 9.487325863802909e-001 -2.421773767999917e-001 7.305229218940960e-003 2.344002968522877e-002 -3.032091813834430e-003 -7.563092302301262e-003
                       9.487325863802909e-001 -2.421773767999917e-001 1.666973563561924e-002 5.613161729430514e-004 -3.032091813834513e-003 -7.563092302301260e-003 7.305229218940960e-003 2.344002968522877e-002
                       7.305229218940908e-003 2.344002968522874e-002 -3.032091813834513e-003 -7.563092302301260e-003 1.666968720540352e-002 5.611572335439494e-004 9.487325763608897e-001 -2.421774286069475e-001
                       -3.032091813834430e-003 -7.563092302301262e-003 7.305229218940908e-003 2.344002968522874e-002 9.487325763608897e-001 -2.421774286069475e-001 1.666968720540352e-002 5.611572335439494e-004
9.000000000000000e+007 1.709564726108381e-002 -1.024620626726168e-004 9.399362700054228e-001 -2.704452346500587e-001 8.871413777036654e-003 2.594888147067661e-002 -3.557855141014323e-003 -8.344794541309970e-003
                       9.399362700054228e-001 -2.704452346500587e-001 1.709564726108381e-002 -1.024620626726168e-004 -3.557855141014237e-003 -8.344794541309977e-003 8.871413777036654e-003 2.594888147067661e-002
                       8.871413777036692e-003 2.594888147067664e-002 -3.557855141014237e-003 -8.344794541309977e-003 1.709558816261458e-002 -1.026380752228397e-004 9.399362564998274e-001 -2.704452925774946e-001
                       -3.557855141014323e-003 -8.344794541309970e-003 8.871413777036692e-003 2.594888147067664e-002 9.399362564998274e-001 -2.704452925774946e-001 1.709558816261458e-002 -1.026380752228397e-004
1.000000000000000e+008 1.744700834245705e-002 -7.994649655375999e-004 9.303504941374482e-001 -2.983538360405539e-001 1.057527143409603e-002 2.835137476282638e-002 -4.124130450493539e-003 -9.098489446624990e-003
                       9.303504941374482e-001 -2.983538360405539e-001 1.744700834245705e-002 -7.994649655375999e-004 -4.124130450493519e-003 -9.098489446624933e-003 1.057527143409603e-002 2.835137476282638e-002
                       1.057527143409604e-002 2.835137476282646e-002 -4.124130450493519e-003 -9.098489446624933e-003 1.744693762362892e-002 -7.996573248599021e-004 9.303504767334783e-001 -2.983538998949646e-001
                       -4.124130450493539e-003 -9.098489446624990e-003 1.057527143409604e-002 2.835137476282646e-002 9.303504767334783e-001 -2.983538998949646e-001 1.744693762362892e-002 -7.996573248599021e-004
1.100000000000000e+008 1.772856433583470e-002 -1.521835097766168e-003 9.199819892173281e-001 -3.258876196195798e-001 1.241045576245963e-002 3.064061025342317e-002 -4.730302511026775e-003 -9.823410295248249e-003
                       9.199819892173281e-001 -3.258876196195798e-001 1.772856433583470e-002 -1.521835097766168e-003 -4.730302511026585e-003 -9.823410295248294e-003 1.241045576245963e-002 3.064061025342317e-002
                       1.241045576245970e-002 3.064061025342320e-002 -4.730302511026585e-003 -9.823410295248294e-003 1.772848108864833e-002 -1.522043028579159e-003 9.199819675158814e-001 -3.258876891851146e-001
                       -4.730302511026775e-003 -9.823410295248249e-003 1.241045576245970e-002 3.064061025342320e-002 9.199819675158814e-001 -3.258876891851146e-001 1.772848108864833e-002 -1.522043028579159e-003
1.200000000000000e+008 1.794441673489955e-002 -2.262889207219003e-003 9.088396147869111e-001 -3.530295761389369e-001 1.437011084279491e-002 3.280993532614688e-002 -5.375686596636347e-003 -1.051865696672027e-002
                       9.088396147869111e-001 -3.530295761389369e-001 1.794441673489955e-002 -2.262889207219003e-003 -5.375686596636327e-003 -1.051865696672030e-002 1.437011084279491e-002 3.280993532614688e-002
                       1.437011084279493e-002 3.280993532614688e-002 -5.375686596636327e-003 -1.051865696672030e-002 1.794432009916835e-002 -2.263111887200481e-003 9.088395884029786e-001 -3.530296511785020e-001
                       -5.375686596636347e-003 -1.051865696672027e-002 1.437011084279493e-002 3.280993532614688e-002 9.088395884029786e-001 -3.530296511785020e-001 1.794432009916835e-002 -2.263111887200481e-003
1.300000000000000e+008 1.809823373877673e-002 -3.016951807350719e-003 8.969338960636916e-001 -3.797619521677913e-001 1.644693275157007e-002 3.485302736520320e-002 -6.059538478450955e-003 -1.118322333559471e-002
                       8.969338960636916e-001 -3.797619521677913e-001 1.809823373877673e-002 -3.016951807350719e-003 -6.059538478450953e-003 -1.118322333559468e-002 1.644693275157007e-002 3.485302736520320e-002
                       1.644693275157004e-002 3.485302736520317e-002 -6.059538478450953e-003 -1.118322333559468e-002 1.809812290533630e-002 -3.017188369659343e-003 8.969338646272700e-001 -3.797620324243017e-001
                       -6.059538478450955e-003 -1.118322333559471e-002 1.644693275157004e-002 3.485302736520317e-002 8.969338646272700e-001 -3.797620324243017e-001 1.809812290533630e-002 -3.017188369659343e-003
1.400000000000000e+008 1.819333596781336e-002 -3.779200543876312e-003 8.842766659643615e-001 -4.060666790125063e-001 1.863322292778161e-002 3.676395018637010e-002 -6.781056069201377e-003 -1.181602038008619e-002
                       8.842766659643615e-001 -4.060666790125063e-001 1.819333596781336e-002 -3.779200543876312e-003 -6.781056069201273e-003 -1.181602038008626e-002 1.863322292778161e-002 3.676395018637010e-002
                       1.863322292778160e-002 3.676395018637014e-002 -6.781056069201273e-003 -1.181602038008626e-002 1.819321018127651e-002 -3.779450080080705e-003 8.842766291212020e-001 -4.060667642101717e-001
                       -6.781056069201377e-003 -1.181602038008619e-002 1.863322292778160e-002 3.676395018637014e-002 8.842766291212020e-001 -4.060667642101717e-001 1.819321018127651e-002 -3.779450080080705e-003
1.500000000000000e+008 1.823273551968541e-002 -4.545519027128520e-003 8.708807991148588e-001 -4.319256317330119e-001 2.092093461826377e-002 3.853719349127693e-002 -7.539378751322651e-003 -1.241589628603201e-002
                       8.708807991148588e-001 -4.319256317330119e-001 1.823273551968541e-002 -4.545519027128520e-003 -7.539378751322694e-003 -1.241589628603204e-002 2.092093461826377e-002 3.853719349127693e-002
                       2.092093461826378e-002 3.853719349127698e-002 -7.539378751322694e-003 -1.241589628603204e-002 1.823259408080558e-002 -4.545780590375853e-003 8.708807565270746e-001 -4.319257215785884e-001
                       -7.539378751322651e-003 -1.241589628603201e-002 2.092093461826378e-002 3.853719349127698e-002 8.708807565270746e-001 -4.319257215785884e-001 1.823259408080558e-002 -4.545780590375853e-003
1.600000000000000e+008 1.821916231459597e-002 -5.312361991270935e-003 8.567600201432808e-001 -4.573207858871087e-001 2.330171391884292e-002 4.016770160912795e-002 -8.333586769824264e-003 -1.298165371907007e-002
                       8.567600201432808e-001 -4.573207858871087e-001 1.821916231459597e-002 -5.312361991270935e-003 -8.333586769824191e-003 -1.298165371906998e-002 2.330171391884292e-002 4.016770160912795e-002
                       2.330171391884294e-002 4.016770160912798e-002 -8.333586769824191e-003 -1.298165371906998e-002 1.821900458230386e-002 -5.312634599607290e-003 8.567599714898466e-001 -4.573208800710862e-001
                       -8.333586769824264e-003 -1.298165371907007e-002 2.330171391884294e-002 4.016770160912798e-002 8.567599714898466e-001 -4.573208800710862e-001 1.821900458230386e-002 -5.312634599607290e-003
1.700000000000000e+008 1.815509056416476e-002 -6.076637271234845e-003 8.419287686907331e-001 -4.822343143005653e-001 2.576693689595205e-002 4.165089538203649e-002 -9.162701378991339e-003 -1.351206429953206e-002
                       8.419287686907331e-001 -4.822343143005653e-001 1.815509056416476e-002 -6.076637271234845e-003 -9.162701378991481e-003 -1.351206429953208e-002 2.576693689595205e-002 4.165089538203649e-002
                       2.576693689595203e-002 4.165089538203641e-002 -9.162701378991481e-003 -1.351206429953208e-002 1.815491595732321e-002 -6.076919911019172e-003 8.419287136679103e-001 -4.822344124982858e-001
                       -9.162701378991339e-003 -1.351206429953206e-002 2.576693689595203e-002 4.165089538203641e-002 8.419287136679103e-001 -4.822344124982858e-001 1.815491595732321e-002 -6.076919911019172e-003
1.800000000000000e+008 1.804276869325494e-002 -6.835606713765586e-003 8.264021058862837e-001 -5.066486496820680e-001 2.830774405907427e-002 4.298268950138962e-002 -1.002568571465842e-002 -1.400588042610122e-002
                       8.264021058862837e-001 -5.066486496820680e-001 1.804276869325494e-002 -6.835606713765586e-003 -1.002568571465841e-002 -1.400588042610110e-002 2.830774405907427e-002 4.298268950138962e-002
                       2.830774405907425e-002 4.298268950138957e-002 -1.002568571465841e-002 -1.400588042610110e-002 1.804257669217346e-002 -6.835898343159116e-003 8.264020442079940e-001 -5.066487515547765e-001
                       -1.002568571465842e-002 -1.400588042610122e-002 2.830774405907425e-002 4.298268950138957e-002 8.264020442079940e-001 -5.066487515547765e-001 1.804257669217346e-002 -6.835898343159116e-003
1.900000000000000e+008 1.788425216662926e-002 -7.586806008597483e-003 8.101956499957650e-001 -5.305465284535753e-001 3.091507318173981e-002 4.415950662707882e-002 -1.092144611566177e-002 -1.446184472235649e-002
                       8.101956499957650e-001 -5.305465284535753e-001 1.788425216662926e-002 -7.586806008597483e-003 -1.092144611566181e-002 -1.446184472235645e-002 3.091507318173981e-002 4.415950662707882e-002
                       3.091507318173982e-002 4.415950662707884e-002 -1.092144611566181e-002 -1.446184472235645e-002 1.788404231436147e-002 -7.587105561103162e-003 8.101955813939337e-001 -5.305466336494232e-001
                       -1.092144611566177e-002 -1.446184472235649e-002 3.091507318173982e-002 4.415950662707884e-002 8.101955813939337e-001 -5.305466336494232e-001 1.788404231436147e-002 -7.587105561103162e-003
2.000000000000000e+008 1.768143743269823e-002 -8.327982010993060e-003 7.933255318152747e-001 -5.539110246587974e-001 3.357969120261239e-002 4.517828901916592e-002 -1.184883358466915e-002 -1.487869746279200e-002
                       7.933255318152747e-001 -5.539110246587974e-001 1.768143743269823e-002 -8.327982010993060e-003 -1.184883358466918e-002 -1.487869746279197e-002 3.357969120261239e-002 4.517828901916592e-002
                       3.357969120261239e-002 4.517828901916592e-002 -1.184883358466918e-002 -1.487869746279197e-002 1.768120933613515e-002 -8.328288399049548e-003 7.933254560401543e-001 -5.539111328138067e-001
                       -1.184883358466915e-002 -1.487869746279200e-002 3.357969120261239e-002 4.517828901916592e-002 7.933254560401543e-001 -5.539111328138067e-001 1.768120933613515e-002 -8.328288399049548e-003
2.100000000000000e+008 1.743609512177324e-002 -9.057045366747424e-003 7.758083628401920e-001 -5.767255788286776e-001 3.629222570652004e-002 4.603650804940408e-002 -1.280664513335796e-002 -1.525518236670012e-002
                       7.758083628401920e-001 -5.767255788286776e-001 1.743609512177324e-002 -9.057045366747424e-003 -1.280664513335792e-002 -1.525518236670003e-002 3.629222570652004e-002 4.603650804940408e-002
                       3.629222570652010e-002 4.603650804940415e-002 -1.280664513335792e-002 -1.525518236670003e-002 1.743584845253843e-002 -9.057357485364837e-003 7.758082796606646e-001 -5.767256895676818e-001
                       -1.280664513335796e-002 -1.525518236670012e-002 3.629222570652010e-002 4.603650804940415e-002 7.758082796606646e-001 -5.767256895676818e-001 1.743584845253843e-002 -9.057357485364837e-003
2.200000000000000e+008 1.714990101150493e-002 -9.772035967007809e-003 7.576612112266689e-001 -5.989740242974340e-001 3.904319629676724e-002 4.673217175086294e-002 -1.379362483833499e-002 -1.559005114082632e-002
                       7.576612112266689e-001 -5.989740242974340e-001 1.714990101150493e-002 -9.772035967007809e-003 -1.379362483833506e-002 -1.559005114082625e-002 3.904319629676724e-002 4.673217175086294e-002
                       3.904319629676721e-002 4.673217175086290e-002 -1.379362483833506e-002 -1.559005114082625e-002 1.714963550665605e-002 -9.772352697443157e-003 7.576611204305346e-001 -5.989741372350084e-001
                       -1.379362483833499e-002 -1.559005114082632e-002 3.904319629676721e-002 4.673217175086290e-002 7.576611204305346e-001 -5.989741372350084e-001 1.714963550665605e-002 -9.772352697443157e-003
2.300000000000000e+008 1.682446376106195e-002 -1.047109878393799e-002 7.389015821017297e-001 -6.206406120799791e-001 4.182304602390367e-002 4.726383045091610e-002 -1.480846451372229e-002 -1.588206711865060e-002
                       7.389015821017297e-001 -6.206406120799791e-001 1.682446376106195e-002 -1.047109878393799e-002 -1.480846451372244e-002 -1.588206711865045e-002 4.182304602390367e-002 4.726383045091610e-002
                       4.182304602390358e-002 4.726383045091596e-002 -1.480846451372244e-002 -1.588206711865045e-002 1.682417922359281e-002 -1.047141899740465e-002 7.389014834959714e-001 -6.206407268213660e-001
                       -1.480846451372229e-002 -1.588206711865060e-002 4.182304602390358e-002 4.726383045091596e-002 7.389014834959714e-001 -6.206407268213660e-001 1.682417922359281e-002 -1.047141899740465e-002
2.400000000000000e+008 1.646134887019746e-002 -1.115246783956531e-002 7.195473999340484e-001 -6.417100346596409e-001 4.462217292745878e-002 4.763058047917249e-002 -1.584980397239237e-002 -1.613000829720145e-002
                       7.195473999340484e-001 -6.417100346596409e-001 1.646134887019746e-002 -1.115246783956531e-002 -1.584980397239245e-002 -1.613000829720148e-002 4.462217292745878e-002 4.763058047917249e-002
