[Version] 2.0
! Touchstone generated by fitter/viewer 
# HZ S  RI R 5.000000e+001
[Number of Ports] 4
[Number of Frequencies] 2000
[Mixed-Mode Order] D1,3 D2,4 C1,3 C2,4 
! 
[Network Data]
1.000000000000000e+007 9.641051960763550e-003 -6.863376390029213e-004 9.891921777281351e-001 -3.283817937081555e-002 1.547921125479024e-009 1.138443143445037e-008 -7.608518259871744e-010 2.869934082050385e-009
                       9.891921777281351e-001 -3.283817937081555e-002 9.641051960763550e-003 -6.863376390029213e-004 -7.608518259871744e-010 2.869934071642044e-009 1.547921125479024e-009 1.138443143445037e-008
                       1.547921125479024e-009 1.138443143401668e-008 -7.608518259871744e-010 2.869934071642044e-009 1.075638518392043e-002 6.135718934924530e-003 9.882847316128329e-001 -3.537927315700273e-002
                       -7.608518259871744e-010 2.869934082050385e-009 1.547921125479024e-009 1.138443143401668e-008 9.882847316128329e-001 -3.537927315700273e-002 1.075638518392043e-002 6.135718934924530e-003
2.000000000000000e+007 1.078172413845208e-002 -3.488280697225612e-003 9.857909066416875e-001 -6.294426306986105e-002 3.165469390949138e-009 2.191934979898537e-008 -7.276609870210393e-010 6.200387411836594e-009
                       9.857909066416875e-001 -6.294426306986105e-002 1.078172413845208e-002 -3.488280697225612e-003 -7.276607094652832e-010 6.200387384081019e-009 3.165469390949138e-009 2.191934979898537e-008
                       3.165469391816500e-009 2.191934979963589e-008 -7.276607094652832e-010 6.200387384081019e-009 1.291134303427557e-002 9.548639960223506e-003 9.843373327828422e-001 -6.751218304092987e-002
                       -7.276609870210393e-010 6.200387411836594e-009 3.165469391816500e-009 2.191934979963589e-008 9.843373327828422e-001 -6.751218304092987e-002 1.291134303427557e-002 9.548639960223506e-003
3.000000000000000e+007 1.135360981535752e-002 -6.589421448228579e-003 9.818980795336869e-001 -9.243932245195818e-002 5.307910609306243e-009 3.217158061437006e-008 -3.861432840146506e-010 9.568641094748198e-009
                       9.818980795336869e-001 -9.243932245195818e-002 1.135360981535752e-002 -6.589421448228579e-003 -3.861432840146506e-010 9.568641080870410e-009 5.307910609306243e-009 3.217158061437006e-008
                       5.307910609306243e-009 3.217158061480374e-008 -3.861432840146506e-010 9.568641080870410e-009 1.478388214717512e-002 1.248321051403811e-002 9.798637628308162e-001 -9.892363863787779e-002
                       -3.861432840146506e-010 9.568641094748198e-009 5.307910609306243e-009 3.217158061480374e-008 9.798637628308162e-001 -9.892363863787779e-002 1.478388214717512e-002 1.248321051403811e-002
4.000000000000000e+007 1.153014069106026e-002 -9.817161754698026e-003 9.773407897906989e-001 -1.215262501744370e-001 8.005897779786442e-009 4.217618551106972e-008 2.224269657347122e-010 1.293004654040475e-008
                       9.773407897906989e-001 -1.215262501744370e-001 1.153014069106026e-002 -9.817161754698026e-003 2.224270212458634e-010 1.293004653346586e-008 8.005897779786442e-009 4.217618551106972e-008
                       8.005897781521165e-009 4.217618551020236e-008 2.224270212458634e-010 1.293004653346586e-008 1.657408014090466e-002 1.513990407132110e-002 9.746599885411957e-001 -1.298532820034021e-001
                       2.224269657347122e-010 1.293004654040475e-008 8.005897781521165e-009 4.217618551020236e-008 9.746599885411957e-001 -1.298532820034021e-001 1.657408014090466e-002 1.513990407132110e-002
5.000000000000000e+007 1.138503534696467e-002 -1.309473875703026e-002 9.720643505148463e-001 -1.502689587404009e-001 1.125777371498160e-008 5.192636230028080e-008 1.077530731308229e-009 1.625899062607239e-008
                       9.720643505148463e-001 -1.502689587404009e-001 1.138503534696467e-002 -1.309473875703026e-002 1.077530398241322e-009 1.625899068158354e-008 1.125777371498160e-008 5.192636230028080e-008
                       1.125777371498160e-008 5.192636230028080e-008 1.077530398241322e-009 1.625899068158354e-008 1.835900034888378e-002 1.759506032304434e-002 9.686605176061598e-001 -1.603781255281066e-001
                       1.077530731308229e-009 1.625899062607239e-008 1.125777371498160e-008 5.192636230028080e-008 9.686605176061598e-001 -1.603781255281066e-001 1.835900034888378e-002 1.759506032304434e-002
6.000000000000000e+007 1.096011524380092e-002 -1.638100569762038e-002 9.660480995135723e-001 -1.786936504899910e-001 1.505269075965238e-008 6.140600215809311e-008 2.165874701809400e-009 1.953925085618202e-008
                       9.660480995135723e-001 -1.786936504899910e-001 1.096011524380092e-002 -1.638100569762038e-002 2.165874590787098e-009 1.953925082842645e-008 1.505269075965238e-008 6.140600215809311e-008
                       1.505269075878502e-008 6.140600215809311e-008 2.165874590787098e-009 1.953925082842645e-008 2.017668887927343e-002 1.988152386328675e-002 9.618401509916702e-001 -1.905292819160750e-001
                       2.165874701809400e-009 1.953925085618202e-008 1.505269075878502e-008 6.140600215809311e-008 9.618401509916702e-001 -1.905292819160750e-001 2.017668887927343e-002 1.988152386328675e-002
7.000000000000000e+007 1.028087746351612e-002 -1.964929610997775e-002 9.592827665994812e-001 -2.068092856835323e-001 1.937700666674452e-008 7.059478632220895e-008 3.478763110909000e-009 2.275806068596786e-008
                       9.592827665994812e-001 -2.068092856835323e-001 1.028087746351612e-002 -1.964929610997775e-002 3.478762944375546e-009 2.275806068596786e-008 1.937700666674452e-008 7.059478632220895e-008
                       1.937700666587716e-008 7.059478632220895e-008 3.478762944375546e-009 2.275806068596786e-008 2.204584651530837e-002 2.201438401536143e-002 9.541880577848698e-001 -2.203172436645365e-001
                       3.478763110909000e-009 2.275806068596786e-008 1.937700666587716e-008 7.059478632220895e-008 9.541880577848698e-001 -2.203172436645365e-001 2.204584651530837e-002 2.201438401536143e-002
8.000000000000000e+007 9.364482201570431e-003 -2.287879298198522e-002 9.517646731844234e-001 -2.346143104011680e-001 2.421510785898667e-008 7.946969955187344e-008 5.009700598801459e-009 2.590347790432102e-008
                       9.517646731844234e-001 -2.346143104011680e-001 9.364482201570431e-003 -2.287879298198522e-002 5.009700598801459e-009 2.590347790432102e-008 2.421510785898667e-008 7.946969955187344e-008
                       2.421510785638459e-008 7.946969955187344e-008 5.009700598801459e-009 2.590347790432102e-008 2.397494063945228e-002 2.400126638847223e-002 9.457004895567545e-001 -2.497404950057705e-001
                       5.009700598801459e-009 2.590347790432102e-008 2.421510785638459e-008 7.946969955187344e-008 9.457004895567545e-001 -2.497404950057705e-001 2.397494063945228e-002 2.400126638847223e-002
9.000000000000000e+007 8.224203934812512e-003 -2.605143153962431e-002 9.434941183936381e-001 -2.621004690724663e-001 2.954923461560149e-008 8.800627511115766e-008 6.752797654385745e-009 2.896371795180208e-008
                       9.434941183936381e-001 -2.621004690724663e-001 8.224203934812512e-003 -2.605143153962431e-002 6.752797765408047e-009 2.896371795180208e-008 2.954923461560149e-008 8.800627511115766e-008
                       2.954923461473413e-008 8.800627511115766e-008 6.752797765408047e-009 2.896371795180208e-008 2.596703148888583e-002 2.584633140172886e-002 9.363784081116094e-001 -2.787900581550863e-001
                       6.752797654385745e-009 2.896371795180208e-008 2.954923461473413e-008 8.800627511115766e-008 9.363784081116094e-001 -2.787900581550863e-001 2.596703148888583e-002 2.584633140172886e-002
1.000000000000000e+008 6.871701548946943e-003 -2.915093590802512e-002 9.344746158859554e-001 -2.892553785211339e-001 3.535941406470830e-008 9.617966115031684e-008 8.701984965941989e-009 3.192720532396720e-008
                       9.344746158859554e-001 -2.892553785211339e-001 6.871701548946943e-003 -2.915093590802512e-002 8.701984965941989e-009 3.192720537947835e-008 3.535941406470830e-008 9.617966115031684e-008
                       3.535941406687670e-008 9.617966115205157e-008 8.701984965941989e-009 3.192720537947835e-008 2.802224441713897e-002 2.755181361762763e-002 9.262263549849683e-001 -3.074523574143838e-001
                       8.701984965941989e-009 3.192720532396720e-008 3.535941406687670e-008 9.617966115205157e-008 9.262263549849683e-001 -3.074523574143838e-001 2.802224441713897e-002 2.755181361762763e-002
1.100000000000000e+008 5.318066949781835e-003 -3.216254931659580e-002 9.247122808776301e-001 -3.160642441070985e-001 4.162359318457196e-008 1.039654064921569e-007 1.085072331985515e-008 3.478276744406372e-008
                       9.247122808776301e-001 -3.160642441070985e-001 5.318066949781835e-003 -3.216254931659580e-002 1.085072348638860e-008 3.478276741630815e-008 4.162359318457196e-008 1.039654064921569e-007
                       4.162359318327091e-008 1.039654064956264e-007 1.085072348638860e-008 3.478276741630815e-008 3.013897847470114e-002 2.911867119025047e-002 9.152516758555767e-001 -3.357110646975950e-001
                       1.085072331985515e-008 3.478276744406372e-008 4.162359318327091e-008 1.039654064956264e-007 9.152516758555767e-001 -3.357110646975950e-001 3.013897847470114e-002 2.911867119025047e-002
1.200000000000000e+008 3.574257574239022e-003 -3.507293587335657e-002 9.142152881915799e-001 -3.425109566919986e-001 4.831786559853120e-008 1.113399907375079e-007 1.319196618609908e-008 3.751978258637045e-008
                       9.142152881915799e-001 -3.425109566919986e-001 3.574257574239022e-003 -3.507293587335657e-002 1.319196624161023e-008 3.751978253085930e-008 4.831786559853120e-008 1.113399907375079e-007
                       4.831786559744700e-008 1.113399907392426e-007 1.319196624161023e-008 3.751978253085930e-008 3.231447925982883e-002 3.054693477893709e-002 9.034639149983073e-001 -3.635482706254392e-001
                       1.319196618609908e-008 3.751978258637045e-008 4.831786559744700e-008 1.113399907392426e-007 9.034639149983073e-001 -3.635482706254392e-001 3.231447925982883e-002 3.054693477893709e-002
1.300000000000000e+008 1.651245570486461e-003 -3.787009745370816e-002 9.029934188239304e-001 -3.685787689604513e-001 5.541672021356497e-008 1.182811543085083e-007 1.571821078849567e-008 4.012825516319651e-008
                       9.029934188239304e-001 -3.685787689604513e-001 1.651245570486461e-003 -3.787009745370816e-002 1.571821073298452e-008 4.012825519095209e-008 5.541672021356497e-008 1.182811543085083e-007
                       5.541672021269761e-008 1.182811543119777e-007 1.571821073298452e-008 4.012825519095209e-008 3.454511107362651e-002 3.183595727669811e-002 8.908743418670286e-001 -3.909452156316406e-001
                       1.571821078849567e-008 4.012825516319651e-008 5.541672021269761e-008 1.182811543119777e-007 8.908743418670286e-001 -3.909452156316406e-001 3.454511107362651e-002 3.183595727669811e-002
1.400000000000000e+008 -4.399498532366751e-004 -4.054327549834857e-002 8.910577036119818e-001 -3.942507012312522e-001 6.289326842504918e-008 1.247681021970815e-007 1.842157965059599e-008 4.259883271129361e-008
                       8.910577036119818e-001 -3.942507012312522e-001 -4.399498532366751e-004 -4.054327549834857e-002 1.842157976161829e-008 4.259883262802688e-008 6.289326842504918e-008 1.247681021970815e-007
                       6.289326842656706e-008 1.247681021970815e-007 1.842157976161829e-008 4.259883262802688e-008 3.682649600232649e-002 3.298462487439156e-002 8.774955914735791e-001 -4.178827419914246e-001
                       1.842157965059599e-008 4.259883271129361e-008 6.289326842656706e-008 1.247681021970815e-007 8.774955914735791e-001 -4.178827419914246e-001 3.682649600232649e-002 3.298462487439156e-002
1.500000000000000e+008 -2.688269818018281e-003 -4.308284330002908e-002 8.784201565722882e-001 -4.195097803697675e-001 7.071943991499539e-008 1.307816236660597e-007 2.129389203853194e-008 4.492278826706553e-008
                       8.784201565722882e-001 -4.195097803697675e-001 -2.688269818018281e-003 -4.308284330002908e-002 2.129389209404309e-008 4.492278818379880e-008 7.071943991499539e-008 1.307816236660597e-007
                       7.071943991521223e-008 1.307816236695292e-007 2.129389209404309e-008 4.492278818379880e-008 3.915359941850922e-002 3.399154368252472e-002 8.633413990696428e-001 -4.443415729418315e-001
                       2.129389203853194e-008 4.492278826706553e-008 7.071943991521223e-008 1.307816236695292e-007 8.633413990696428e-001 -4.443415729418315e-001 3.915359941850922e-002 3.399154368252472e-002
1.600000000000000e+008 -5.082630470393009e-003 -4.548019990456700e-002 8.650935825863867e-001 -4.443391792600268e-001 7.886614605649711e-008 1.363041681780308e-007 2.432671697416566e-008 4.709198866970077e-008
                       8.650935825863867e-001 -4.443391792600268e-001 -5.082630470393009e-003 -4.548019990456700e-002 2.432671714069912e-008 4.709198878072307e-008 7.886614605649711e-008 1.363041681780308e-007
                       7.886614605476239e-008 1.363041681780308e-007 2.432671714069912e-008 4.709198878072307e-008 4.152079736729279e-002 3.485520331368880e-002 8.484264090467382e-001 -4.703024866981668e-001
                       2.432671697416566e-008 4.709198866970077e-008 7.886614605476239e-008 1.363041681780308e-007 8.484264090467382e-001 -4.703024866981668e-001 4.152079736729279e-002 3.485520331368880e-002
1.700000000000000e+008 -7.611933635208042e-003 -4.772767397316340e-002 8.510914425583120e-001 -4.687222990998928e-001 8.730342077349282e-008 1.413198921669523e-007 2.751141142676161e-008 4.909886025528110e-008
                       8.510914425583120e-001 -4.687222990998928e-001 -7.611933635208042e-003 -4.772767397316340e-002 2.751141131573931e-008 4.909886025528110e-008 8.730342077349282e-008 1.413198921669523e-007
                       8.730342077392650e-008 1.413198921669523e-007 2.751141131573931e-008 4.909886025528110e-008 4.392194015669595e-002 3.557411679090940e-002 8.327660398003292e-001 -4.957464276989569e-001
                       2.751141142676161e-008 4.909886025528110e-008 8.730342077392650e-008 1.413198921669523e-007 8.327660398003292e-001 -4.957464276989569e-001 4.392194015669595e-002 3.557411679090940e-002
1.800000000000000e+008 -1.026507136636004e-002 -4.981844202985189e-002 8.364277607617960e-001 -4.926428201923204e-001 9.600054073997250e-008 1.458146967649177e-007 3.083914484891537e-008 5.093635419006759e-008
                       8.364277607617960e-001 -4.926428201923204e-001 -1.026507136636004e-002 -4.981844202985189e-002 3.083914479340422e-008 5.093635435660104e-008 9.600054073997250e-008 1.458146967649177e-007
                       9.600054074257458e-008 1.458146967683871e-007 3.083914479340422e-008 5.093635435660104e-008 4.635041675178840e-002 3.614693697292720e-002 8.163763893324793e-001 -5.206545810445227e-001
                       3.083914484891537e-008 5.093635419006759e-008 9.600054074257458e-008 1.458146967683871e-007 8.163763893324793e-001 -5.206545810445227e-001 4.635041675178840e-002 3.614693697292720e-002
1.900000000000000e+008 -1.303092594124443e-002 -5.174646241192908e-002 8.211170618105099e-001 -5.160847363291421e-001 1.049261338934363e-007 1.497762528411550e-007 3.430091571887672e-008 5.259792396072882e-008
                       8.211170618105099e-001 -5.160847363291421e-001 -1.303092594124443e-002 -5.174646241192908e-002 3.430091571887672e-008 5.259792390521767e-008 1.049261338934363e-007 1.497762528411550e-007
                       1.049261338925689e-007 1.497762528411550e-007 3.430091571887672e-008 5.259792390521767e-008 4.879922042223511e-002 3.657255084222845e-002 7.992741695791863e-001 -5.450084257738550e-001
                       3.430091571887672e-008 5.259792396072882e-008 1.049261338925689e-007 1.497762528411550e-007 7.992741695791863e-001 -5.450084257738550e-001 4.879922042223511e-002 3.657255084222845e-002
2.000000000000000e+008 -1.589836781819567e-002 -5.350642422418715e-002 8.051743275123825e-001 -5.390323812735093e-001 1.140482815392002e-007 1.531940282475941e-007 3.788756020028927e-008 5.407750458541472e-008
                       8.051743275123825e-001 -5.390323812735093e-001 -1.589836781819567e-002 -5.350642422418715e-002 3.788756020028927e-008 5.407750469643702e-008 1.140482815392002e-007 1.531940282475941e-007
                       1.140482815374655e-007 1.531940282441247e-007 3.788756020028927e-008 5.407750469643702e-008 5.126101458702900e-002 3.685015381414457e-002 7.814766603430441e-001 -5.687897761990932e-001
                       3.788756020028927e-008 5.407750458541472e-008 1.140482815374655e-007 1.531940282441247e-007 7.814766603430441e-001 -5.687897761990932e-001 5.126101458702900e-002 3.685015381414457e-002
2.100000000000000e+008 -1.885625391936421e-002 -5.509370947546018e-002 7.886149663837850e-001 -5.614704518314788e-001 1.233346174044081e-007 1.560593087049367e-007 4.158976363299871e-008 5.536950209439340e-008
                       7.886149663837850e-001 -5.614704518314788e-001 -1.885625391936421e-002 -5.509370947546018e-002 4.158976374402101e-008 5.536950214990455e-008 1.233346174044081e-007 1.560593087049367e-007
                       1.233346174078775e-007 1.560593087049367e-007 4.158976374402101e-008 5.536950214990455e-008 5.372819749367583e-002 3.697930662334794e-002 7.630016761170692e-001 -5.919808165648790e-001
                       4.158976363299871e-008 5.536950209439340e-008 1.233346174078775e-007 1.560593087049367e-007 7.630016761170692e-001 -5.919808165648790e-001 5.372819749367583e-002 3.697930662334794e-002
2.200000000000000e+008 -2.189342803768669e-002 -5.650436608308833e-002 7.714547906669356e-001 -5.833840296253940e-001 1.327524244403716e-007 1.583652176756489e-007 4.539806713887984e-008 5.646878714626880e-008
                       7.714547906669356e-001 -5.833840296253940e-001 -2.189342803768669e-002 -5.650436608308833e-002 4.539806697234639e-008 5.646878725729110e-008 1.327524244403716e-007 1.583652176756489e-007
                       1.327524244421063e-007 1.583652176721795e-007 4.539806697234639e-008 5.646878725729110e-008 5.619296455584763e-002 3.695997741863738e-002 7.438675409902656e-001 -6.145641319070465e-001
                       4.539806713887984e-008 5.646878714626880e-008 1.327524244421063e-007 1.583652176721795e-007 7.438675409902656e-001 -6.145641319070465e-001 5.619296455584763e-002 3.695997741863738e-002
2.300000000000000e+008 -2.499872453157621e-002 -5.773508934158727e-002 7.537099973125718e-001 -6.047586023320212e-001 1.422687345691703e-007 1.601067333295569e-007 4.930287922366716e-008 5.737069330713496e-008
                       7.537099973125718e-001 -6.047586023320212e-001 -2.499872453157621e-002 -5.773508934158727e-002 4.930287905713371e-008 5.737069347366841e-008 1.422687345691703e-007 1.601067333295569e-007
                       1.422687345709051e-007 1.601067333260875e-007 4.930287905713371e-008 5.737069347366841e-008 5.864736751623093e-002 3.679257156024465e-002 7.240930682851272e-001 -6.365227365693222e-001
                       4.930287922366716e-008 5.737069330713496e-008 1.422687345709051e-007 1.601067333260875e-007 7.240930682851272e-001 -6.365227365693222e-001 5.864736751623093e-002 3.679257156024465e-002
2.400000000000000e+008 -2.816097590768966e-002 -5.878320959943841e-002 7.353971506119523e-001 -6.255800844334563e-001 1.518504284016287e-007 1.612807006730332e-007 5.329448743429666e-008 5.807101766119871e-008
                       7.353971506119523e-001 -6.255800844334563e-001 -2.816097590768966e-002 -5.878320959943841e-002 5.329448732327435e-008 5.807101771670986e-008 1.518504284016287e-007 1.612807006730332e-007
