! Touchstone generated by fitter/viewer 
# HZ S  RI R 5.000000e+001
! 
1.000000000000000e+007 1.049109833230089e-002 1.868759707481879e-002 9.890024237147128e-001 -3.702071794679662e-002 7.173004935912061e-004 1.088253961409113e-002 -5.346298729763431e-004 -5.813500315131918e-003
                       9.890024237147128e-001 -3.702071794679662e-002 1.049109833230089e-002 1.868759707481879e-002 -5.346298729760751e-004 -5.813500315131914e-003 7.173004935912061e-004 1.088253961409113e-002
                       7.173004935913980e-004 1.088253961409112e-002 -5.346298729760751e-004 -5.813500315131914e-003 1.049109948280103e-002 1.868759810207233e-002 9.890024227682804e-001 -3.702071368134904e-002
                       -5.346298729763431e-004 -5.813500315131918e-003 7.173004935913980e-004 1.088253961409112e-002 9.890024227682804e-001 -3.702071368134904e-002 1.049109948280103e-002 1.868759810207233e-002
2.000000000000000e+007 1.395592946032220e-002 3.495022100552380e-002 9.846776870260207e-001 -7.131081327187103e-002 2.271887303558546e-003 2.146430508265479e-002 -1.725570218447140e-003 -1.141828837627232e-002
                       9.846776870260207e-001 -7.131081327187103e-002 1.395592946032220e-002 3.495022100552380e-002 -1.725570218447414e-003 -1.141828837627232e-002 2.271887303558546e-003 2.146430508265479e-002
                       2.271887303558250e-003 2.146430508265480e-002 -1.725570218447414e-003 -1.141828837627232e-002 1.395593094207448e-002 3.495022232937538e-002 9.846776861410407e-001 -7.131080411552185e-002
                       -1.725570218447140e-003 -1.141828837627232e-002 2.271887303558250e-003 2.146430508265480e-002 9.846776861410407e-001 -7.131080411552185e-002 1.395593094207448e-002 3.495022232937538e-002
3.000000000000000e+007 1.822021416984210e-002 5.055402666262764e-002 9.792117002419786e-001 -1.048177755909129e-001 4.689158770003967e-003 3.177640219842061e-002 -3.603258773650624e-003 -1.680031255463203e-002
                       9.792117002419786e-001 -1.048177755909129e-001 1.822021416984210e-002 5.055402666262764e-002 -3.603258773650816e-003 -1.680031255463201e-002 4.689158770003967e-003 3.177640219842061e-002
                       4.689158770003860e-003 3.177640219842065e-002 -3.603258773650816e-003 -1.680031255463201e-002 1.822021571667642e-002 5.055402817797589e-002 9.792116998679259e-001 -1.048177614856825e-001
                       -3.603258773650624e-003 -1.680031255463203e-002 4.689158770003860e-003 3.177640219842065e-002 9.792116998679259e-001 -1.048177614856825e-001 1.822021571667642e-002 5.055402817797589e-002
4.000000000000000e+007 2.340115222104511e-002 6.558132925899858e-002 9.724821173157892e-001 -1.376574094488457e-001 7.932549506640145e-003 4.175378216432778e-002 -6.131028870530925e-003 -2.189014663259995e-002
                       9.724821173157892e-001 -1.376574094488457e-001 2.340115222104511e-002 6.558132925899858e-002 -6.131028870530734e-003 -2.189014663260003e-002 7.932549506640145e-003 4.175378216432778e-002
                       7.932549506640275e-003 4.175378216432771e-002 -6.131028870530734e-003 -2.189014663260003e-002 2.340115362374928e-002 6.558133094608755e-002 9.724821178461595e-001 -1.376573904127223e-001
                       -6.131028870530925e-003 -2.189014663259995e-002 7.932549506640275e-003 4.175378216432771e-002 9.724821178461595e-001 -1.376573904127223e-001 2.340115362374928e-002 6.558133094608755e-002
5.000000000000000e+007 2.950876599335350e-002 8.001474476992843e-002 9.644831953940185e-001 -1.698219034301152e-001 1.195429384020647e-002 5.132778828224237e-002 -9.263622343049435e-003 -2.662119893998399e-002
                       9.644831953940185e-001 -1.698219034301152e-001 2.950876599335350e-002 8.001474476992843e-002 -9.263622343049616e-003 -2.662119893998402e-002 1.195429384020647e-002 5.132778828224237e-002
                       1.195429384020630e-002 5.132778828224237e-002 -9.263622343049616e-003 -2.662119893998402e-002 2.950876706983452e-002 8.001474665507730e-002 9.644831971932949e-001 -1.698218795255461e-001
                       -9.263622343049435e-003 -2.662119893998399e-002 1.195429384020630e-002 5.132778828224237e-002 9.644831971932949e-001 -1.698218795255461e-001 2.950876706983452e-002 8.001474665507730e-002
6.000000000000000e+007 3.651477229368938e-002 9.380836077110837e-002 9.552483302830237e-001 -2.012731927157844e-001 1.669893934597491e-002 6.043478857473521e-002 -1.294826919471462e-002 -3.093226655248208e-002
                       9.552483302830237e-001 -2.012731927157844e-001 3.651477229368938e-002 9.380836077110837e-002 -1.294826919471470e-002 -3.093226655248206e-002 1.669893934597491e-002 6.043478857473521e-002
                       1.669893934597492e-002 6.043478857473520e-002 -1.294826919471470e-002 -3.093226655248206e-002 3.651477288207139e-002 9.380836291413565e-002 9.552483336935893e-001 -2.012731640375977e-001
                       -1.294826919471462e-002 -3.093226655248208e-002 1.669893934597492e-002 6.043478857473520e-002 9.552483336935893e-001 -2.012731640375977e-001 3.651477288207139e-002 9.380836291413565e-002
7.000000000000000e+007 4.436977820131005e-002 1.069097149046512e-001 9.448289328502346e-001 -2.319648714330962e-001 2.210527968394447e-002 6.901822799814492e-002 -1.712558626602685e-002 -3.476971673402803e-002
                       9.448289328502346e-001 -2.319648714330962e-001 4.436977820131005e-002 1.069097149046512e-001 -1.712558626602711e-002 -3.476971673402795e-002 2.210527968394447e-002 6.901822799814492e-002
                       2.210527968394432e-002 6.901822799814493e-002 -1.712558626602711e-002 -3.476971673402795e-002 4.436977815878451e-002 1.069097173919752e-001 9.448289381947804e-001 -2.319648381022342e-001
                       -1.712558626602685e-002 -3.476971673402803e-002 2.210527968394432e-002 6.901822799814493e-002 9.448289381947804e-001 -2.319648381022342e-001 4.436977815878451e-002 1.069097173919752e-001
8.000000000000000e+007 5.301154635645056e-002 1.192687236404987e-001 9.332871220542033e-001 -2.618501487808775e-001 2.810757741549114e-002 7.702956429308799e-002 -2.173114527002002e-002 -3.808872408194778e-002
                       9.332871220542033e-001 -2.618501487808775e-001 5.301154635645056e-002 1.192687236404987e-001 -2.173114527001987e-002 -3.808872408194776e-002 2.810757741549114e-002 7.702956429308799e-002
                       2.810757741549119e-002 7.702956429308802e-002 -2.173114527001987e-002 -3.808872408194776e-002 5.301154555951915e-002 1.192687265800729e-001 9.332871296363422e-001 -2.618501109403243e-001
                       -2.173114527002002e-002 -3.808872408194778e-002 2.810757741549119e-002 7.702956429308802e-002 9.332871296363422e-001 -2.618501109403243e-001 5.301154555951915e-002 1.192687265800729e-001
9.000000000000000e+007 6.236993383110800e-002 1.308414226530287e-001 9.206921888054681e-001 -2.908858894541140e-001 3.463676784943264e-002 8.442887321485938e-002 -2.669711561684710e-002 -4.085378061339674e-002
                       9.206921888054681e-001 -2.908858894541140e-001 6.236993383110800e-002 1.308414226530287e-001 -2.669711561684700e-002 -4.085378061339676e-002 3.463676784943264e-002 8.442887321485938e-002
                       3.463676784943278e-002 8.442887321485940e-002 -2.669711561684700e-002 -4.085378061339676e-002 6.236993217605469e-002 1.308414261701855e-001 9.206921989096104e-001 -2.908858472656269e-001
                       -2.669711561684710e-002 -4.085378061339674e-002 3.463676784943278e-002 8.442887321485940e-002 9.206921989096104e-001 -2.908858472656269e-001 6.236993217605469e-002 1.308414261701855e-001
1.000000000000000e+008 7.237011181965547e-002 1.415915025514548e-001 9.071181603904477e-001 -3.190349077626466e-001 4.162175124929848e-002 9.118515509215661e-002 -3.195379454334072e-002 -4.303877158340340e-002
                       9.071181603904477e-001 -3.190349077626466e-001 7.237011181965547e-002 1.415915025514548e-001 -3.195379454334053e-002 -4.303877158340362e-002 4.162175124929848e-002 9.118515509215661e-002
                       4.162175124929860e-002 9.118515509215644e-002 -3.195379454334053e-002 -4.303877158340362e-002 7.237010922292364e-002 1.415915067853138e-001 9.071181732814929e-001 -3.190348614037915e-001
                       -3.195379454334072e-002 -4.303877158340340e-002 4.162175124929860e-002 9.118515509215644e-002 9.071181732814929e-001 -3.190348614037915e-001 7.237010922292364e-002 1.415915067853138e-001
1.100000000000000e+008 8.293483608827912e-002 1.514908469000832e-001 8.926417933353553e-001 -3.462671978571195e-001 4.899070559927863e-002 9.727634066164027e-002 -3.743099673549394e-002 -4.462677459241499e-002
                       8.926417933353553e-001 -3.462671978571195e-001 8.293483608827912e-002 1.514908469000832e-001 -3.743099673549375e-002 -4.462677459241513e-002 4.899070559927863e-002 9.727634066164027e-002
                       4.899070559927875e-002 9.727634066164018e-002 -3.743099673549375e-002 -4.462677459241513e-002 8.293483248666678e-002 1.514908520003565e-001 8.926418092584704e-001 -3.462671475184632e-001
                       -3.743099673549394e-002 -4.462677459241499e-002 4.899070559927875e-002 9.727634066164018e-002 8.926418092584704e-001 -3.462671475184632e-001 8.293483248666678e-002 1.514908520003565e-001
1.200000000000000e+008 9.398616747992017e-002 1.605195612215636e-001 8.773408449047158e-001 -3.725604435461435e-001 5.667233865191585e-002 1.026890285828495e-001 -4.305930166539712e-002 -4.560965700026171e-002
                       8.773408449047158e-001 -3.725604435461435e-001 9.398616747992017e-002 1.605195612215636e-001 -4.305930166539702e-002 -4.560965700026196e-002 5.667233865191585e-002 1.026890285828495e-001
                       5.667233865191593e-002 1.026890285828493e-001 -4.305930166539702e-002 -4.560965700026196e-002 9.398616283056660e-002 1.605195673456562e-001 8.773408640853302e-001 -3.725603894285851e-001
                       -4.305930166539712e-002 -4.560965700026171e-002 5.667233865191593e-002 1.026890285828493e-001 8.773408640853302e-001 -3.725603894285851e-001 9.398616283056660e-002 1.605195673456562e-001
1.300000000000000e+008 1.054468404518649e-001 1.686657006176843e-001 8.612925950487601e-001 -3.979000316654202e-001 6.459702093253070e-002 1.074180044715464e-001 -4.877115312813438e-002 -4.598751514984152e-002
                       8.612925950487601e-001 -3.979000316654202e-001 1.054468404518649e-001 1.686657006176843e-001 -4.877115312813450e-002 -4.598751514984156e-002 6.459702093253070e-002 1.074180044715464e-001
                       6.459702093253063e-002 1.074180044715464e-001 -4.877115312813450e-002 -4.598751514984156e-002 1.054468347320164e-001 1.686657079280413e-001 8.612926176928201e-001 -3.978999739776800e-001
                       -4.877115312813438e-002 -4.598751514984152e-002 6.459702093253063e-002 1.074180044715464e-001 8.612926176928201e-001 -3.978999739776800e-001 1.054468347320164e-001 1.686657079280413e-001
1.400000000000000e+008 1.172413733468667e-001 1.759247979520532e-001 8.445726112074943e-001 -4.222787270150761e-001 7.269776489164219e-002 1.114655945510835e-001 -5.450180256217605e-002 -4.576799045452738e-002
                       8.445726112074943e-001 -4.222787270150761e-001 1.172413733468667e-001 1.759247979520532e-001 -5.450180256217595e-002 -4.576799045452730e-002 7.269776489164219e-002 1.114655945510835e-001
                       7.269776489164226e-002 1.114655945510836e-001 -5.450180256217595e-002 -4.576799045452730e-002 1.172413665534373e-001 1.759248066137445e-001 8.445726375019678e-001 -4.222786659713820e-001
                       -5.450180256217605e-002 -4.576799045452738e-002 7.269776489164226e-002 1.114655945510836e-001 8.445726375019678e-001 -4.222786659713820e-001 1.172413665534373e-001 1.759248066137445e-001
1.500000000000000e+008 1.292969647090436e-001 1.822992552235691e-001 8.272537468646699e-001 -4.456961233573965e-001 8.091103324433699e-002 1.148409040168046e-001 -6.019008970379764e-002 -4.496549600522060e-002
                       8.272537468646699e-001 -4.456961233573965e-001 1.292969647090436e-001 1.822992552235691e-001 -6.019008970379764e-002 -4.496549600522047e-002 8.091103324433699e-002 1.148409040168046e-001
                       8.091103324433696e-002 1.148409040168046e-001 -6.019008970379764e-002 -4.496549600522047e-002 1.292969568579826e-001 1.822992654020884e-001 8.272537769782783e-001 -4.456960591753782e-001
                       -6.019008970379764e-002 -4.496549600522060e-002 8.091103324433696e-002 1.148409040168046e-001 8.272537769782783e-001 -4.456960591753782e-001 1.292969568579826e-001 1.822992654020884e-001
1.600000000000000e+008 1.415441991515272e-001 1.877976449856570e-001 8.094053600211530e-001 -4.681579549394194e-001 8.917737236188197e-002 1.175589848698816e-001 -6.577905903539309e-002 -4.360038660519475e-002
                       8.094053600211530e-001 -4.681579549394194e-001 1.415441991515272e-001 1.877976449856570e-001 -6.577905903539308e-002 -4.360038660519471e-002 8.917737236188197e-002 1.175589848698816e-001
                       8.917737236188197e-002 1.175589848698816e-001 -6.577905903539308e-002 -4.360038660519471e-002 1.415441902770216e-001 1.877976568449523e-001 8.094053941052947e-001 -4.681578878382430e-001
                       -6.577905903539309e-002 -4.360038660519475e-002 8.917737236188197e-002 1.175589848698816e-001 8.094053941052947e-001 -4.681578878382430e-001 1.415441902770216e-001 1.877976568449523e-001
1.700000000000000e+008 1.539175792190198e-001 1.924339605139236e-001 7.910927337010261e-001 -4.896753316941404e-001 9.744187573198318e-002 1.196399718123198e-001 -7.121641622305207e-002 -4.169810317143421e-002
                       7.910927337010261e-001 -4.896753316941404e-001 1.539175792190198e-001 1.924339605139236e-001 -7.121641622305207e-002 -4.169810317143417e-002 9.744187573198318e-002 1.196399718123198e-001
                       9.744187573198322e-002 1.196399718123197e-001 -7.121641622305207e-002 -4.169810317143417e-002 1.539175693725614e-001 1.924339742146455e-001 7.910927718908474e-001 -4.896752618928787e-001
                       -7.121641622305207e-002 -4.169810317143421e-002 9.744187573198322e-002 1.196399718123197e-001 7.910927718908474e-001 -4.896752618928787e-001 1.539175693725614e-001 1.924339742146455e-001
1.800000000000000e+008 1.663558985882080e-001 1.962268473673609e-001 7.723766777688024e-001 -5.102639455600929e-001 1.056544889202618e-001 1.211082183887342e-001 -7.645483398556266e-002 -3.928831911134334e-002
                       7.723766777688024e-001 -5.102639455600929e-001 1.663558985882080e-001 1.962268473673609e-001 -7.645483398556260e-002 -3.928831911134325e-002 1.056544889202618e-001 1.211082183887342e-001
                       1.056544889202620e-001 1.211082183887343e-001 -7.645483398556260e-002 -3.928831911134325e-002 1.663558878375552e-001 1.962268630653351e-001 7.723767201843771e-001 -5.102638732763417e-001
                       -7.645483398556266e-002 -3.928831911134334e-002 1.056544889202620e-001 1.211082183887343e-001 7.723767201843771e-001 -5.102638732763417e-001 1.663558878375552e-001 1.962268630653351e-001
1.900000000000000e+008 1.788024729454331e-001 1.991988433530161e-001 7.533132896752776e-001 -5.299432832817489e-001 1.137701717323406e-001 1.219914592207532e-001 -8.145212095836328e-002 -3.640411199677720e-002
                       7.533132896752776e-001 -5.299432832817489e-001 1.788024729454331e-001 1.991988433530161e-001 -8.145212095836353e-002 -3.640411199677707e-002 1.137701717323406e-001 1.219914592207532e-001
                       1.137701717323404e-001 1.219914592207533e-001 -8.145212095836353e-002 -3.640411199677707e-002 1.788024613734991e-001 1.991988611979312e-001 7.533133364228617e-001 -5.299432087304784e-001
                       -8.145212095836328e-002 -3.640411199677720e-002 1.137701717323404e-001 1.219914592207533e-001 7.533133364228617e-001 -5.299432087304784e-001 1.788024613734991e-001 1.991988611979312e-001
2.000000000000000e+008 1.912052461571221e-001 2.013756483762048e-001 7.339538511356998e-001 -5.487358714574517e-001 1.217489357975237e-001 1.223200181361762e-001 -8.617126990571836e-002 -3.308117910675607e-002
                       7.339538511356998e-001 -5.487358714574517e-001 1.912052461571221e-001 2.013756483762048e-001 -8.617126990571843e-002 -3.308117910675598e-002 1.217489357975237e-001 1.223200181361762e-001
                       1.217489357975238e-001 1.223200181361762e-001 -8.617126990571843e-002 -3.308117910675598e-002 1.912052338608211e-001 2.013756685105056e-001 7.339539023090184e-001 -5.487357948500847e-001
                       -8.617126990571836e-002 -3.308117910675607e-002 1.217489357975238e-001 1.223200181361762e-001 7.339539023090184e-001 -5.487357948500847e-001 1.912052338608211e-001 2.013756685105056e-001
2.100000000000000e+008 2.035167901370916e-001 2.027854403475950e-001 7.143448380318724e-001 -5.666665718335033e-001 1.295557769005044e-001 1.221260764350616e-001 -9.058040313261172e-002 -2.935711062444411e-002
                       7.143448380318724e-001 -5.666665718335033e-001 2.035167901370916e-001 2.027854403475950e-001 -9.058040313261159e-002 -2.935711062444403e-002 1.295557769005044e-001 1.221260764350616e-001
                       1.295557769005045e-001 1.221260764350619e-001 -9.058040313261159e-002 -2.935711062444403e-002 2.035167772261688e-001 2.027854629055669e-001 7.143448937134160e-001 -5.666664933772041e-001
                       -9.058040313261172e-002 -2.935711062444411e-002 1.295557769005045e-001 1.221260764350619e-001 7.143448937134160e-001 -5.666664933772041e-001 2.035167772261688e-001 2.027854629055669e-001
2.200000000000000e+008 2.156942168774849e-001 2.034582484178223e-001 6.945280218560191e-001 -5.837619385305842e-001 1.371605213744650e-001 1.214430105989513e-001 -9.465263332364110e-002 -2.527072977306842e-002
                       6.945280218560191e-001 -5.837619385305842e-001 2.156942168774849e-001 2.034582484178223e-001 -9.465263332364107e-002 -2.527072977306861e-002 1.371605213744650e-001 1.214430105989513e-001
                       1.371605213744649e-001 1.214430105989512e-001 -9.465263332364107e-002 -2.527072977306861e-002 2.156942034733526e-001 2.034582735248575e-001 6.945280821183230e-001 -5.837618584277442e-001
                       -9.465263332364110e-002 -2.527072977306842e-002 1.371605213744649e-001 1.214430105989512e-001 6.945280821183230e-001 -5.837618584277442e-001 2.156942034733526e-001 2.034582735248575e-001
2.300000000000000e+008 2.276990204656827e-001 2.034253904793553e-001 6.745406426024070e-001 -6.000496438042298e-001 1.445376050134757e-001 1.203048045236015e-001 -9.836585751493712e-002 -2.086150517027593e-002
                       6.745406426024070e-001 -6.000496438042298e-001 2.276990204656827e-001 2.034253904793553e-001 -9.836585751493683e-002 -2.086150517027579e-002 1.445376050134757e-001 1.203048045236015e-001
                       1.445376050134759e-001 1.203048045236017e-001 -9.836585751493683e-002 -2.086150517027579e-002 2.276990067002819e-001 2.034254182513747e-001 6.745407075092924e-001 -6.000495622521248e-001
                       -9.836585751493712e-002 -2.086150517027593e-002 1.445376050134759e-001 1.203048045236017e-001 6.745407075092924e-001 -6.000495622521248e-001 2.276990067002819e-001 2.034254182513747e-001
2.400000000000000e+008 2.394968656907242e-001 2.027189782086497e-001 6.544156349864045e-001 -6.155579749230408e-001 1.516658015147459e-001 1.187455378722792e-001 -1.017025007235127e-001 -1.616903728689102e-002
                       6.544156349864045e-001 -6.155579749230408e-001 2.394968656907242e-001 2.027189782086497e-001 -1.017025007235128e-001 -1.616903728689096e-002 1.516658015147459e-001 1.187455378722792e-001
