! Touchstone generated by fitter/viewer 
# HZ S  RI R 5.000000e+001
! 
1.000000000000000e+007 2.674203886937621e-004 4.551268844667890e-003 9.982886523519445e-001 -5.826740405880666e-002 1.014518662088731e-004 1.654514946774933e-003 -6.983634259252507e-005 -1.066798256716692e-003
                       9.982886523519445e-001 -5.826740405880666e-002 2.674203886937621e-004 4.551268844667890e-003 -6.983634259240970e-005 -1.066798256716698e-003 1.014518662088731e-004 1.654514946774933e-003
                       1.014518662088795e-004 1.654514946774944e-003 -6.983634259240970e-005 -1.066798256716698e-003 2.674196902647807e-004 4.551256784400557e-003 9.982886523368059e-001 -5.826740526340294e-002
                       -6.983634259252507e-005 -1.066798256716692e-003 1.014518662088795e-004 1.654514946774944e-003 9.982886523368059e-001 -5.826740526340294e-002 2.674196902647807e-004 4.551256784400557e-003
2.000000000000000e+007 1.065936158239578e-003 9.039627644512769e-003 9.931611302496447e-001 -1.163297267080772e-001 4.042452909843146e-004 3.284079336055043e-003 -2.784334269429580e-004 -2.118216446222742e-003
                       9.931611302496447e-001 -1.163297267080772e-001 1.065936158239578e-003 9.039627644512769e-003 -2.784334269427960e-004 -2.118216446222748e-003 4.042452909843146e-004 3.284079336055043e-003
                       4.042452909843289e-004 3.284079336055061e-003 -2.784334269427960e-004 -2.118216446222748e-003 1.065933374220229e-003 9.039603686735549e-003 9.931611301862181e-001 -1.163297291367736e-001
                       -2.784334269429580e-004 -2.118216446222742e-003 4.042452909843289e-004 3.284079336055061e-003 9.931611301862181e-001 -1.163297291367736e-001 1.065933374220229e-003 9.039603686735549e-003
3.000000000000000e+007 2.384367573743162e-003 1.340306980285383e-002 9.846369505032766e-001 -1.739828419245301e-001 9.037208371870676e-004 4.864142971960602e-003 -6.230754941649627e-004 -3.139125567859640e-003
                       9.846369505032766e-001 -1.739828419245301e-001 2.384367573743162e-003 1.340306980285383e-002 -6.230754941649495e-004 -3.139125567859646e-003 9.037208371870676e-004 4.864142971960602e-003
                       9.037208371870675e-004 4.864142971960635e-003 -6.230754941649495e-004 -3.139125567859646e-003 2.384361345910357e-003 1.340303427069574e-002 9.846369503499053e-001 -1.739828456151409e-001
                       -6.230754941649627e-004 -3.139125567859640e-003 9.037208371870675e-004 4.864142971960635e-003 9.846369503499053e-001 -1.739828456151409e-001 2.384361345910357e-003 1.340303427069574e-002
4.000000000000000e+007 4.204268850803050e-003 1.758138076887115e-002 9.727484897044181e-001 -2.310245226334710e-001 1.592202411500031e-003 6.370948494851861e-003 -1.099302528884847e-003 -4.114891754021395e-003
                       9.727484897044181e-001 -2.310245226334710e-001 4.204268850803050e-003 1.758138076887115e-002 -1.099302528884747e-003 -4.114891754021408e-003 1.592202411500031e-003 6.370948494851861e-003
                       1.592202411500041e-003 6.370948494851903e-003 -1.099302528884747e-003 -4.114891754021408e-003 4.204257868639982e-003 1.758133414110817e-002 9.727484894056472e-001 -2.310245276397784e-001
                       -1.099302528884847e-003 -4.114891754021395e-003 1.592202411500041e-003 6.370948494851903e-003 9.727484894056472e-001 -2.310245276397784e-001 4.204257868639982e-003 1.758133414110817e-002
5.000000000000000e+007 6.500205085610777e-003 2.151699728430708e-002 9.575407604111113e-001 -2.872553609720052e-001 2.459129480837504e-003 7.781908319960200e-003 -1.701007366906914e-003 -5.031606592343256e-003
                       9.575407604111113e-001 -2.872553609720052e-001 6.500205085610777e-003 2.151699728430708e-002 -1.701007366906813e-003 -5.031606592343262e-003 2.459129480837504e-003 7.781908319960200e-003
                       2.459129480837516e-003 7.781908319960253e-003 -1.701007366906813e-003 -5.031606592343262e-003 6.500188104314297e-003 2.151694018838444e-002 9.575407598929366e-001 -2.872553673603475e-001
                       -1.701007366906914e-003 -5.031606592343256e-003 2.459129480837516e-003 7.781908319960253e-003 9.575407598929366e-001 -2.872553673603475e-001 6.500188104314297e-003 2.151694018838444e-002
6.000000000000000e+007 9.240132613337893e-003 2.515582346418946e-002 9.390711043300757e-001 -3.424796544607025e-001 3.491237790961892e-003 9.075958855574462e-003 -2.420567207865897e-003 -5.876297459073433e-003
                       9.390711043300757e-001 -3.424796544607025e-001 9.240132613337893e-003 2.515582346418946e-002 -2.420567207865743e-003 -5.876297459073401e-003 3.491237790961892e-003 9.075958855574462e-003
                       3.491237790961920e-003 9.075958855574518e-003 -2.420567207865743e-003 -5.876297459073401e-003 9.240108470775943e-003 2.515575666712726e-002 9.390711034959423e-001 -3.424796623056159e-001
                       -2.420567207865897e-003 -5.876297459073433e-003 3.491237790961920e-003 9.075958855574518e-003 9.390711034959423e-001 -3.424796623056159e-001 9.240108470775943e-003 2.515575666712726e-002
7.000000000000000e+007 1.238587571866645e-002 2.844799089091690e-002 9.174088087380629e-001 -3.965062482796686e-001 4.672784404470750e-003 1.023388548535950e-002 -3.249005311042126e-003 -6.637112339921100e-003
                       9.174088087380629e-001 -3.965062482796686e-001 1.238587571866645e-002 2.844799089091690e-002 -3.249005311042070e-003 -6.637112339921158e-003 4.672784404470750e-003 1.023388548535950e-002
                       4.672784404470773e-003 1.023388548535956e-002 -3.249005311042070e-003 -6.637112339921158e-003 1.238584335103132e-002 2.844791528825707e-002 9.174088074657667e-001 -3.965062576587321e-001
                       -3.249005311042126e-003 -6.637112339921100e-003 4.672784404470773e-003 1.023388548535956e-002 9.174088074657667e-001 -3.965062576587321e-001 1.238584335103132e-002 2.844791528825707e-002
8.000000000000000e+007 1.589369096792215e-002 3.134855116527095e-002 8.926346537814229e-001 -4.491493250982853e-001 5.985811955261964e-003 1.123861264157105e-002 -4.176177742343022e-003 -7.303474523932106e-003
                       8.926346537814229e-001 -4.491493250982853e-001 1.589369096792215e-002 3.134855116527095e-002 -4.176177742342972e-003 -7.303474523932142e-003 5.985811955261964e-003 1.123861264157105e-002
                       5.985811955262001e-003 1.123861264157112e-002 -4.176177742342972e-003 -7.303474523932142e-003 1.589364942385263e-002 3.134846776827705e-002 8.926346519210584e-001 -4.491493360863562e-001
                       -4.176177742343022e-003 -7.303474523932106e-003 5.985811955262001e-003 1.123861264157112e-002 8.926346519210584e-001 -4.491493360863562e-001 1.589364942385263e-002 3.134846776827705e-002
9.000000000000000e+007 1.971490902815010e-002 3.381809084418686e-002 8.648403994260249e-001 -5.002291353755972e-001 7.410446281366652e-003 1.207545427274211e-002 -5.190979330785377e-003 -7.866203613388037e-003
                       8.648403994260249e-001 -5.002291353755972e-001 1.971490902815010e-002 3.381809084418686e-002 -5.190979330785319e-003 -7.866203613388073e-003 7.410446281366652e-003 1.207545427274211e-002
                       7.410446281366694e-003 1.207545427274219e-002 -5.190979330785319e-003 -7.866203613388073e-003 1.971485748112667e-002 3.381800076551380e-002 8.648403967990771e-001 -5.002291480386318e-001
                       -5.190979330785377e-003 -7.866203613388037e-003 7.410446281366694e-003 1.207545427274219e-002 8.648403967990771e-001 -5.002291480386318e-001 1.971485748112667e-002 3.381800076551380e-002
1.000000000000000e+008 2.379664271456872e-002 3.582326034890356e-002 8.341282216664587e-001 -5.495726626726588e-001 8.925221066859709e-003 1.273232107751595e-002 -6.281562506203052e-003 -8.317600452770373e-003
                       8.341282216664587e-001 -5.495726626726588e-001 2.379664271456872e-002 3.582326034890356e-002 -6.281562506202974e-003 -8.317600452770333e-003 8.925221066859709e-003 1.273232107751595e-002
                       8.925221066859789e-003 1.273232107751604e-002 -6.281562506202974e-003 -8.317600452770333e-003 2.379658047342781e-002 3.582316478698849e-002 8.341282180660968e-001 -5.495726770613417e-001
                       -6.281562506203052e-003 -8.317600452770373e-003 8.925221066859789e-003 1.273232107751604e-002 8.341282180660968e-001 -5.495726770613417e-001 2.379658047342781e-002 3.582316478698849e-002
1.100000000000000e+008 2.808254918126818e-002 3.733721019060349e-002 8.006101081247693e-001 -5.970142202373446e-001 1.050742280502770e-002 1.319988199018364e-002 -7.435562438187183e-003 -8.651494794177435e-003
                       8.006101081247693e-001 -5.970142202373446e-001 2.808254918126818e-002 3.733721019060349e-002 -7.435562438187054e-003 -8.651494794177449e-003 1.050742280502770e-002 1.319988199018364e-002
                       1.050742280502777e-002 1.319988199018372e-002 -7.435562438187054e-003 -8.651494794177449e-003 2.808247569871358e-002 3.733711041303502e-002 8.006101033173699e-001 -5.970142363807428e-001
                       -7.435562438187183e-003 -8.651494794177435e-003 1.050742280502777e-002 1.319988199018372e-002 8.006101033173699e-001 -5.970142363807428e-001 2.808247569871358e-002 3.733711041303502e-002
1.200000000000000e+008 3.251363364521220e-002 3.833992967544099e-002 7.644072233690167e-001 -6.423959768731301e-001 1.213344928715275e-002 1.347167851811649e-002 -8.640321880525874e-003 -8.863255736798456e-003
                       7.644072233690167e-001 -6.423959768731301e-001 3.251363364521220e-002 3.833992967544099e-002 -8.640321880525740e-003 -8.863255736798494e-003 1.213344928715275e-002 1.347167851811649e-002
                       1.213344928715284e-002 1.347167851811657e-002 -8.640321880525740e-003 -8.863255736798494e-003 3.251354852424215e-002 3.833982700157874e-002 7.644072170968923e-001 -6.423959947726017e-001
                       -8.640321880525874e-003 -8.863255736798456e-003 1.213344928715284e-002 1.347167851811657e-002 7.644072170968923e-001 -6.423959947726017e-001 3.251354852424215e-002 3.833982700157874e-002
1.300000000000000e+008 3.702908180284559e-002 3.881848506118566e-002 7.256492541675712e-001 -6.855684118251868e-001 1.377917491239226e-002 1.354419160458323e-002 -9.883109336635393e-003 -8.949766158021283e-003
                       7.256492541675712e-001 -6.855684118251868e-001 3.702908180284559e-002 3.881848506118566e-002 -9.883109336635235e-003 -8.949766158021427e-003 1.377917491239226e-002 1.354419160458323e-002
                       1.377917491239234e-002 1.354419160458331e-002 -9.883109336635235e-003 -8.949766158021427e-003 3.702898480105710e-002 3.881838084429514e-002 7.256492461528453e-001 -6.855684314487549e-001
                       -9.883109336635393e-003 -8.949766158021283e-003 1.377917491239234e-002 1.354419160458331e-002 7.256492461528453e-001 -6.855684314487549e-001 3.702898480105710e-002 3.881838084429514e-002
1.400000000000000e+008 4.156710814339726e-002 3.876715589278425e-002 6.844737444847874e-001 -7.263907000531077e-001 1.542031638397346e-002 1.341686168540541e-002 -1.115132458171292e-002 -8.909363451773296e-003
                       6.844737444847874e-001 -7.263907000531077e-001 4.156710814339726e-002 3.876715589278425e-002 -1.115132458171284e-002 -8.909363451773362e-003 1.542031638397346e-002 1.341686168540541e-002
                       1.542031638397355e-002 1.341686168540551e-002 -1.115132458171284e-002 -8.909363451773362e-003 4.156699917515727e-002 3.876705150195348e-002 6.844737344343241e-001 -7.263907213304957e-001
                       -1.115132458171292e-002 -8.909363451773296e-003 1.542031638397355e-002 1.341686168540551e-002 6.844737344343241e-001 -7.263907213304957e-001 4.156699917515727e-002 3.876705150195348e-002
1.500000000000000e+008 4.606580765583124e-002 3.818746990034335e-002 6.410254293458944e-001 -7.647310307596407e-001 1.703279277813297e-002 1.309206349429611e-002 -1.243268618129908e-002 -8.741749870117027e-003
                       6.410254293458944e-001 -7.647310307596407e-001 4.606580765583124e-002 3.818746990034335e-002 -1.243268618129899e-002 -8.741749870117091e-003 1.703279277813297e-002 1.309206349429611e-002
                       1.703279277813307e-002 1.309206349429619e-002 -1.243268618129899e-002 -8.741749870117091e-003 4.606568679234324e-002 3.818736670243295e-002 6.410254169571489e-001 -7.647310535781594e-001
                       -1.243268618129908e-002 -8.741749870117027e-003 1.703279277813307e-002 1.309206349429619e-002 6.410254169571489e-001 -7.647310535781594e-001 4.606568679234324e-002 3.818736670243295e-002
1.600000000000000e+008 5.046399893308939e-002 3.708813836535724e-002 5.954555757899264e-001 -8.004668633670823e-001 1.859307451294391e-002 1.257503792721264e-002 -1.371539640283517e-002 -8.447876598522147e-003
                       5.954555757899264e-001 -8.004668633670823e-001 5.046399893308939e-002 3.708813836535724e-002 -1.371539640283501e-002 -8.447876598522176e-003 1.859307451294391e-002 1.257503792721264e-002
                       1.859307451294404e-002 1.257503792721272e-002 -1.371539640283501e-002 -8.447876598522176e-003 5.046386640041278e-002 3.708803770722936e-002 5.954555607575663e-001 -8.004668875685085e-001
                       -1.371539640283517e-002 -8.447876598522147e-003 1.859307451294404e-002 1.257503792721272e-002 5.954555607575663e-001 -8.004668875685085e-001 5.046386640041278e-002 3.708803770722936e-002
1.700000000000000e+008 5.470204735917750e-002 3.548489522395611e-002 5.479213380312082e-001 -8.334851262446075e-001 2.007851636974363e-002 1.187378388678313e-002 -1.498827979235541e-002 -8.029806362950781e-003
                       5.479213380312082e-001 -8.334851262446075e-001 5.470204735917750e-002 3.548489522395611e-002 -1.498827979235527e-002 -8.029806362950882e-003 2.007851636974363e-002 1.187378388678313e-002
                       2.007851636974374e-002 1.187378388678320e-002 -1.498827979235527e-002 -8.029806362950882e-003 5.470190353427606e-002 3.548479841520177e-002 5.479213200543178e-001 -8.334851516231902e-001
                       -1.498827979235541e-002 -8.029806362950781e-003 2.007851636974374e-002 1.187378388678320e-002 5.479213200543178e-001 -8.334851516231902e-001 5.470190353427606e-002 3.548479841520177e-002
1.800000000000000e+008 5.872265788117137e-002 3.340024436374933e-002 4.985851327076655e-001 -8.636823643676322e-001 2.146767039509867e-002 1.099891348849957e-002 -1.624089264676418e-002 -7.490559855207239e-003
                       4.985851327076655e-001 -8.636823643676322e-001 5.872265788117137e-002 3.340024436374933e-002 -1.624089264676404e-002 -7.490559855207277e-003 2.146767039509867e-002 1.099891348849957e-002
                       2.146767039509882e-002 1.099891348849965e-002 -1.624089264676404e-002 -7.490559855207277e-003 5.872250328610607e-002 3.340015266012378e-002 4.985851114973413e-001 -8.636823906693067e-001
                       -1.624089264676418e-002 -7.490559855207239e-003 2.146767039509882e-002 1.099891348849965e-002 4.985851114973413e-001 -8.636823906693067e-001 5.872250328610607e-002 3.340015266012378e-002
1.900000000000000e+008 6.247162777907422e-002 3.086312057720212e-002 4.476140387548087e-001 -8.909648427204517e-001 2.274057520232179e-002 9.963474323607006e-003 -1.746360161748813e-002 -6.833951566649295e-003
                       4.476140387548087e-001 -8.909648427204517e-001 6.247162777907422e-002 3.086312057720212e-002 -1.746360161748807e-002 -6.833951566649336e-003 2.274057520232179e-002 9.963474323607006e-003
                       2.274057520232195e-002 9.963474323607077e-003 -1.746360161748807e-002 -6.833951566649336e-003 6.247146307345386e-002 3.086303516494435e-002 4.476140140419297e-001 -8.909648696433214e-001
                       -1.746360161748813e-002 -6.833951566649295e-003 2.274057520232195e-002 9.963474323607077e-003 4.476140140419297e-001 -8.909648696433214e-001 6.247146307345386e-002 3.086303516494435e-002
2.000000000000000e+008 6.589855081369089e-002 2.790847046169860e-002 3.951792250537790e-001 -9.152486126309475e-001 2.387901886780238e-002 8.782742649314619e-003 -1.864763069959421e-002 -6.064420740923371e-003
                       3.951792250537790e-001 -9.152486126309475e-001 6.589855081369089e-002 2.790847046169860e-002 -1.864763069959416e-002 -6.064420740923470e-003 2.387901886780238e-002 8.782742649314619e-003
                       2.387901886780254e-002 8.782742649314685e-003 -1.864763069959416e-002 -6.064420740923470e-003 6.589837678552279e-002 2.790839244290944e-002 3.951791965967461e-001 -9.152486398270534e-001
                       -1.864763069959421e-002 -6.064420740923371e-003 2.387901886780254e-002 8.782742649314685e-003 3.951791965967461e-001 -9.152486398270534e-001 6.589837678552279e-002 2.790839244290944e-002
2.100000000000000e+008 6.895746512237699e-002 2.457676021429286e-002 3.414554076044759e-001 -9.364595483542341e-001 2.486677325262509e-002 7.473991430921622e-003 -1.978507686043114e-002 -5.186863101182528e-003
                       3.414554076044759e-001 -9.364595483542341e-001 6.895746512237699e-002 2.457676021429286e-002 -1.978507686043102e-002 -5.186863101182565e-003 2.486677325262509e-002 7.473991430921622e-003
                       2.486677325262526e-002 7.473991430921667e-003 -1.978507686043102e-002 -5.186863101182565e-003 6.895728267745804e-002 2.457669059350338e-002 3.414553751966939e-001 -9.364595754325898e-001
                       -1.978507686043114e-002 -5.186863101182528e-003 2.486677325262526e-002 7.473991430921667e-003 3.414553751966939e-001 -9.364595754325898e-001 6.895728267745804e-002 2.457669059350338e-002
2.200000000000000e+008 7.160743821605564e-002 2.091341777332694e-002 2.866203366113392e-001 -9.545333611106127e-001 2.568979815341714e-002 6.056237113037827e-003 -2.086889551584572e-002 -4.206468788308183e-003
                       2.866203366113392e-001 -9.545333611106127e-001 7.160743821605564e-002 2.091341777332694e-002 -2.086889551584563e-002 -4.206468788308292e-003 2.568979815341714e-002 6.056237113037827e-003
                       2.568979815341730e-002 6.056237113037865e-003 -2.086889551584563e-002 -4.206468788308292e-003 7.160724836606380e-002 2.091335744538220e-002 2.866203000882456e-001 -9.545333876414567e-001
                       -2.086889551584572e-002 -4.206468788308183e-003 2.568979815341730e-002 6.056237113037865e-003 2.866203000882456e-001 -9.545333876414567e-001 7.160724836606380e-002 2.091335744538220e-002
2.300000000000000e+008 7.381308338592718e-002 1.696821712966576e-002 2.308543125765937e-001 -9.694155974479283e-001 2.633641418346799e-002 4.549968871653800e-003 -2.189285794641532e-002 -3.128571579453084e-003
                       2.308543125765937e-001 -9.694155974479283e-001 7.381308338592718e-002 1.696821712966576e-002 -2.189285794641519e-002 -3.128571579453213e-003 2.633641418346799e-002 4.549968871653800e-003
                       2.633641418346817e-002 4.549968871653839e-003 -2.189285794641519e-002 -3.128571579453213e-003 7.381288723536728e-002 1.696816686902914e-002 2.308542718220318e-001 -9.694156229681040e-001
                       -2.189285794641532e-002 -3.128571579453084e-003 2.633641418346817e-002 4.549968871653839e-003 2.308542718220318e-001 -9.694156229681040e-001 7.381288723536728e-002 1.696816686902914e-002
2.400000000000000e+008 7.554500273901199e-002 1.279461288996120e-002 1.743397293058248e-001 -9.810616282595243e-001 2.679744369763807e-002 2.976863920225283e-003 -2.285148354150337e-002 -1.958513958613496e-003
                       1.743397293058248e-001 -9.810616282595243e-001 7.554500273901199e-002 1.279461288996120e-002 -2.285148354150326e-002 -1.958513958613563e-003 2.679744369763807e-002 2.976863920225283e-003
