[Version] 2.0
! Touchstone generated by fitter/viewer 
# HZ S  RI R 5.000000e+001
[Number of Ports] 4
[Number of Frequencies] 2000
[Mixed-Mode Order] D1,3 D2,4 C1,3 C2,4 
! 
[Network Data]
1.000000000000000e+007 1.659681732703949e-004 2.896747867759280e-003 9.983584886869662e-001 -5.720060640438802e-002 3.492144907122664e-010 6.030133666923634e-009 7.569278537289392e-012 6.022981453857046e-010
                       9.983584886869662e-001 -5.720060640438802e-002 1.659681732703949e-004 2.896747867759280e-003 7.569445070743086e-012 6.022981349773637e-010 3.492144907122664e-010 6.030133666923634e-009
                       3.492144906851614e-010 6.030133666273113e-009 7.569445070743086e-012 6.022981349773637e-010 3.688719056881472e-004 6.205777761309154e-003 9.982188160017813e-001 -5.933420291782141e-002
                       7.569278537289392e-012 6.022981453857046e-010 3.492144906851614e-010 6.030133666273113e-009 9.982188160017813e-001 -5.933420291782141e-002 3.688719056881472e-004 6.205777761309154e-003
2.000000000000000e+007 6.616894752455810e-004 5.755536329569098e-003 9.934395636448729e-001 -1.142115114762025e-001 1.392009674574309e-009 1.197888860977533e-008 3.171329865381267e-011 1.214348205325067e-009
                       9.934395636448729e-001 -1.142115114762025e-001 6.616894752455810e-004 5.755536329569098e-003 3.171346518726637e-011 1.214348191447279e-009 1.392009674574309e-009 1.197888860977533e-008
                       1.392009674520099e-009 1.197888861020902e-008 3.171346518726637e-011 1.214348191447279e-009 1.470180057214223e-003 1.232369500167919e-002 9.928826967909872e-001 -1.184479443686480e-001
                       3.171329865381267e-011 1.214348205325067e-009 1.392009674520099e-009 1.197888861020902e-008 9.928826967909872e-001 -1.184479443686480e-001 1.470180057214223e-003 1.232369500167919e-002
3.000000000000000e+007 1.480643622639690e-003 8.538909064814155e-003 9.852600259207545e-001 -1.708437182019756e-001 3.113916402508465e-009 1.776607904454414e-008 7.668571333496743e-011 1.845305408476605e-009
                       9.852600259207545e-001 -1.708437182019756e-001 1.480643622639690e-003 8.538909064814155e-003 7.668565782381620e-011 1.845305408476605e-009 3.113916402508465e-009 1.776607904454414e-008
                       3.113916402725306e-009 1.776607904541150e-008 7.668565782381620e-011 1.845305408476605e-009 3.288085297013822e-003 1.826719500873538e-002 9.840138749324247e-001 -1.771219693376949e-001
                       7.668571333496743e-011 1.845305408476605e-009 3.113916402725306e-009 1.776607904541150e-008 9.840138749324247e-001 -1.771219693376949e-001 3.288085297013822e-003 1.826719500873538e-002
4.000000000000000e+007 2.612060948221477e-003 1.121040896013776e-002 9.738477920839159e-001 -2.269096333826030e-001 5.491081533914866e-009 2.331388149201530e-008 1.493854484557744e-010 2.503153698207861e-009
                       9.738477920839159e-001 -2.269096333826030e-001 2.612060948221477e-003 1.121040896013776e-002 1.493856149892281e-010 2.503153698207861e-009 5.491081533914866e-009 2.331388149201530e-008
                       5.491081533914866e-009 2.331388149028058e-008 1.493856149892281e-010 2.503153698207861e-009 5.796465771221545e-003 2.395230594984151e-002 9.716491870261464e-001 -2.351394168906458e-001
                       1.493854484557744e-010 2.503153698207861e-009 5.491081533914866e-009 2.331388149028058e-008 9.716491870261464e-001 -2.351394168906458e-001 5.796465771221545e-003 2.395230594984151e-002
5.000000000000000e+007 4.041067114125023e-003 1.373506041638551e-002 9.592417675189293e-001 -2.822237575738327e-001 8.490648240478543e-009 2.854796132215759e-008 2.590872516528009e-010 3.194171149800695e-009
                       9.592417675189293e-001 -2.822237575738327e-001 4.041067114125023e-003 1.373506041638551e-002 2.590874181862546e-010 3.194171177556271e-009 8.490648240478543e-009 2.854796132215759e-008
                       8.490648240044862e-009 2.854796132302495e-008 2.590874181862546e-010 3.194171177556271e-009 8.959326075800035e-003 2.929887705630595e-002 9.558397527851158e-001 -2.922869707585192e-001
                       2.590872516528009e-010 3.194171149800695e-009 8.490648240044862e-009 2.854796132302495e-008 9.558397527851158e-001 -2.922869707585192e-001 8.959326075800035e-003 2.929887705630595e-002
6.000000000000000e+007 5.748882751095003e-003 1.607983121008385e-002 9.414916711208734e-001 -3.366033609240853e-001 1.207128097436769e-008 3.339853109872448e-008 4.170665479641400e-010 3.922456665028662e-009
                       9.414916711208734e-001 -3.366033609240853e-001 5.748882751095003e-003 1.607983121008385e-002 4.170667144975937e-010 3.922456720539813e-009 1.207128097436769e-008 3.339853109872448e-008
                       1.207128097480137e-008 3.339853109698976e-008 4.170667144975937e-010 3.922456720539813e-009 1.273135833301881e-002 3.423174892123281e-002 9.366505367051419e-001 -3.483559558422321e-001
                       4.170665479641400e-010 3.922456665028662e-009 1.207128097480137e-008 3.339853109698976e-008 9.366505367051419e-001 -3.483559558422321e-001 1.273135833301881e-002 3.423174892123281e-002
7.000000000000000e+007 7.713075130378113e-003 1.821406760422743e-002 9.206578134129557e-001 -3.898691406292787e-001 1.618381756558762e-008 3.780132991348939e-008 6.361480786587492e-010 4.689531790669221e-009
                       9.206578134129557e-001 -3.898691406292787e-001 7.713075130378113e-003 1.821406760422743e-002 6.361481341699005e-010 4.689531707402495e-009 1.618381756558762e-008 3.780132991348939e-008
                       1.618381756558762e-008 3.780132991348939e-008 6.361481341699005e-010 4.689531707402495e-009 1.705864393931962e-002 3.868183857494646e-002 9.141598027908714e-001 -4.031433653091210e-001
                       6.361480786587492e-010 4.689531790669221e-009 1.618381756558762e-008 3.780132991348939e-008 9.141598027908714e-001 -4.031433653091210e-001 1.705864393931962e-002 3.868183857494646e-002
8.000000000000000e+007 9.907858240625393e-003 2.010989682520288e-002 8.968108305935825e-001 -4.418458560683880e-001 2.077203476065492e-008 4.169849694875272e-008 9.301822090357348e-010 5.494035504316486e-009
                       8.968108305935825e-001 -4.418458560683880e-001 9.907858240625393e-003 2.010989682520288e-002 9.301823200580373e-010 5.494035421049759e-009 2.077203476065492e-008 4.169849694875272e-008
                       2.077203476065492e-008 4.169849694701799e-008 9.301823200580373e-010 5.494035421049759e-009 2.187948215114934e-002 4.258712210834503e-002 8.884584751088964e-001 -4.564528051162523e-001
                       9.301822090357348e-010 5.494035504316486e-009 2.077203476065492e-008 4.169849694701799e-008 8.884584751088964e-001 -4.564528051162523e-001 2.187948215114934e-002 4.258712210834503e-002
9.000000000000000e+007 1.230443697327169e-002 2.174259153210815e-002 8.700313774433350e-001 -4.923629380937257e-001 2.577351171546838e-008 4.503933653116077e-008 1.313473829700484e-009 6.331517310442791e-009
                       8.700313774433350e-001 -4.923629380937257e-001 1.230443697327169e-002 2.174259153210815e-002 1.313473885211636e-009 6.331517310442791e-009 2.577351171546838e-008 4.503933653116077e-008
                       2.577351171546838e-008 4.503933653116077e-008 1.313473885211636e-009 6.331517310442791e-009 2.712532953600502e-002 4.589350007759242e-002 8.596494187817645e-001 -5.080953453205018e-001
                       1.313473829700484e-009 6.331517310442791e-009 2.577351171546838e-008 4.503933653116077e-008 8.596494187817645e-001 -5.080953453205018e-001 2.712532953600502e-002 4.589350007759242e-002
1.000000000000000e+008 1.487139052713849e-002 2.309089149042999e-002 8.404097823724797e-001 -5.412550694142291e-001 3.112057045569217e-008 4.778095753429912e-008 1.800180837729926e-009 7.194341400396098e-009
                       8.404097823724797e-001 -5.412550694142291e-001 1.487139052713849e-002 2.309089149042999e-002 1.800181004263379e-009 7.194341455907249e-009 3.112057045569217e-008 4.778095753429912e-008
                       3.112057045742689e-008 4.778095753429912e-008 1.800181004263379e-009 7.194341455907249e-009 3.272183266085797e-002 4.855553364546196e-002 8.278466573600736e-001 -5.578902703197698e-001
                       1.800180837729926e-009 7.194341400396098e-009 3.112057045742689e-008 4.778095753429912e-008 8.278466573600736e-001 -5.578902703197698e-001 3.272183266085797e-002 4.855553364546196e-002
1.100000000000000e+008 1.757508963496313e-002 2.413727831163554e-002 8.080456681592556e-001 -5.883627335148653e-001 3.674127730009247e-008 4.988878423220489e-008 2.403699572717244e-009 8.071699086897866e-009
                       8.080456681592556e-001 -5.883627335148653e-001 1.757508963496313e-002 2.413727831163554e-002 2.403699794761849e-009 8.071699086897866e-009 3.674127730009247e-008 4.988878423220489e-008
                       3.674127730182719e-008 4.988878422526599e-008 2.403699794761849e-009 8.071699086897866e-009 3.858993524501855e-002 5.053704229200286e-002 7.931745432828814e-001 -6.056657231032203e-001
                       2.403699572717244e-009 8.071699086897866e-009 3.674127730182719e-008 4.988878422526599e-008 7.931745432828814e-001 -6.056657231032203e-001 3.858993524501855e-002 5.053704229200286e-002
1.200000000000000e+008 2.038014179757434e-002 2.486819982039330e-002 7.730475421134792e-001 -6.335327300860665e-001 4.256048502689069e-008 5.133693112280291e-008 3.136062076691815e-009 8.949735730290342e-009
                       7.730475421134792e-001 -6.335327300860665e-001 2.038014179757434e-002 2.486819982039330e-002 3.136062243225268e-009 8.949735730290342e-009 4.256048502689069e-008 5.133693112280291e-008
                       4.256048502515597e-008 5.133693112974180e-008 3.136062243225268e-009 8.949735730290342e-009 4.464704037187992e-002 5.181155685662632e-002 7.557668983524277e-001 -6.512592415596634e-001
                       3.136062076691815e-009 8.949735730290342e-009 4.256048502515597e-008 5.133693112974180e-008 7.557668983524277e-001 -6.512592415596634e-001 4.464704037187992e-002 5.181155685662632e-002
1.300000000000000e+008 2.324985838955901e-002 2.527424134815709e-002 7.355323594968426e-001 -6.766186554789484e-001 4.850089424524029e-008 5.210844526010172e-008 4.007362830460437e-009 9.811784107416344e-009
                       7.355323594968426e-001 -6.766186554789484e-001 2.324985838955901e-002 2.527424134815709e-002 4.007362996993891e-009 9.811783940882890e-009 4.850089424524029e-008 5.210844526010172e-008
                       4.850089424177084e-008 5.210844526010172e-008 4.007362996993891e-009 9.811783940882890e-009 5.080820821434356e-002 5.236262455732360e-002 7.157661408235718e-001 -6.945181877949912e-001
                       4.007362830460437e-009 9.811784107416344e-009 4.850089424177084e-008 5.210844526010172e-008 7.157661408235718e-001 -6.945181877949912e-001 5.080820821434356e-002 5.236262455732360e-002
1.400000000000000e+008 2.614673727530371e-002 2.535024201196337e-002 6.956250640412677e-001 -7.174813472400272e-001 5.448411999516012e-008 5.219541537870853e-008 5.025231564204091e-009 1.063869398132411e-008
                       6.956250640412677e-001 -7.174813472400272e-001 2.614673727530371e-002 2.535024201196337e-002 5.025231619715243e-009 1.063869398132411e-008 5.448411999516012e-008 5.219541537870853e-008
                       5.448411999342540e-008 5.219541538564743e-008 5.025231619715243e-009 1.063869398132411e-008 5.698737004325069e-002 5.218396538277425e-002 6.733224148778418e-001 -7.353000741435740e-001
                       5.025231564204091e-009 1.063869398132411e-008 5.448411999342540e-008 5.219541538564743e-008 6.733224148778418e-001 -7.353000741435740e-001 5.698737004325069e-002 5.218396538277425e-002
1.500000000000000e+008 2.903295444595417e-002 2.509535480709196e-002 6.534581093328198e-001 -7.559892922987819e-001 6.043174399783524e-008 5.159895520405466e-008 6.194372681456173e-009 1.140925937059834e-008
                       6.534581093328198e-001 -7.559892922987819e-001 2.903295444595417e-002 2.509535480709196e-002 6.194372792478475e-009 1.140925937059834e-008 6.043174399783524e-008 5.159895520405466e-008
                       6.043174399783524e-008 5.159895519885049e-008 6.194372792478475e-009 1.140925937059834e-008 6.309854000222016e-002 5.127948179568423e-002 6.285927369702217e-001 -7.734727920390161e-001
                       6.194372681456173e-009 1.140925937059834e-008 6.043174399783524e-008 5.159895519885049e-008 6.285927369702217e-001 -7.734727920390161e-001 6.309854000222016e-002 5.127948179568423e-002
1.600000000000000e+008 3.187085815380707e-002 2.451305010908059e-002 6.091709646765805e-001 -7.920189988692721e-001 6.626633830553175e-008 5.032906393726000e-008 7.516179900690645e-009 1.210071309820648e-008
                       6.091709646765805e-001 -7.920189988692721e-001 3.187085815380707e-002 2.451305010908059e-002 7.516180067224099e-009 1.210071309820648e-008 6.626633830553175e-008 5.032906393726000e-008
                       6.626633830553175e-008 5.032906393726000e-008 7.516180067224099e-009 1.210071309820648e-008 6.905700717969496e-002 4.966312596350591e-002 5.817401718709105e-001 -8.089147520663165e-001
                       7.516179900690645e-009 1.210071309820648e-008 6.626633830553175e-008 5.032906393726000e-008 5.817401718709105e-001 -8.089147520663165e-001 6.905700717969496e-002 4.966312596350591e-002
1.700000000000000e+008 3.462345907698304e-002 2.361106293279574e-002 5.629096088351175e-001 -8.254553325709468e-001 7.191245071994090e-008 4.840437716965851e-008 8.988445154844982e-009 1.268929139541797e-008
                       5.629096088351175e-001 -8.254553325709468e-001 3.462345907698304e-002 2.361106293279574e-002 8.988445265867284e-009 1.268929139541797e-008 7.191245071994090e-008 4.840437716965851e-008
                       7.191245071647145e-008 4.840437717659740e-008 8.988445265867284e-009 1.268929139541797e-008 7.478049181647035e-002 4.735863070636204e-002 5.329330492504070e-001 -8.415149452968485e-001
                       8.988445154844982e-009 1.268929139541797e-008 7.191245071647145e-008 4.840437717659740e-008 5.329330492504070e-001 -8.415149452968485e-001 7.478049181647035e-002 4.735863070636204e-002
1.800000000000000e+008 3.725491018853992e-002 2.240128502343691e-002 5.148260147492667e-001 -8.561918176632610e-001 7.729753264892891e-008 4.585181277889927e-008 1.060516202633366e-008 1.315083725250688e-008
                       5.148260147492667e-001 -8.561918176632610e-001 3.725491018853992e-002 2.240128502343691e-002 1.060516219286711e-008 1.315083725250688e-008 7.729753264892891e-008 4.585181277889927e-008
                       7.729753265239836e-008 4.585181277716455e-008 1.060516219286711e-008 1.315083725250688e-008 8.019025097873736e-002 4.439911200043610e-002 4.823442294557386e-001 -8.711729373736754e-001
                       1.060516202633366e-008 1.315083725250688e-008 7.729753265239836e-008 4.585181277716455e-008 4.823442294557386e-001 -8.711729373736754e-001 8.019025097873736e-002 4.439911200043610e-002
1.900000000000000e+008 3.973097022394211e-002 2.089960354746617e-002 4.650776280158566e-001 -8.841309046152359e-001 8.235281017884844e-008 4.270612888671033e-008 1.235643945496356e-008 1.346143480018824e-008
                       4.650776280158566e-001 -8.841309046152359e-001 3.973097022394211e-002 2.089960354746617e-002 1.235643953823029e-008 1.346143485569940e-008 8.235281017884844e-008 4.270612888671033e-008
                       8.235281017537899e-008 4.270612888324088e-008 1.235643953823029e-008 1.346143485569940e-008 8.521212062858580e-002 4.082655219468022e-002 4.301504247808805e-001 -8.977988077485346e-001
                       1.235643945496356e-008 1.346143480018824e-008 8.235281017537899e-008 4.270612888324088e-008 4.301504247808805e-001 -8.977988077485346e-001 8.521212062858580e-002 4.082655219468022e-002
2.000000000000000e+008 4.201944493180432e-002 1.912568880298934e-002 4.138268415248562e-001 -9.091842054880757e-001 8.701408404920841e-008 3.900939458088837e-008 1.422851642063350e-008 1.359805307243889e-008
                       4.138268415248562e-001 -9.091842054880757e-001 4.201944493180432e-002 1.912568880298934e-002 1.422851650390022e-008 1.359805285039428e-008 8.701408404920841e-008 3.900939458088837e-008
                       8.701408406308619e-008 3.900939457915365e-008 1.422851650390022e-008 1.359805285039428e-008 8.977748266740918e-002 3.669117410161862e-002 3.765315801256678e-001 -9.213130469699227e-001
                       1.422851642063350e-008 1.359805307243889e-008 8.701408406308619e-008 3.900939457915365e-008 3.765315801256678e-001 -9.213130469699227e-001 8.977748266740918e-002 3.669117410161862e-002
2.100000000000000e+008 4.409060064729228e-002 1.710273397297645e-002 3.612404682610154e-001 -9.312726987922281e-001 9.122245947512653e-008 3.481039474034775e-008 1.620389095124963e-008 1.353917788993186e-008
                       3.612404682610154e-001 -9.312726987922281e-001 4.409060064729228e-002 1.710273397297645e-002 1.620389109002751e-008 1.353917788993186e-008 9.122245947512653e-008 3.481039474034775e-008
                       9.122245947512653e-008 3.481039474034775e-008 1.620389109002751e-008 1.353917788993186e-008 9.382414715254256e-002 3.205071683481971e-002 3.216703145401534e-001 -9.416464249945932e-001
                       1.620389095124963e-008 1.353917788993186e-008 9.122245947512653e-008 3.481039474034775e-008 3.216703145401534e-001 -9.416464249945932e-001 9.382414715254256e-002 3.205071683481971e-002
2.200000000000000e+008 4.591754513764243e-002 1.485715049631670e-002 3.074892138656377e-001 -9.503269055877252e-001 9.492499591576276e-008 3.016397236935836e-008 1.826154674700042e-008 1.326542198309966e-008
                       3.074892138656377e-001 -9.503269055877252e-001 4.591754513764243e-002 1.485715049631670e-002 1.826154685802273e-008 1.326542198309966e-008 9.492499591576276e-008 3.016397236935836e-008
                       9.492499591923220e-008 3.016397237196045e-008 1.826154685802273e-008 1.326542198309966e-008 9.729714144447681e-002 2.696962472239238e-002 2.657514228339464e-001 -9.587398431643416e-001
                       1.826154674700042e-008 1.326542198309966e-008 9.492499591923220e-008 3.016397237196045e-008 2.657514228339464e-001 -9.587398431643416e-001 9.729714144447681e-002 2.696962472239238e-002
2.300000000000000e+008 4.747657112717908e-002 1.241822312769361e-002 2.527471501457277e-001 -9.662870386285616e-001 9.807527995286947e-008 2.513031830894685e-008 2.037728089043789e-008 1.276008793071881e-008
                       2.527471501457277e-001 -9.662870386285616e-001 4.747657112717908e-002 1.241822312769361e-002 2.037728100146019e-008 1.276008776418536e-008 9.807527995286947e-008 2.513031830894685e-008
                       9.807527995286947e-008 2.513031831241630e-008 2.037728100146019e-008 1.276008776418536e-008 1.001493994941152e-001 2.151816087100124e-002 2.089614342528972e-001 -9.725441817874678e-001
                       2.037728089043789e-008 1.276008793071881e-008 9.807527995286947e-008 2.513031831241630e-008 2.089614342528972e-001 -9.725441817874678e-001 1.001493994941152e-001 2.151816087100124e-002
2.400000000000000e+008 4.874745840745762e-002 9.817729195515691e-003 1.971911903232073e-001 -9.791031263105838e-001 1.006339161446768e-007 1.977422019530661e-008 2.252412044378982e-008 1.200967464365377e-008
                       1.971911903232073e-001 -9.791031263105838e-001 4.874745840745762e-002 9.817729195515691e-003 2.252412055481212e-008 1.200967453263147e-008 1.006339161446768e-007 1.977422019530661e-008
                       1.006339161446768e-007 1.977422019704134e-008 2.252412055481212e-008 1.200967453263147e-008 1.023423458027339e-001 1.577145703596628e-002 1.514882232402008e-001 -9.830201542278110e-001
