! Touchstone generated by fitter/viewer 
# HZ S  RI R 5.000000e+001
! 
1.000000000000000e+007 2.737210555778802e-004 8.507061400412736e-003 9.994867733202888e-001 -3.012932938691092e-002 2.098922712691874e-004 6.173015980111356e-003 -1.367861529174856e-004 -2.792769252717740e-003
                       9.994867733202888e-001 -3.012932938691092e-002 2.737210555778802e-004 8.507061400412736e-003 -1.367861529176256e-004 -2.792769252717729e-003 2.098922712691874e-004 6.173015980111356e-003
                       2.098922712690480e-004 6.173015980111361e-003 -1.367861529176256e-004 -2.792769252717729e-003 2.737211068387646e-004 8.507061628307387e-003 9.994867731612710e-001 -3.012933459721165e-002
                       -1.367861529174856e-004 -2.792769252717740e-003 2.098922712690480e-004 6.173015980111361e-003 9.994867731612710e-001 -3.012933459721165e-002 2.737211068387646e-004 8.507061628307387e-003
2.000000000000000e+007 1.093323021395198e-003 1.697565347684367e-002 9.979486542111310e-001 -6.021251033584789e-002 8.382014564431211e-004 1.231456477953965e-002 -5.458997239016456e-004 -5.560566261964345e-003
                       9.979486542111310e-001 -6.021251033584789e-002 1.093323021395198e-003 1.697565347684367e-002 -5.458997239017892e-004 -5.560566261964333e-003 8.382014564431211e-004 1.231456477953965e-002
                       8.382014564430617e-004 1.231456477953965e-002 -5.458997239017892e-004 -5.560566261964333e-003 1.093323225835330e-003 1.697565392065100e-002 9.979486535756611e-001 -6.021252073914948e-002
                       -5.458997239016456e-004 -5.560566261964345e-003 8.382014564430617e-004 1.231456477953965e-002 9.979486535756611e-001 -6.021252073914948e-002 1.093323225835330e-003 1.697565392065100e-002
3.000000000000000e+007 2.454140371475178e-003 2.536761115286318e-002 9.953903074354310e-001 -9.020369337258748e-002 1.880842121880154e-003 1.839346177565944e-002 -1.223623590378299e-003 -8.278695978625477e-003
                       9.953903074354310e-001 -9.020369337258748e-002 2.454140371475178e-003 2.536761115286318e-002 -1.223623590378537e-003 -8.278695978625459e-003 1.880842121880154e-003 1.839346177565944e-002
                       1.880842121879946e-003 1.839346177565944e-002 -1.223623590378537e-003 -8.278695978625459e-003 2.454140829214802e-003 2.536761178874481e-002 9.953903060078619e-001 -9.020370893440724e-002
                       -1.223623590378299e-003 -8.278695978625477e-003 1.880842121879946e-003 1.839346177565944e-002 9.953903060078619e-001 -9.020370893440724e-002 2.454140829214802e-003 2.536761178874481e-002
4.000000000000000e+007 4.348457073473422e-003 3.364537278089212e-002 9.918194479198687e-001 -1.200576218744560e-001 3.331062976528551e-003 2.437908247110020e-002 -2.163820607396315e-003 -1.092301272474552e-002
                       9.918194479198687e-001 -1.200576218744560e-001 4.348457073473422e-003 3.364537278089212e-002 -2.163820607396530e-003 -1.092301272474550e-002 3.331062976528551e-003 2.437908247110020e-002
                       3.331062976528462e-003 2.437908247110019e-002 -2.163820607396530e-003 -1.092301272474550e-002 4.348457881657164e-003 3.364537357340267e-002 9.918194453875139e-001 -1.200576425433607e-001
                       -2.163820607396315e-003 -1.092301272474552e-002 3.331062976528462e-003 2.437908247110019e-002 9.918194453875139e-001 -1.200576425433607e-001 4.348457881657164e-003 3.364537357340267e-002
5.000000000000000e+007 6.765594929535546e-003 4.177226934026707e-002 9.872467526642487e-001 -1.497299159554614e-001 5.179532102511233e-003 3.024163022813599e-002 -3.358019277620064e-003 -1.347018248409536e-002
                       9.872467526642487e-001 -1.497299159554614e-001 6.765594929535546e-003 4.177226934026707e-002 -3.358019277620316e-003 -1.347018248409532e-002 5.179532102511233e-003 3.024163022813599e-002
                       5.179532102511078e-003 3.024163022813600e-002 -3.358019277620316e-003 -1.347018248409532e-002 6.765596181197764e-003 4.177227024272194e-002 9.872467487185124e-001 -1.497299416634100e-001
                       -3.358019277620064e-003 -1.347018248409536e-002 5.179532102511078e-003 3.024163022813600e-002 9.872467487185124e-001 -1.497299416634100e-001 6.765596181197764e-003 4.177227024272194e-002
6.000000000000000e+007 9.692034456286081e-003 4.971279902692623e-002 9.816857402138637e-001 -1.791773417137995e-001 7.414453497897937e-003 3.595238961943811e-002 -4.795530905113529e-003 -1.589793072886783e-002
                       9.816857402138637e-001 -1.791773417137995e-001 9.692034456286081e-003 4.971279902692623e-002 -4.795530905113701e-003 -1.589793072886779e-002 7.414453497897937e-003 3.595238961943811e-002
                       7.414453497897808e-003 3.595238961943811e-002 -4.795530905113701e-003 -1.589793072886779e-002 9.692036239262181e-003 4.971279998188442e-002 9.816857345513255e-001 -1.791773723765912e-001
                       -4.795530905113529e-003 -1.589793072886783e-002 7.414453497897808e-003 3.595238961943811e-002 9.816857345513255e-001 -1.791773723765912e-001 9.692036239262181e-003 4.971279998188442e-002
7.000000000000000e+007 1.311156562952531e-002 5.743288303097979e-002 9.751526203713857e-001 -2.083580616280651e-001 1.002171227430524e-002 4.148396126469427e-002 -6.463595571350716e-003 -1.818527162508472e-002
                       9.751526203713857e-001 -2.083580616280651e-001 1.311156562952531e-002 5.743288303097979e-002 -6.463595571350874e-003 -1.818527162508469e-002 1.002171227430524e-002 4.148396126469427e-002
                       1.002171227430518e-002 4.148396126469427e-002 -6.463595571350874e-003 -1.818527162508469e-002 1.311156802542535e-002 5.743288397083029e-002 9.751526126948263e-001 -2.083580971458837e-001
                       -6.463595571350716e-003 -1.818527162508472e-002 1.002171227430518e-002 4.148396126469427e-002 9.751526126948263e-001 -2.083580971458837e-001 1.311156802542535e-002 5.743288397083029e-002
8.000000000000000e+007 1.700546522318480e-002 6.490009883092257e-002 9.676661174214738e-001 -2.372318624208486e-001 1.298504526061851e-002 4.681047455368907e-002 -8.347553679290179e-003 -2.031271499024145e-002
                       9.676661174214738e-001 -2.372318624208486e-001 1.700546522318480e-002 6.490009883092257e-002 -8.347553679290310e-003 -2.031271499024141e-002 1.298504526061851e-002 4.681047455368907e-002
                       1.298504526061846e-002 4.681047455368905e-002 -8.347553679290310e-003 -2.031271499024141e-002 1.700546830644378e-002 6.490009967856887e-002 9.676661074408239e-001 -2.372319026788956e-001
                       -8.347553679290179e-003 -2.031271499024145e-002 1.298504526061846e-002 4.681047455368905e-002 9.676661074408239e-001 -2.372319026788956e-001 1.700546830644378e-002 6.490009967856887e-002
9.000000000000000e+007 2.135269698983322e-002 7.208388795407068e-002 9.592472706242191e-001 -2.657603573290236e-001 1.628623328642460e-002 5.190777527550430e-002 -1.043103933233947e-002 -2.226244799559910e-002
                       9.592472706242191e-001 -2.657603573290236e-001 2.135269698983322e-002 7.208388795407068e-002 -1.043103933233963e-002 -2.226244799559904e-002 1.628623328642460e-002 5.190777527550430e-002
                       1.628623328642456e-002 5.190777527550430e-002 -1.043103933233963e-002 -2.226244799559904e-002 2.135270082684393e-002 7.208388862369893e-002 9.592472580574316e-001 -2.657604021982266e-001
                       -1.043103933233947e-002 -2.226244799559910e-002 1.628623328642456e-002 5.190777527550430e-002 9.592472580574316e-001 -2.657604021982266e-001 2.135270082684393e-002 7.208388862369893e-002
1.000000000000000e+008 2.613013057422631e-002 7.895573583614304e-002 9.499192160900722e-001 -2.939071604031542e-001 1.990531106736988e-002 5.675358585478499e-002 -1.269619146231025e-002 -2.401848928660864e-002
                       9.499192160900722e-001 -2.939071604031542e-001 2.613013057422631e-002 7.895573583614304e-002 -1.269619146231033e-002 -2.401848928660858e-002 1.990531106736988e-002 5.675358585478499e-002
                       1.990531106736988e-002 5.675358585478497e-002 -1.269619146231033e-002 -2.401848928660858e-002 2.613013522255991e-002 7.895573623406579e-002 9.499192006639077e-001 -2.939072097409430e-001
                       -1.269619146231025e-002 -2.401848928660864e-002 1.990531106736988e-002 5.675358585478497e-002 9.499192006639077e-001 -2.939072097409430e-001 2.613013522255991e-002 7.895573623406579e-002
1.100000000000000e+008 3.131277482874517e-002 8.548932213156575e-002 9.397069543723210e-001 -3.216380311768500e-001 2.382079039621843e-002 6.132763661229544e-002 -1.512387840060269e-002 -2.556681391099164e-002
                       9.397069543723210e-001 -3.216380311768500e-001 3.131277482874517e-002 8.548932213156575e-002 -1.512387840060282e-002 -2.556681391099153e-002 2.382079039621843e-002 6.132763661229544e-002
                       2.382079039621834e-002 6.132763661229548e-002 -1.512387840060282e-002 -2.556681391099153e-002 3.131278033647333e-002 8.548932215712683e-002 9.397069358230338e-001 -3.216380848279830e-001
                       -1.512387840060269e-002 -2.556681391099164e-002 2.382079039621834e-002 6.132763661229548e-002 9.397069358230338e-001 -3.216380848279830e-001 3.131278033647333e-002 8.548932215712683e-002
1.200000000000000e+008 3.687402111053761e-002 9.166064055278196e-002 9.286371082030406e-001 -3.489209887733100e-001 2.800989225836671e-002 6.561176719104842e-002 -1.769393150035091e-002 -2.689544816779517e-002
                       9.286371082030406e-001 -3.489209887733100e-001 3.687402111053761e-002 9.166064055278196e-002 -1.769393150035106e-002 -2.689544816779512e-002 2.800989225836671e-002 6.561176719104842e-002
                       2.800989225836670e-002 6.561176719104837e-002 -1.769393150035106e-002 -2.689544816779512e-002 3.687402751565205e-002 9.166064009931185e-002 9.286370862769762e-001 -3.489210465707456e-001
                       -1.769393150035091e-002 -2.689544816779517e-002 2.800989225836670e-002 6.561176719104837e-002 9.286370862769762e-001 -3.489210465707456e-001 3.687402751565205e-002 9.166064009931185e-002
1.300000000000000e+008 4.278589217955320e-002 9.744808802579345e-002 9.167376747599840e-001 -3.757263952249361e-001 3.244878353375129e-002 6.958999799531095e-002 -2.038538345885705e-002 -2.799453419647804e-002
                       9.167376747599840e-001 -3.757263952249361e-001 4.278589217955320e-002 9.744808802579345e-002 -2.038538345885722e-002 -2.799453419647788e-002 3.244878353375129e-002 6.958999799531095e-002
                       3.244878353375118e-002 6.958999799531100e-002 -2.038538345885722e-002 -2.799453419647788e-002 4.278589950949296e-002 9.744808698159850e-002 9.167376492140680e-001 -3.757264569907260e-001
                       -2.038538345885705e-002 -2.799453419647804e-002 3.244878353375118e-002 6.958999799531100e-002 9.167376492140680e-001 -3.757264569907260e-001 4.278589950949296e-002 9.744808698159850e-002
1.400000000000000e+008 4.901929247422054e-002 1.028325236171104e-001 9.040377766952855e-001 -4.020270084494981e-001 3.711281410817134e-002 7.324857215458579e-002 -2.317670714905915e-002 -2.885636478957942e-002
                       9.040377766952855e-001 -4.020270084494981e-001 4.901929247422054e-002 1.028325236171104e-001 -2.317670714905926e-002 -2.885636478957940e-002 3.711281410817134e-002 7.324857215458579e-002
                       3.711281410817128e-002 7.324857215458570e-002 -2.317670714905926e-002 -2.885636478957940e-002 4.901930074549821e-002 1.028325218664896e-001 9.040377472974225e-001 -4.020270739957028e-001
                       -2.317670714905915e-002 -2.885636478957942e-002 3.711281410817128e-002 7.324857215458570e-002 9.040377472974225e-001 -4.020270739957028e-001 4.901930074549821e-002 1.028325218664896e-001
1.500000000000000e+008 5.554425580285172e-002 1.077972982945836e-001 8.905674158966010e-001 -4.277980059332854e-001 4.197675048167390e-002 7.657596912857892e-002 -2.604605103161290e-002 -2.947538951613163e-002
                       8.905674158966010e-001 -4.277980059332854e-001 5.554425580285172e-002 1.077972982945836e-001 -2.604605103161296e-002 -2.947538951613160e-002 4.197675048167390e-002 7.657596912857892e-002
                       4.197675048167385e-002 7.657596912857888e-002 -2.604605103161296e-002 -2.947538951613160e-002 5.554426502078758e-002 1.077972957188534e-001 8.905673824259689e-001 -4.277980750628854e-001
                       -2.604605103161290e-002 -2.947538951613163e-002 4.197675048167385e-002 7.657596912857888e-002 8.905673824259689e-001 -4.277980750628854e-001 5.554426502078758e-002 1.077972957188534e-001
1.600000000000000e+008 6.233018683658553e-002 1.123282571157906e-001 8.763572336047512e-001 -4.530169807024947e-001 4.701500231237336e-002 7.956289159679532e-002 -2.897146756799532e-002 -2.984819377029566e-002
                       8.763572336047512e-001 -4.530169807024947e-001 6.233018683658553e-002 1.123282571157906e-001 -2.897146756799545e-002 -2.984819377029555e-002 4.701500231237336e-002 7.956289159679532e-002
                       4.701500231237327e-002 7.956289159679529e-002 -2.897146756799545e-002 -2.984819377029555e-002 6.233019699514075e-002 1.123282535943147e-001 8.763571958520023e-001 -4.530170532103007e-001
                       -2.897146756799532e-002 -2.984819377029566e-002 4.701500231237327e-002 7.956289159679529e-002 8.763571958520023e-001 -4.530170532103007e-001 6.233019699514075e-002 1.123282535943147e-001
1.700000000000000e+008 6.934609320451202e-002 1.164137158818542e-001 8.614382800983819e-001 -4.776639116079369e-001 5.220183875162264e-002 8.220222771685078e-002 -3.193113147054188e-002 -2.997345279985103e-002
                       8.614382800983819e-001 -4.776639116079369e-001 6.934609320451202e-002 1.164137158818542e-001 -3.193113147054206e-002 -2.997345279985086e-002 5.220183875162264e-002 8.220222771685078e-002
                       5.220183875162250e-002 8.220222771685085e-002 -3.193113147054206e-002 -2.997345279985086e-002 6.934610428621679e-002 1.164137112930596e-001 8.614382378657591e-001 -4.776639872814769e-001
                       -3.193113147054188e-002 -2.997345279985103e-002 5.220183875162250e-002 8.220222771685085e-002 8.614382378657591e-001 -4.776639872814769e-001 6.934610428621679e-002 1.164137112930596e-001
1.800000000000000e+008 7.656080545350907e-002 1.200444146454588e-001 8.458417966956947e-001 -5.017211102986511e-001 5.751159189075768e-002 8.448899118261175e-002 -3.490354508745258e-002 -2.985186311590593e-002
                       8.458417966956947e-001 -5.017211102986511e-001 7.656080545350907e-002 1.200444146454588e-001 -3.490354508745275e-002 -2.985186311590588e-002 5.751159189075768e-002 8.448899118261175e-002
                       5.751159189075757e-002 8.448899118261168e-002 -3.490354508745275e-002 -2.985186311590588e-002 7.656081742948406e-002 1.200444088678368e-001 8.458417497970566e-001 -5.017211889190321e-001
                       -3.490354508745258e-002 -2.985186311590593e-002 5.751159189075757e-002 8.448899118261168e-002 8.458417497970566e-001 -5.017211889190321e-001 7.656081742948406e-002 1.200444088678368e-001
1.900000000000000e+008 8.394318262452560e-002 1.232134507175509e-001 8.295990123356172e-001 -5.251731475153579e-001 6.291884513095493e-002 8.642024176496529e-002 -3.786772870978141e-002 -2.948605393663147e-002
                       8.295990123356172e-001 -5.251731475153579e-001 8.394318262452560e-002 1.232134507175509e-001 -3.786772870978156e-002 -2.948605393663146e-002 6.291884513095493e-002 8.642024176496529e-002
                       6.291884513095482e-002 8.642024176496521e-002 -3.786772870978156e-002 -2.948605393663146e-002 8.394319545459239e-002 1.232134436306242e-001 8.295989605963873e-001 -5.251732288580873e-001
                       -3.786772870978141e-002 -2.948605393663147e-002 6.291884513095482e-002 8.642024176496521e-002 8.295989605963873e-001 -5.251732288580873e-001 8.394319545459239e-002 1.232134436306242e-001
2.000000000000000e+008 9.146230169501279e-002 1.259161939797168e-001 8.127409565045367e-001 -5.480067614968337e-001 6.839860478749579e-002 8.799498917645426e-002 -4.080339408465866e-002 -2.888048147603498e-002
                       8.127409565045367e-001 -5.480067614968337e-001 9.146230169501279e-002 1.259161939797168e-001 -4.080339408465871e-002 -2.888048147603482e-002 6.839860478749579e-002 8.799498917645426e-002
                       6.839860478749572e-002 8.799498917645425e-002 -4.080339408465871e-002 -2.888048147603482e-002 9.146231532787774e-002 1.259161854649781e-001 8.127408997615828e-001 -5.480068453326012e-001
                       -4.080339408465866e-002 -2.888048147603498e-002 6.839860478749572e-002 8.799498917645425e-002 8.127408997615828e-001 -5.480068453326012e-001 9.146231532787774e-002 1.259161854649781e-001
2.100000000000000e+008 9.908762962721041e-002 1.281501873839689e-001 7.952982897865544e-001 -5.702107513666963e-001 7.392645373125026e-002 8.921408317157989e-002 -4.369109990781591e-002 -2.804130895919883e-002
                       7.952982897865544e-001 -5.702107513666963e-001 9.908762962721041e-002 1.281501873839689e-001 -4.369109990781599e-002 -2.804130895919856e-002 7.392645373125026e-002 8.921408317157989e-002
                       7.392645373125013e-002 8.921408317157992e-002 -4.369109990781599e-002 -2.804130895919856e-002 9.908764400072656e-002 1.281501773257739e-001 7.952982278880044e-001 -5.702108374621036e-001
                       -4.369109990781591e-002 -2.804130895919883e-002 7.392645373125013e-002 8.921408317157992e-002 7.952982278880044e-001 -5.702108374621036e-001 9.908764400072656e-002 1.281501773257739e-001
2.200000000000000e+008 1.067891772298435e-001 1.299150355166519e-001 7.773011528494196e-001 -5.917758583627847e-001 7.947868633920305e-002 9.008009278537060e-002 -4.651238853458924e-002 -2.697627523611065e-002
                       7.773011528494196e-001 -5.917758583627847e-001 1.067891772298435e-001 1.299150355166519e-001 -4.651238853458954e-002 -2.697627523611040e-002 7.947868633920305e-002 9.008009278537060e-002
                       7.947868633920283e-002 9.008009278537067e-002 -4.651238853458954e-002 -2.697627523611040e-002 1.067891922713335e-001 1.299150238030690e-001 7.773010856544207e-001 -5.917759464810213e-001
                       -4.651238853458924e-002 -2.697627523611065e-002 7.947868633920283e-002 9.008009278537067e-002 7.773010856544207e-001 -5.917759464810213e-001 1.067891922713335e-001 1.299150238030690e-001
2.300000000000000e+008 1.145376344748501e-001 1.312122840284049e-001 7.587790342464542e-001 -6.126946376963034e-001 8.503242446080073e-002 9.059717753381763e-002 -4.924990358040923e-002 -2.569455478721073e-002
                       7.587790342464542e-001 -6.126946376963034e-001 1.145376344748501e-001 1.312122840284049e-001 -4.924990358040925e-002 -2.569455478721069e-002 8.503242446080073e-002 9.059717753381763e-002
                       8.503242446080064e-002 9.059717753381756e-002 -4.924990358040925e-002 -2.569455478721069e-002 1.145376501014886e-001 1.312122705520139e-001 7.587789616248901e-001 -6.126947275977650e-001
                       -4.924990358040923e-002 -2.569455478721073e-002 8.503242446080064e-002 9.059717753381756e-002 7.587789616248901e-001 -6.126947275977650e-001 1.145376501014886e-001 1.312122705520139e-001
2.400000000000000e+008 1.223044873023579e-001 1.320452925987152e-001 7.397606570256324e-001 -6.329613236943491e-001 9.056571449906224e-002 9.077095326219961e-002 -5.188748847059648e-002 -2.420661177631250e-002
                       7.397606570256324e-001 -6.329613236943491e-001 1.223044873023579e-001 1.320452925987152e-001 -5.188748847059656e-002 -2.420661177631231e-002 9.056571449906224e-002 9.077095326219961e-002
