[Version] 2.0
! Touchstone generated by fitter/viewer 
# HZ S  RI R 5.000000e+001
[Number of Ports] 4
[Number of Frequencies] 2000
[Mixed-Mode Order] D1,3 D2,4 C1,3 C2,4 
! 
[Network Data]
1.000000000000000e+007 6.382880993920457e-005 2.334045534248699e-003 9.996235593936960e-001 -2.733656273934351e-002 -2.563044221304267e-011 -1.139473253166518e-010 7.950889946428674e-011 2.605150357590236e-009
                       9.996235593936960e-001 -2.733656273934351e-002 6.382880993920457e-005 2.334045534248699e-003 7.950873293083305e-011 2.605150369733300e-009 -2.563044221304267e-011 -1.139473253166518e-010
                       -2.563044221304267e-011 -1.139473255334922e-010 7.950873293083305e-011 2.605150369733300e-009 4.836133524774395e-004 1.468007749447140e-002 9.993499870878609e-001 -3.292210124477897e-002
                       7.950889946428674e-011 2.605150357590236e-009 -2.563044221304267e-011 -1.139473255334922e-010 9.993499870878609e-001 -3.292210124477897e-002 4.836133524774395e-004 1.468007749447140e-002
2.000000000000000e+007 2.551216671721722e-004 4.661088919207678e-003 9.984945536172963e-001 -5.465194927553427e-002 -1.022200659078591e-010 -2.219036660151830e-010 3.177349494620785e-010 5.201650794123269e-009
                       9.984945536172963e-001 -5.465194927553427e-002 2.551216671721722e-004 4.661088919207678e-003 3.177347829286248e-010 5.201650797592716e-009 -1.022200659078591e-010 -2.219036660151830e-010
                       -1.022200660704895e-010 -2.219036673162256e-010 3.177347829286248e-010 5.201650797592716e-009 1.931524580058353e-003 2.929021847828694e-002 9.974027541694930e-001 -6.577308179946292e-002
                       3.177349494620785e-010 5.201650794123269e-009 -1.022200660704895e-010 -2.219036673162256e-010 9.974027541694930e-001 -6.577308179946292e-002 1.931524580058353e-003 2.929021847828694e-002
3.000000000000000e+007 5.732984784649391e-004 6.974149695144547e-003 9.966139303120234e-001 -8.192500517487178e-002 -2.288698118827967e-010 -3.179408156021857e-010 7.137845869920056e-010 7.780909881682785e-009
                       9.966139303120234e-001 -8.192500517487178e-002 5.732984784649391e-004 6.974149695144547e-003 7.137844204585520e-010 7.780909895560573e-009 -2.288698118827967e-010 -3.179408156021857e-010
                       -2.288698119912169e-010 -3.179408160358666e-010 7.137844204585520e-010 7.780909895560573e-009 4.334982722225034e-003 4.376107324646338e-002 9.941666831312666e-001 -9.848239713212270e-002
                       7.137845869920056e-010 7.780909881682785e-009 -2.288698119912169e-010 -3.179408160358666e-010 9.941666831312666e-001 -9.848239713212270e-002 4.334982722225034e-003 4.376107324646338e-002
4.000000000000000e+007 1.017394501036784e-003 9.266290706047179e-003 9.939832672610862e-001 -1.091346194841627e-001 -4.040918711841271e-010 -3.962552759875782e-010 1.266177551695336e-009 1.033445234249752e-008
                       9.939832672610862e-001 -1.091346194841627e-001 1.017394501036784e-003 9.266290706047179e-003 1.266177218628428e-009 1.033445236331421e-008 -4.040918711841271e-010 -3.962552759875782e-010
                       -4.040918710757069e-010 -3.962552785896634e-010 1.266177218628428e-009 1.033445236331421e-008 7.679520454093789e-003 5.802445564824751e-002 9.896556260462934e-001 -1.309806449336537e-001
                       1.266177551695336e-009 1.033445234249752e-008 -4.040918710757069e-010 -3.962552785896634e-010 9.896556260462934e-001 -1.309806449336537e-001 7.679520454093789e-003 5.802445564824751e-002
5.000000000000000e+007 1.586063452855497e-003 1.153063956335848e-002 9.906047699689993e-001 -1.362597463253402e-001 -6.258311090493948e-010 -4.512274338897004e-010 1.972868202138045e-009 1.285397427386315e-008
                       9.906047699689993e-001 -1.362597463253402e-001 1.586063452855497e-003 1.153063956335848e-002 1.972868035604591e-009 1.285397431549651e-008 -6.258311090493948e-010 -4.512274338897004e-010
                       -6.258311091578150e-010 -4.512274373591474e-010 1.972868035604591e-009 1.285397431549651e-008 1.194512765787779e-002 7.201390001963040e-002 9.838887314137590e-001 -1.632001112935308e-001
                       1.972868202138045e-009 1.285397427386315e-008 -6.258311091578150e-010 -4.512274373591474e-010 9.838887314137590e-001 -1.632001112935308e-001 1.194512765787779e-002 7.201390001963040e-002
6.000000000000000e+007 2.277581849876256e-003 1.376040988496719e-002 9.864812682877067e-001 -1.632794263163273e-001 -8.914880502645245e-010 -4.774790953246400e-010 2.831269163561245e-009 1.533139583342891e-008
                       9.864812682877067e-001 -1.632794263163273e-001 2.277581849876256e-003 1.376040988496719e-002 2.831268941516640e-009 1.533139587506227e-008 -8.914880502645245e-010 -4.774790953246400e-010
                       -8.914880517824075e-010 -4.774790979267252e-010 2.831268941516640e-009 1.533139587506227e-008 1.710648884567198e-002 8.566518912384331e-002 9.768902064774796e-001 -1.950752877740629e-001
                       2.831269163561245e-009 1.533139583342891e-008 -8.914880517824075e-010 -4.774790979267252e-010 9.768902064774796e-001 -1.950752877740629e-001 1.710648884567198e-002 8.566518912384331e-002
7.000000000000000e+007 3.089854553170113e-003 1.594892223621074e-002 9.816162121044554e-001 -1.901728077618894e-001 -1.197950019781249e-009 -4.699252480200311e-010 3.838279805101763e-009 1.775890925981294e-008
                       9.816162121044554e-001 -1.901728077618894e-001 3.089854553170113e-003 1.594892223621074e-002 3.838279638568309e-009 1.775890930144630e-008 -1.197950019781249e-009 -4.699252480200311e-010
                       -1.197950016962324e-009 -4.699252514894781e-010 3.838279638568309e-009 1.775890930144630e-008 2.313327910178051e-002 9.891684476559917e-002 9.686890209617540e-001 -2.265433510120588e-001
                       3.838279805101763e-009 1.775890925981294e-008 -1.197950016962324e-009 -4.699252514894781e-010 9.686890209617540e-001 -2.265433510120588e-001 2.313327910178051e-002 9.891684476559917e-002
8.000000000000000e+007 4.020421504195795e-003 1.808962470105664e-002 9.760136661104377e-001 -2.169191675596304e-001 -1.541629488996388e-009 -4.238231484515742e-010 4.990325042086852e-009 2.012902347581225e-008
                       9.760136661104377e-001 -2.169191675596304e-001 4.020421504195795e-003 1.808962470105664e-002 4.990324875553398e-009 2.012902350356782e-008 -1.541629488996388e-009 -4.238231484515742e-010
                       -1.541629488996388e-009 -4.238231432474038e-010 4.990324875553398e-009 2.012902350356782e-008 2.999051202543274e-002 1.117105738084346e-001 9.593185587518571e-001 -2.575445975401132e-001
                       4.990325042086852e-009 2.012902347581225e-008 -1.541629488996388e-009 -4.238231432474038e-010 9.593185587518571e-001 -2.575445975401132e-001 2.999051202543274e-002 1.117105738084346e-001
9.000000000000000e+007 5.066465621913988e-003 2.017611301338047e-002 9.696783036731635e-001 -2.434979317680257e-001 -1.918505354147476e-009 -3.348141208725508e-010 6.283393860773145e-009 2.243460146822418e-008
                       9.696783036731635e-001 -2.434979317680257e-001 5.066465621913988e-003 2.017611301338047e-002 6.283393638728541e-009 2.243460156536870e-008 -1.918505354147476e-009 -3.348141208725508e-010
                       -1.918505354581157e-009 -3.348141347503386e-010 6.283393638728541e-009 2.243460156536870e-008 3.763893219476310e-002 1.239916635643889e-001 9.488162250084844e-001 -2.880228277592238e-001
                       6.283393860773145e-009 2.243460146822418e-008 -1.918505354581157e-009 -3.348141347503386e-010 9.488162250084844e-001 -2.880228277592238e-001 3.763893219476310e-002 1.239916635643889e-001
1.000000000000000e+008 6.224821831023223e-003 2.220215018031942e-002 9.626153998392988e-001 -2.698886957854396e-001 -2.324166801289523e-009 -1.989613751529618e-010 7.713082339488864e-009 2.466889437169328e-008
                       9.626153998392988e-001 -2.698886957854396e-001 6.224821831023223e-003 2.220215018031942e-002 7.713082172955410e-009 2.466889439944886e-008 -2.324166801289523e-009 -1.989613751529618e-010
                       -2.324166799988481e-009 -1.989613751529618e-010 7.713082172955410e-009 2.466889439944886e-008 4.603544396576292e-002 1.357093218898892e-001 9.372230169146784e-001 -3.179256743586567e-001
                       7.713082339488864e-009 2.466889437169328e-008 -2.324166799988481e-009 -1.989613751529618e-010 9.372230169146784e-001 -3.179256743586567e-001 4.603544396576292e-002 1.357093218898892e-001
1.100000000000000e+008 7.491987186390847e-003 2.416168553205080e-002 9.548308234982789e-001 -2.960712440914245e-001 -2.753864080350110e-009 -1.278054224951308e-011 9.274643719692222e-009 2.682556643485157e-008
                       9.548308234982789e-001 -2.960712440914245e-001 7.491987186390847e-003 2.416168553205080e-002 9.274643553158768e-009 2.682556654587387e-008 -2.753864080350110e-009 -1.278054224951308e-011
                       -2.753864081217472e-009 -1.278052663700180e-011 9.274643553158768e-009 2.682556654587387e-008 5.513356797882756e-002 1.468169587566416e-001 9.245830666970734e-001 -3.472048719134076e-001
                       9.274643719692222e-009 2.682556643485157e-008 -2.753864081217472e-009 -1.278052663700180e-011 9.245830666970734e-001 -3.472048719134076e-001 5.513356797882756e-002 1.468169587566416e-001
1.200000000000000e+008 8.864132054728108e-003 2.604887313499847e-002 9.463310287403579e-001 -3.220255695042322e-001 -3.202557222886648e-009 2.267350508733390e-010 1.096303225978090e-008 2.889871775213493e-008
                       9.463310287403579e-001 -3.220255695042322e-001 8.864132054728108e-003 2.604887313499847e-002 1.096303209324745e-008 2.889871780764608e-008 -3.202557222886648e-009 2.267350508733390e-010
                       -3.202557226356095e-009 2.267350612816799e-010 1.096303209324745e-008 2.889871780764608e-008 6.488391657146145e-002 1.572724075170951e-001 9.109431657396561e-001 -3.758164658398224e-001
                       1.096303225978090e-008 2.889871775213493e-008 -3.202557226356095e-009 2.267350612816799e-010 9.109431657396561e-001 -3.758164658398224e-001 6.488391657146145e-002 1.572724075170951e-001
1.300000000000000e+008 1.033711231077183e-002 2.785808950838496e-002 9.371230454458819e-001 -3.477318919113526e-001 -3.664969880530500e-009 5.220974676894974e-010 1.277295819113178e-008 3.088289488029083e-008
                       9.371230454458819e-001 -3.477318919113526e-001 1.033711231077183e-002 2.785808950838496e-002 1.277295796908717e-008 3.088289507457986e-008 -3.664969880530500e-009 5.220974676894974e-010
                       -3.664969883132585e-009 5.220974624853270e-010 1.277295796908717e-008 3.088289507457986e-008 7.523467937827420e-002 1.670380854990067e-001 8.963522785281675e-001 -4.037209603043084e-001
                       1.277295819113178e-008 3.088289488029083e-008 -3.664969883132585e-009 5.220974624853270e-010 8.963522785281675e-001 -4.037209603043084e-001 7.523467937827420e-002 1.670380854990067e-001
1.400000000000000e+008 1.190648250168805e-002 2.958395058721420e-002 9.272144691454118e-001 -3.731706764330205e-001 -4.135638834862343e-009 8.753104040193360e-010 1.469893162742153e-008 3.277310234306441e-008
                       9.272144691454118e-001 -3.731706764330205e-001 1.190648250168805e-002 2.958395058721420e-002 1.469893146088808e-008 3.277310231530883e-008 -4.135638834862343e-009 8.753104040193360e-010
                       -4.135638838331790e-009 8.753104074887830e-010 1.469893146088808e-008 3.277310231530883e-008 8.613211071803056e-002 1.760810948963855e-001 8.808610548472935e-001 -4.308834060121792e-001
                       1.469893162742153e-008 3.277310234306441e-008 -4.135638838331790e-009 8.753104074887830e-010 8.808610548472935e-001 -4.308834060121792e-001 8.613211071803056e-002 1.760810948963855e-001
1.500000000000000e+008 1.356750993014575e-002 3.122132787813956e-002 9.166134501928966e-001 -3.983226509819532e-001 -4.608967930398722e-009 1.287865101021191e-009 1.673531607737644e-008 3.456480004992990e-008
                       9.166134501928966e-001 -3.983226509819532e-001 1.356750993014575e-002 3.122132787813956e-002 1.673531613288759e-008 3.456480004992990e-008 -4.608967930398722e-009 1.287865101021191e-009
                       -4.608967929531360e-009 1.287865106225361e-009 1.673531613288759e-008 3.456480004992990e-008 9.752101089349340e-002 1.843732661352971e-001 8.645213481296707e-001 -4.572734300142164e-001
                       1.673531607737644e-008 3.456480004992990e-008 -4.608967929531360e-009 1.287865106225361e-009 8.645213481296707e-001 -4.572734300142164e-001 9.752101089349340e-002 1.843732661352971e-001
1.600000000000000e+008 1.531518960348980e-002 3.276536375825730e-002 9.053286822963709e-001 -4.231688231861015e-001 -5.079277611355626e-009 1.760737951272962e-009 1.887637429698330e-008 3.625390290751263e-008
                       9.053286822963709e-001 -4.231688231861015e-001 1.531518960348980e-002 3.276536375825730e-002 1.887637435249445e-008 3.625390307404608e-008 -5.079277611355626e-009 1.760737951272962e-009
                       -5.079277616559796e-009 1.760737958211855e-009 1.887637435249445e-008 3.625390307404608e-008 1.093451942282363e-001 1.918911469518477e-001 8.473857471603802e-001 -4.828652107266926e-001
                       1.887637429698330e-008 3.625390290751263e-008 -5.079277616559796e-009 1.760737958211855e-009 8.473857471603802e-001 -4.828652107266926e-001 1.093451942282363e-001 1.918911469518477e-001
1.700000000000000e+008 1.714425999374181e-002 3.421148587060604e-002 8.933693904526112e-001 -4.476904966448553e-001 -5.540852386284878e-009 2.294397304092311e-009 2.111631136614278e-008 3.783676993940333e-008
                       8.933693904526112e-001 -4.476904966448553e-001 1.714425999374181e-002 3.421148587060604e-002 2.111631125512048e-008 3.783677005042563e-008 -5.540852386284878e-009 2.294397304092311e-009
                       -5.540852381080708e-009 2.294397311031204e-009 2.111631125512048e-008 3.783677005042563e-008 1.215479374969868e-001 1.986159413043075e-001 8.295071275115273e-001 -5.076374022445571e-001
                       2.111631136614278e-008 3.783676993940333e-008 -5.540852381080708e-009 2.294397311031204e-009 8.295071275115273e-001 -5.076374022445571e-001 1.215479374969868e-001 1.986159413043075e-001
1.800000000000000e+008 1.904921955073891e-002 3.555542057403603e-002 8.807453183338270e-001 -4.718692864929350e-001 -5.987987496472447e-009 2.888810995971269e-009 2.344931909759040e-008 3.931019046388151e-008
                       8.807453183338270e-001 -4.718692864929350e-001 1.904921955073891e-002 3.555542057403603e-002 2.344931893105695e-008 3.931019049163709e-008 -5.987987496472447e-009 2.888810995971269e-009
                       -5.987987494737723e-009 2.888810995971269e-009 2.344931893105695e-008 3.931019049163709e-008 1.340724033322540e-001 2.045334029392592e-001 8.109382281589219e-001 -5.315730127247467e-001
                       2.344931909759040e-008 3.931019046388151e-008 -5.987987494737723e-009 2.888810995971269e-009 8.109382281589219e-001 -5.315730127247467e-001 1.340724033322540e-001 2.045334029392592e-001
1.900000000000000e+008 2.102434390860409e-002 3.679320540912225e-002 8.674667151757824e-001 -4.956871342500905e-001 -6.415033396850456e-009 3.543463352601028e-009 2.586961506123586e-008 4.067136463725696e-008
                       8.674667151757824e-001 -4.956871342500905e-001 2.102434390860409e-002 3.679320540912225e-002 2.586961489470241e-008 4.067136460950138e-008 -6.415033396850456e-009 3.543463352601028e-009
                       -6.415033393381009e-009 3.543463342192688e-009 2.586961489470241e-008 4.067136460950138e-008 1.468620341705137e-001 2.096336889390525e-001 7.917312577562197e-001 -5.546592421233533e-001
                       2.586961506123586e-008 4.067136463725696e-008 -6.415033393381009e-009 3.543463342192688e-009 7.917312577562197e-001 -5.546592421233533e-001 1.468620341705137e-001 2.096336889390525e-001
2.000000000000000e+008 2.306370372394947e-002 3.792120054589313e-002 8.535443222177173e-001 -5.191263219386819e-001 -6.816432470552192e-009 4.257369349419671e-009 2.837147700107678e-008 4.191788366414428e-008
                       8.535443222177173e-001 -5.191263219386819e-001 2.306370372394947e-002 3.792120054589313e-002 2.837147683454333e-008 4.191788383067774e-008 -6.816432470552192e-009 4.257369349419671e-009
                       -6.816432460143851e-009 4.257369332072436e-009 2.837147683454333e-008 4.191788383067774e-008 1.598609132989408e-001 2.139111788988014e-001 7.719375340484000e-001 -5.768872848907516e-001
                       2.837147700107678e-008 4.191788366414428e-008 -6.816432460143851e-009 4.257369332072436e-009 7.719375340484000e-001 -5.768872848907516e-001 1.598609132989408e-001 2.139111788988014e-001
2.100000000000000e+008 2.516118308271825e-002 3.893609918329145e-002 8.389893587450941e-001 -5.421694854552005e-001 -7.186758079272271e-009 5.029097496084267e-009 3.094927508717760e-008 4.304770351293286e-008
                       8.389893587450941e-001 -5.421694854552005e-001 2.516118308271825e-002 3.893609918329145e-002 3.094927492064414e-008 4.304770373497746e-008 -7.186758079272271e-009 5.029097496084267e-009
                       -7.186758077537547e-009 5.029097499553714e-009 3.094927492064414e-008 4.304770373497746e-008 1.730140905452184e-001 2.173642655264510e-001 7.516071589294624e-001 -5.982521033735978e-001
                       3.094927508717760e-008 4.304770351293286e-008 -7.186758077537547e-009 5.029097499553714e-009 7.516071589294624e-001 -5.982521033735978e-001 1.730140905452184e-001 2.173642655264510e-001
2.200000000000000e+008 2.731049841138553e-002 3.983493687448977e-002 8.238135077865083e-001 -5.647996271857916e-001 -7.520745005928919e-009 5.856791458064281e-009 3.359749956022284e-008 4.405911818716746e-008
                       8.238135077865083e-001 -5.647996271857916e-001 2.731049841138553e-002 3.983493687448977e-002 3.359749928266709e-008 4.405911840921206e-008 -7.520745005928919e-009 5.856791458064281e-009
                       -7.520745012867813e-009 5.856791468472622e-009 3.359749928266709e-008 4.405911840921206e-008 1.862678710897912e-001 2.199951224452308e-001 7.307887307173295e-001 -6.187521776580127e-001
                       3.359749956022284e-008 4.405911818716746e-008 -7.520745012867813e-009 5.856791468472622e-009 7.307887307173295e-001 -6.187521776580127e-001 1.862678710897912e-001 2.199951224452308e-001
2.300000000000000e+008 2.950521782736862e-002 4.061509975639176e-002 8.080289015160802e-001 -5.870001278598227e-001 -7.813319245070227e-009 6.738195498096067e-009 3.631078204779925e-008 4.495073074872735e-008
                       8.080289015160802e-001 -5.870001278598227e-001 2.950521782736862e-002 4.061509975639176e-002 3.631078199228810e-008 4.495073085974966e-008 -7.813319245070227e-009 6.738195498096067e-009
                       -7.813319241600780e-009 6.738195501565514e-009 3.631078199228810e-008 4.495073085974966e-008 1.995700667489697e-001 2.218094548240267e-001 7.095290943552619e-001 -6.383892374342439e-001
                       3.631078204779925e-008 4.495073074872735e-008 -7.813319241600780e-009 6.738195501565514e-009 7.095290943552619e-001 -6.383892374342439e-001 1.995700667489697e-001 2.218094548240267e-001
2.400000000000000e+008 3.173878086291927e-002 4.127433166583414e-002 7.916481064123089e-001 -6.087547576394564e-001 -8.059623652495462e-009 7.670681399091217e-009 3.908391893459040e-008 4.572142053849149e-008
                       7.916481064123089e-001 -6.087547576394564e-001 3.173878086291927e-002 4.127433166583414e-002 3.908391887907925e-008 4.572142070502494e-008 -8.059623652495462e-009 7.670681399091217e-009
