! Touchstone generated by fitter/viewer 
# HZ S  RI R 5.000000e+001
! 
1.000000000000000e+007 1.093323021395198e-003 1.697565347684363e-002 9.979486542111310e-001 -6.021251033584785e-002 8.382014564431212e-004 1.231456477953965e-002 -5.458997239016459e-004 -5.560566261964343e-003
                       9.979486542111310e-001 -6.021251033584785e-002 1.093323021395198e-003 1.697565347684363e-002 -5.458997239017892e-004 -5.560566261964340e-003 8.382014564431212e-004 1.231456477953965e-002
                       8.382014564430622e-004 1.231456477953964e-002 -5.458997239017892e-004 -5.560566261964340e-003 1.093323225835330e-003 1.697565392065101e-002 9.979486535756611e-001 -6.021252073914948e-002
                       -5.458997239016459e-004 -5.560566261964343e-003 8.382014564430622e-004 1.231456477953964e-002 9.979486535756611e-001 -6.021252073914948e-002 1.093323225835330e-003 1.697565392065101e-002
2.000000000000000e+007 4.348457073473311e-003 3.364537278089209e-002 9.918194479198689e-001 -1.200576218744560e-001 3.331062976528552e-003 2.437908247110020e-002 -2.163820607396289e-003 -1.092301272474554e-002
                       9.918194479198689e-001 -1.200576218744560e-001 4.348457073473311e-003 3.364537278089209e-002 -2.163820607396530e-003 -1.092301272474551e-002 3.331062976528552e-003 2.437908247110020e-002
                       3.331062976528425e-003 2.437908247110019e-002 -2.163820607396530e-003 -1.092301272474551e-002 4.348457881657053e-003 3.364537357340267e-002 9.918194453875141e-001 -1.200576425433607e-001
                       -2.163820607396289e-003 -1.092301272474554e-002 3.331062976528425e-003 2.437908247110019e-002 9.918194453875141e-001 -1.200576425433607e-001 4.348457881657053e-003 3.364537357340267e-002
3.000000000000000e+007 9.692034456286081e-003 4.971279902692626e-002 9.816857402138637e-001 -1.791773417137995e-001 7.414453497897910e-003 3.595238961943812e-002 -4.795530905113533e-003 -1.589793072886781e-002
                       9.816857402138637e-001 -1.791773417137995e-001 9.692034456286081e-003 4.971279902692626e-002 -4.795530905113673e-003 -1.589793072886778e-002 7.414453497897910e-003 3.595238961943812e-002
                       7.414453497897821e-003 3.595238961943811e-002 -4.795530905113673e-003 -1.589793072886778e-002 9.692036239262070e-003 4.971279998188446e-002 9.816857345513257e-001 -1.791773723765912e-001
                       -4.795530905113533e-003 -1.589793072886781e-002 7.414453497897821e-003 3.595238961943811e-002 9.816857345513257e-001 -1.791773723765912e-001 9.692036239262070e-003 4.971279998188446e-002
4.000000000000000e+007 1.700546522318458e-002 6.490009883092261e-002 9.676661174214740e-001 -2.372318624208487e-001 1.298504526061848e-002 4.681047455368907e-002 -8.347553679290147e-003 -2.031271499024148e-002
                       9.676661174214740e-001 -2.372318624208487e-001 1.700546522318458e-002 6.490009883092261e-002 -8.347553679290257e-003 -2.031271499024144e-002 1.298504526061848e-002 4.681047455368907e-002
                       1.298504526061848e-002 4.681047455368907e-002 -8.347553679290257e-003 -2.031271499024144e-002 1.700546830644378e-002 6.490009967856887e-002 9.676661074408239e-001 -2.372319026788956e-001
                       -8.347553679290147e-003 -2.031271499024148e-002 1.298504526061848e-002 4.681047455368907e-002 9.676661074408239e-001 -2.372319026788956e-001 1.700546830644378e-002 6.490009967856887e-002
5.000000000000000e+007 2.613013057422642e-002 7.895573583614279e-002 9.499192160900722e-001 -2.939071604031540e-001 1.990531106736989e-002 5.675358585478497e-002 -1.269619146231028e-002 -2.401848928660856e-002
                       9.499192160900722e-001 -2.939071604031540e-001 2.613013057422642e-002 7.895573583614279e-002 -1.269619146231034e-002 -2.401848928660857e-002 1.990531106736989e-002 5.675358585478497e-002
                       1.990531106736991e-002 5.675358585478488e-002 -1.269619146231034e-002 -2.401848928660857e-002 2.613013522256014e-002 7.895573623406574e-002 9.499192006639076e-001 -2.939072097409428e-001
                       -1.269619146231028e-002 -2.401848928660856e-002 1.990531106736991e-002 5.675358585478488e-002 9.499192006639076e-001 -2.939072097409428e-001 2.613013522256014e-002 7.895573623406574e-002
6.000000000000000e+007 3.687402111053750e-002 9.166064055278191e-002 9.286371082030410e-001 -3.489209887733098e-001 2.800989225836675e-002 6.561176719104836e-002 -1.769393150035082e-002 -2.689544816779517e-002
                       9.286371082030410e-001 -3.489209887733098e-001 3.687402111053750e-002 9.166064055278191e-002 -1.769393150035111e-002 -2.689544816779504e-002 2.800989225836675e-002 6.561176719104836e-002
                       2.800989225836661e-002 6.561176719104837e-002 -1.769393150035111e-002 -2.689544816779504e-002 3.687402751565239e-002 9.166064009931185e-002 9.286370862769759e-001 -3.489210465707456e-001
                       -1.769393150035082e-002 -2.689544816779517e-002 2.800989225836661e-002 6.561176719104837e-002 9.286370862769759e-001 -3.489210465707456e-001 3.687402751565239e-002 9.166064009931185e-002
7.000000000000000e+007 4.901929247422077e-002 1.028325236171104e-001 9.040377766952855e-001 -4.020270084494981e-001 3.711281410817138e-002 7.324857215458576e-002 -2.317670714905919e-002 -2.885636478957935e-002
                       9.040377766952855e-001 -4.020270084494981e-001 4.901929247422077e-002 1.028325236171104e-001 -2.317670714905930e-002 -2.885636478957935e-002 3.711281410817138e-002 7.324857215458576e-002
                       3.711281410817132e-002 7.324857215458569e-002 -2.317670714905930e-002 -2.885636478957935e-002 4.901930074549821e-002 1.028325218664897e-001 9.040377472974225e-001 -4.020270739957028e-001
                       -2.317670714905919e-002 -2.885636478957935e-002 3.711281410817132e-002 7.324857215458569e-002 9.040377472974225e-001 -4.020270739957028e-001 4.901930074549821e-002 1.028325218664897e-001
8.000000000000000e+007 6.233018683658553e-002 1.123282571157910e-001 8.763572336047512e-001 -4.530169807024949e-001 4.701500231237341e-002 7.956289159679530e-002 -2.897146756799535e-002 -2.984819377029572e-002
                       8.763572336047512e-001 -4.530169807024949e-001 6.233018683658553e-002 1.123282571157910e-001 -2.897146756799555e-002 -2.984819377029554e-002 4.701500231237341e-002 7.956289159679530e-002
                       4.701500231237324e-002 7.956289159679532e-002 -2.897146756799555e-002 -2.984819377029554e-002 6.233019699514075e-002 1.123282535943146e-001 8.763571958520025e-001 -4.530170532103006e-001
                       -2.897146756799535e-002 -2.984819377029572e-002 4.701500231237324e-002 7.956289159679532e-002 8.763571958520025e-001 -4.530170532103006e-001 6.233019699514075e-002 1.123282535943146e-001
9.000000000000000e+007 7.656080545350896e-002 1.200444146454586e-001 8.458417966956947e-001 -5.017211102986509e-001 5.751159189075760e-002 8.448899118261173e-002 -3.490354508745262e-002 -2.985186311590600e-002
                       8.458417966956947e-001 -5.017211102986509e-001 7.656080545350896e-002 1.200444146454586e-001 -3.490354508745274e-002 -2.985186311590591e-002 5.751159189075760e-002 8.448899118261173e-002
                       5.751159189075755e-002 8.448899118261168e-002 -3.490354508745274e-002 -2.985186311590591e-002 7.656081742948395e-002 1.200444088678367e-001 8.458417497970572e-001 -5.017211889190320e-001
                       -3.490354508745262e-002 -2.985186311590600e-002 5.751159189075755e-002 8.448899118261168e-002 8.458417497970572e-001 -5.017211889190320e-001 7.656081742948395e-002 1.200444088678367e-001
1.000000000000000e+008 9.146230169501257e-002 1.259161939797170e-001 8.127409565045369e-001 -5.480067614968336e-001 6.839860478749575e-002 8.799498917645429e-002 -4.080339408465859e-002 -2.888048147603503e-002
                       8.127409565045369e-001 -5.480067614968336e-001 9.146230169501257e-002 1.259161939797170e-001 -4.080339408465866e-002 -2.888048147603486e-002 6.839860478749575e-002 8.799498917645429e-002
                       6.839860478749568e-002 8.799498917645428e-002 -4.080339408465866e-002 -2.888048147603486e-002 9.146231532787785e-002 1.259161854649780e-001 8.127408997615828e-001 -5.480068453326010e-001
                       -4.080339408465859e-002 -2.888048147603503e-002 6.839860478749568e-002 8.799498917645428e-002 8.127408997615828e-001 -5.480068453326010e-001 9.146231532787785e-002 1.259161854649780e-001
1.100000000000000e+008 1.067891772298436e-001 1.299150355166518e-001 7.773011528494196e-001 -5.917758583627845e-001 7.947868633920301e-002 9.008009278537062e-002 -4.651238853458924e-002 -2.697627523611061e-002
                       7.773011528494196e-001 -5.917758583627845e-001 1.067891772298436e-001 1.299150355166518e-001 -4.651238853458949e-002 -2.697627523611041e-002 7.947868633920301e-002 9.008009278537062e-002
                       7.947868633920287e-002 9.008009278537067e-002 -4.651238853458949e-002 -2.697627523611041e-002 1.067891922713335e-001 1.299150238030690e-001 7.773010856544207e-001 -5.917759464810213e-001
                       -4.651238853458924e-002 -2.697627523611061e-002 7.947868633920287e-002 9.008009278537067e-002 7.773010856544207e-001 -5.917759464810213e-001 1.067891922713335e-001 1.299150238030690e-001
1.200000000000000e+008 1.223044873023577e-001 1.320452925987151e-001 7.397606570256330e-001 -6.329613236943488e-001 9.056571449906224e-002 9.077095326219963e-002 -5.188748847059638e-002 -2.420661177631252e-002
                       7.397606570256330e-001 -6.329613236943488e-001 1.223044873023577e-001 1.320452925987151e-001 -5.188748847059654e-002 -2.420661177631228e-002 9.056571449906224e-002 9.077095326219963e-002
                       9.056571449906217e-002 9.077095326219968e-002 -5.188748847059654e-002 -2.420661177631228e-002 1.223045034216052e-001 1.320452772573523e-001 7.397605788577947e-001 -6.329614151371901e-001
                       -5.188748847059638e-002 -2.420661177631252e-002 9.056571449906217e-002 9.077095326219968e-002 7.397605788577947e-001 -6.329614151371901e-001 1.223045034216052e-001 1.320452772573523e-001
1.300000000000000e+008 1.377838778563464e-001 1.323403109975325e-001 7.003456396168848e-001 -6.715229119816960e-001 1.014882128260474e-001 9.011750010483981e-002 -5.680470196362121e-002 -2.065946534248495e-002
                       7.003456396168848e-001 -6.715229119816960e-001 1.377838778563464e-001 1.323403109975325e-001 -5.680470196362136e-002 -2.065946534248485e-002 1.014882128260474e-001 9.011750010483981e-002
                       1.014882128260473e-001 9.011750010483971e-002 -5.680470196362136e-002 -2.065946534248485e-002 1.377838946467408e-001 1.323402916441813e-001 7.003455500372184e-001 -6.715230057752232e-001
                       -5.680470196362121e-002 -2.065946534248495e-002 1.014882128260473e-001 9.011750010483971e-002 7.003455500372184e-001 -6.715230057752232e-001 1.377838946467408e-001 1.323402916441813e-001
1.400000000000000e+008 1.530184759694498e-001 1.308582436543776e-001 6.592674057713654e-001 -7.074427605893403e-001 1.120915971068039e-001 8.818858241813085e-002 -6.116136722493563e-002 -1.643864973800697e-002
                       6.592674057713654e-001 -7.074427605893403e-001 1.530184759694498e-001 1.308582436543776e-001 -6.116136722493564e-002 -1.643864973800685e-002 1.120915971068039e-001 8.818858241813085e-002
                       1.120915971068039e-001 8.818858241813080e-002 -6.116136722493564e-002 -1.643864973800685e-002 1.530184929567607e-001 1.308582199597748e-001 6.592673044167130e-001 -7.074428557504954e-001
                       -6.116136722493563e-002 -1.643864973800697e-002 1.120915971068039e-001 8.818858241813080e-002 6.592673044167130e-001 -7.074428557504954e-001 1.530184929567607e-001 1.308582199597748e-001
1.500000000000000e+008 1.678167293678199e-001 1.276778744237526e-001 6.167207062323007e-001 -7.407209310237328e-001 1.222393597871644e-001 8.506769211730805e-002 -6.487735275376672e-002 -1.165908876837941e-002
                       6.167207062323007e-001 -7.407209310237328e-001 1.678167293678199e-001 1.276778744237526e-001 -6.487735275376678e-002 -1.165908876837922e-002 1.222393597871644e-001 8.506769211730805e-002
                       1.222393597871643e-001 8.506769211730803e-002 -6.487735275376678e-002 -1.165908876837922e-002 1.678167460191743e-001 1.276778461220902e-001 6.167205928089872e-001 -7.407210265652676e-001
                       -6.487735275376672e-002 -1.165908876837941e-002 1.222393597871643e-001 8.506769211730803e-002 6.167205928089872e-001 -7.407210265652676e-001 1.678167460191743e-001 1.276778461220902e-001
1.600000000000000e+008 1.820053392387008e-001 1.228946620085554e-001 5.728829848465156e-001 -7.713711496947397e-001 1.318133447072355e-001 8.084898009322741e-002 -6.789532062933233e-002 -6.442332030170807e-003
                       5.728829848465156e-001 -7.713711496947397e-001 1.820053392387008e-001 1.228946620085554e-001 -6.789532062933232e-002 -6.442332030170624e-003 1.318133447072355e-001 8.084898009322741e-002
                       1.318133447072354e-001 8.084898009322737e-002 -6.789532062933232e-002 -6.442332030170624e-003 1.820053549720556e-001 1.228946289043657e-001 5.728828591240522e-001 -7.713712446283145e-001
                       -6.789532062933233e-002 -6.442332030170807e-003 1.318133447072354e-001 8.084898009322737e-002 5.728828591240522e-001 -7.713712446283145e-001 1.820053549720556e-001 1.228946289043657e-001
1.700000000000000e+008 1.954294553144322e-001 1.166171515670911e-001 5.279143995510653e-001 -7.994168940935679e-001 1.407132891390764e-001 7.563371181364505e-002 -7.018022125349642e-002 -9.124593566116197e-004
                       5.279143995510653e-001 -7.994168940935679e-001 1.954294553144322e-001 1.166171515670911e-001 -7.018022125349654e-002 -9.124593566113730e-004 1.407132891390764e-001 7.563371181364505e-002
                       1.407132891390763e-001 7.563371181364503e-002 -7.018022125349654e-002 -9.124593566113730e-004 1.954294695082766e-001 1.166171135406664e-001 5.279142613562503e-001 -7.994169874311701e-001
                       -7.018022125349642e-002 -9.124593566116197e-004 1.407132891390763e-001 7.563371181364503e-002 5.279142613562503e-001 -7.994169874311701e-001 1.954294695082766e-001 1.166171135406664e-001
1.800000000000000e+008 2.079523076160477e-001 1.089638431024816e-001 4.819584496196527e-001 -8.248879123268162e-001 1.488558151870598e-001 6.952724960325407e-002 -7.171819144244876e-002 4.807541435450174e-003
                       4.819584496196527e-001 -8.248879123268162e-001 2.079523076160477e-001 1.089638431024816e-001 -7.171819144244884e-002 4.807541435450428e-003 1.488558151870598e-001 6.952724960325407e-002
                       1.488558151870597e-001 6.952724960325409e-002 -7.171819144244884e-002 4.807541435450428e-003 2.079523196191229e-001 1.089638001139964e-001 4.819582988313613e-001 -8.248880030807193e-001
                       -7.171819144244876e-002 4.807541435450174e-003 1.488558151870597e-001 6.952724960325409e-002 4.819582988313613e-001 -8.248880030807193e-001 2.079523196191229e-001 1.089638001139964e-001
1.900000000000000e+008 2.194544405480652e-001 1.000605565628988e-001 4.351430520164266e-001 -8.478172153725694e-001 1.561730434762141e-001 6.263659888686973e-002 -7.251501698590737e-002 1.059888798817693e-002
                       4.351430520164266e-001 -8.478172153725694e-001 2.194544405480652e-001 1.000605565628988e-001 -7.251501698590739e-002 1.059888798817719e-002 1.561730434762141e-001 6.263659888686973e-002
                       1.561730434762140e-001 6.263659888686977e-002 -7.251501698590739e-002 1.059888798817719e-002 2.194544496889850e-001 1.000605086554351e-001 4.351428885613006e-001 -8.478173025540685e-001
                       -7.251501698590737e-002 1.059888798817693e-002 1.561730434762140e-001 6.263659888686977e-002 4.351428885613006e-001 -8.478173025540685e-001 2.194544496889850e-001 1.000605086554351e-001
2.000000000000000e+008 2.298326973507869e-001 9.003829516803746e-002 3.875819289339492e-001 -8.682385439122645e-001 1.626109838642867e-001 5.506851658236858e-002 -7.259430078395199e-002 1.634961046754402e-002
                       3.875819289339492e-001 -8.682385439122645e-001 2.298326973507869e-001 9.003829516803746e-002 -7.259430078395204e-002 1.634961046754437e-002 1.626109838642867e-001 5.506851658236858e-002
                       1.626109838642866e-001 5.506851658236860e-002 -7.259430078395204e-002 1.634961046754437e-002 2.298327029474874e-001 9.003824246968765e-002 3.875817527831533e-001 -8.682386265294320e-001
                       -7.259430078395199e-002 1.634961046754402e-002 1.626109838642866e-001 5.506851658236860e-002 3.875817527831533e-001 -8.682386265294320e-001 2.298327029474874e-001 9.003824246968765e-002
2.100000000000000e+008 2.389990806418837e-001 7.903158072193331e-002 3.393761925752649e-001 -8.861842851166136e-001 1.681278350865394e-001 4.692815148339016e-002 -7.199545286740618e-002 2.195668144967793e-002
                       3.393761925752649e-001 -8.861842851166136e-001 2.389990806418837e-001 7.903158072193331e-002 -7.199545286740626e-002 2.195668144967807e-002 1.681278350865394e-001 4.692815148339016e-002
                       1.681278350865392e-001 4.692815148339008e-002 -7.199545286740626e-002 2.195668144967807e-002 2.389990820108952e-001 7.903152344714540e-002 3.393760037424242e-001 -8.861843621713230e-001
                       -7.199545286740618e-002 2.195668144967793e-002 1.681278350865392e-001 4.692815148339008e-002 3.393760037424242e-001 -8.861843621713230e-001 2.389990820108952e-001 7.903152344714540e-002
2.200000000000000e+008 2.468795913061425e-001 6.717721637419256e-002 2.906160385587787e-001 -9.016837982285109e-001 1.726923011863125e-001 3.831816767442094e-002 -7.077159244904555e-002 2.732771451499243e-002
                       2.906160385587787e-001 -9.016837982285109e-001 2.468795913061425e-001 6.717721637419256e-002 -7.077159244904557e-002 2.732771451499265e-002 1.726923011863125e-001 3.831816767442094e-002
                       1.726923011863123e-001 3.831816767442094e-002 -7.077159244904557e-002 2.732771451499265e-002 2.468795877717211e-001 6.717715482448924e-002 2.906158370991680e-001 -9.016838687129571e-001
                       -7.077159244904555e-002 2.732771451499243e-002 1.726923011863123e-001 3.831816767442094e-002 2.906158370991680e-001 -9.016838687129571e-001 2.468795877717211e-001 6.717715482448924e-002
2.300000000000000e+008 2.534131256622675e-001 5.461342168513752e-002 2.413824835856062e-001 -9.147620995464271e-001 1.762820096555986e-001 2.933829100253544e-002 -6.898742705554498e-002 3.238228568936992e-002
                       2.413824835856062e-001 -9.147620995464271e-001 2.534131256622675e-001 5.461342168513752e-002 -6.898742705554492e-002 3.238228568937004e-002 1.762820096555986e-001 2.933829100253544e-002
                       1.762820096555985e-001 2.933829100253537e-002 -6.898742705554492e-002 3.238228568937004e-002 2.534131165654490e-001 5.461335624930776e-002 2.413822695966454e-001 -9.147621624393780e-001
                       -6.898742705554498e-002 3.238228568936992e-002 1.762820096555985e-001 2.933829100253537e-002 2.413822695966454e-001 -9.147621624393780e-001 2.534131165654490e-001 5.461335624930776e-002
2.400000000000000e+008 2.585504910496900e-001 4.147928000036363e-002 1.917491047241820e-001 -9.254388556722576e-001 1.788820958223932e-001 2.008521344893413e-002 -6.671715126300321e-002 3.705293349197859e-002
                       1.917491047241820e-001 -9.254388556722576e-001 2.585504910496900e-001 4.147928000036363e-002 -6.671715126300314e-002 3.705293349197881e-002 1.788820958223932e-001 2.008521344893413e-002
                       1.788820958223930e-001 2.008521344893405e-002 -6.671715126300314e-002 3.705293349197881e-002 2.585504757573575e-001 4.147921115417460e-002 1.917488783472578e-001 -9.254389099352413e-001
