[Version] 2.0
! Touchstone generated by fitter/viewer 
# HZ S  RI R 5.000000e+001
[Number of Ports] 4
[Number of Frequencies] 2000
[Mixed-Mode Order] D1,3 D2,4 C1,3 C2,4 
! 
[Network Data]
1.000000000000000e+007 2.551216671721721e-004 4.661088919207666e-003 9.984945536172963e-001 -5.465194927553425e-002 -1.022200659078591e-010 -2.219036903013116e-010 3.177349494620785e-010 5.201650808001057e-009
                       9.984945536172963e-001 -5.465194927553425e-002 2.551216671721721e-004 4.661088919207666e-003 3.177347829286248e-010 5.201650818409398e-009 -1.022200659078591e-010 -2.219036903013116e-010
                       -1.022200659620692e-010 -2.219036916023542e-010 3.177347829286248e-010 5.201650818409398e-009 1.931524580058353e-003 2.929021847828693e-002 9.974027541694930e-001 -6.577308179946291e-002
                       3.177349494620785e-010 5.201650808001057e-009 -1.022200659620692e-010 -2.219036916023542e-010 9.974027541694930e-001 -6.577308179946291e-002 1.931524580058353e-003 2.929021847828693e-002
2.000000000000000e+007 1.017394501036692e-003 9.266290706047163e-003 9.939832672610864e-001 -1.091346194841627e-001 -4.040918711841271e-010 -3.962552924674512e-010 1.266177551695336e-009 1.033445232861974e-008
                       9.939832672610864e-001 -1.091346194841627e-001 1.017394501036692e-003 9.266290706047163e-003 1.266177274139579e-009 1.033445237719199e-008 -4.040918711841271e-010 -3.962552924674512e-010
                       -4.040918710757069e-010 -3.962552924674512e-010 1.266177274139579e-009 1.033445237719199e-008 7.679520454093659e-003 5.802445564824750e-002 9.896556260462937e-001 -1.309806449336537e-001
                       1.266177551695336e-009 1.033445232861974e-008 -4.040918710757069e-010 -3.962552924674512e-010 9.896556260462937e-001 -1.309806449336537e-001 7.679520454093659e-003 5.802445564824750e-002
3.000000000000000e+007 2.277581849876207e-003 1.376040988496723e-002 9.864812682877069e-001 -1.632794263163273e-001 -8.914879943196924e-010 -4.774791005288104e-010 2.831269052538943e-009 1.533139583342891e-008
                       9.864812682877069e-001 -1.632794263163273e-001 2.277581849876207e-003 1.376040988496723e-002 2.831268886005489e-009 1.533139584730670e-008 -8.914879943196924e-010 -4.774791005288104e-010
                       -8.914879962712563e-010 -4.774791048656191e-010 2.831268886005489e-009 1.533139584730670e-008 1.710648884567192e-002 8.566518912384336e-002 9.768902064774797e-001 -1.950752877740629e-001
                       2.831269052538943e-009 1.533139583342891e-008 -8.914879962712563e-010 -4.774791048656191e-010 9.768902064774797e-001 -1.950752877740629e-001 1.710648884567192e-002 8.566518912384336e-002
4.000000000000000e+007 4.020421504195692e-003 1.808962470105664e-002 9.760136661104377e-001 -2.169191675596304e-001 -1.541629599151329e-009 -4.238231276348925e-010 4.990325042086852e-009 2.012902343417888e-008
                       9.760136661104377e-001 -2.169191675596304e-001 4.020421504195692e-003 1.808962470105664e-002 4.990325042086852e-009 2.012902347581225e-008 -1.541629599151329e-009 -4.238231276348925e-010
                       -1.541629598283967e-009 -4.238231363085099e-010 4.990325042086852e-009 2.012902347581225e-008 2.999051202543262e-002 1.117105738084347e-001 9.593185587518573e-001 -2.575445975401133e-001
                       4.990325042086852e-009 2.012902343417888e-008 -1.541629598283967e-009 -4.238231363085099e-010 9.593185587518573e-001 -2.575445975401133e-001 2.999051202543262e-002 1.117105738084347e-001
5.000000000000000e+007 6.224821831023372e-003 2.220215018031932e-002 9.626153998392988e-001 -2.698886957854395e-001 -2.324166857668036e-009 -1.989614688280295e-010 7.713082339488864e-009 2.466889439944886e-008
                       9.626153998392988e-001 -2.698886957854395e-001 6.224821831023372e-003 2.220215018031932e-002 7.713082339488864e-009 2.466889439944886e-008 -2.324166857668036e-009 -1.989614688280295e-010
                       -2.324166855499632e-009 -1.989614722974764e-010 7.713082339488864e-009 2.466889439944886e-008 4.603544396576312e-002 1.357093218898890e-001 9.372230169146782e-001 -3.179256743586565e-001
                       7.713082339488864e-009 2.466889439944886e-008 -2.324166855499632e-009 -1.989614722974764e-010 9.372230169146782e-001 -3.179256743586565e-001 4.603544396576312e-002 1.357093218898890e-001
6.000000000000000e+007 8.864132054728253e-003 2.604887313499849e-002 9.463310287403581e-001 -3.220255695042321e-001 -3.202557445798615e-009 2.267350300566573e-010 1.096303264835896e-008 2.889871780764608e-008
                       9.463310287403581e-001 -3.220255695042321e-001 8.864132054728253e-003 2.604887313499849e-002 1.096303237080321e-008 2.889871797417953e-008 -3.202557445798615e-009 2.267350300566573e-010
                       -3.202557448400700e-009 2.267350335261043e-010 1.096303237080321e-008 2.889871797417953e-008 6.488391657146153e-002 1.572724075170950e-001 9.109431657396562e-001 -3.758164658398223e-001
                       1.096303264835896e-008 2.889871780764608e-008 -3.202557448400700e-009 2.267350335261043e-010 9.109431657396562e-001 -3.758164658398223e-001 6.488391657146153e-002 1.572724075170950e-001
7.000000000000000e+007 1.190648250168812e-002 2.958395058721428e-002 9.272144691454118e-001 -3.731706764330206e-001 -4.135638716901147e-009 8.753103537123552e-010 1.469893162742153e-008 3.277310231530883e-008
                       9.272144691454118e-001 -3.731706764330206e-001 1.190648250168812e-002 2.958395058721428e-002 1.469893146088808e-008 3.277310234306441e-008 -4.135638716901147e-009 8.753103537123552e-010
                       -4.135638713431700e-009 8.753103519776317e-010 1.469893146088808e-008 3.277310234306441e-008 8.613211071803073e-002 1.760810948963855e-001 8.808610548472935e-001 -4.308834060121792e-001
                       1.469893162742153e-008 3.277310231530883e-008 -4.135638713431700e-009 8.753103519776317e-010 8.808610548472935e-001 -4.308834060121792e-001 8.613211071803073e-002 1.760810948963855e-001
8.000000000000000e+007 1.531518960348980e-002 3.276536375825745e-002 9.053286822963709e-001 -4.231688231861016e-001 -5.079277611355626e-009 1.760738197603695e-009 1.887637440800560e-008 3.625390276873475e-008
                       9.053286822963709e-001 -4.231688231861016e-001 1.531518960348980e-002 3.276536375825745e-002 1.887637424147215e-008 3.625390290751263e-008 -5.079277611355626e-009 1.760738197603695e-009
                       -5.079277616559796e-009 1.760738194134248e-009 1.887637424147215e-008 3.625390290751263e-008 1.093451942282363e-001 1.918911469518478e-001 8.473857471603801e-001 -4.828652107266928e-001
                       1.887637440800560e-008 3.625390276873475e-008 -5.079277616559796e-009 1.760738194134248e-009 8.473857471603801e-001 -4.828652107266928e-001 1.093451942282363e-001 1.918911469518478e-001
9.000000000000000e+007 1.904921955073886e-002 3.555542057403589e-002 8.807453183338274e-001 -4.718692864929348e-001 -5.987987496472447e-009 2.888810943929565e-009 2.344931876452350e-008 3.931019049163709e-008
                       8.807453183338274e-001 -4.718692864929348e-001 1.904921955073886e-002 3.555542057403589e-002 2.344931876452350e-008 3.931019060265939e-008 -5.987987496472447e-009 2.888810943929565e-009
                       -5.987987494737723e-009 2.888810940460118e-009 2.344931876452350e-008 3.931019060265939e-008 1.340724033322538e-001 2.045334029392591e-001 8.109382281589221e-001 -5.315730127247467e-001
                       2.344931876452350e-008 3.931019049163709e-008 -5.987987494737723e-009 2.888810940460118e-009 8.109382281589221e-001 -5.315730127247467e-001 1.340724033322538e-001 2.045334029392591e-001
1.000000000000000e+008 2.306370372394947e-002 3.792120054589315e-002 8.535443222177173e-001 -5.191263219386817e-001 -6.816432637085645e-009 4.257369505544784e-009 2.837147700107678e-008 4.191788366414428e-008
                       8.535443222177173e-001 -5.191263219386817e-001 2.306370372394947e-002 3.792120054589315e-002 2.837147694556563e-008 4.191788383067774e-008 -6.816432637085645e-009 4.257369505544784e-009
                       -6.816432640555092e-009 4.257369498605890e-009 2.837147694556563e-008 4.191788383067774e-008 1.598609132989407e-001 2.139111788988015e-001 7.719375340484002e-001 -5.768872848907515e-001
                       2.837147700107678e-008 4.191788366414428e-008 -6.816432640555092e-009 4.257369498605890e-009 7.719375340484002e-001 -5.768872848907515e-001 1.598609132989407e-001 2.139111788988015e-001
1.100000000000000e+008 2.731049841138557e-002 3.983493687448969e-002 8.238135077865083e-001 -5.647996271857916e-001 -7.520744957356662e-009 5.856791399083683e-009 3.359749956022284e-008 4.405911829818976e-008
                       8.238135077865083e-001 -5.647996271857916e-001 2.731049841138557e-002 3.983493687448969e-002 3.359749928266709e-008 4.405911852023436e-008 -7.520744957356662e-009 5.856791399083683e-009
                       -7.520744957356662e-009 5.856791412961471e-009 3.359749928266709e-008 4.405911852023436e-008 1.862678710897913e-001 2.199951224452307e-001 7.307887307173295e-001 -6.187521776580125e-001
                       3.359749956022284e-008 4.405911829818976e-008 -7.520744957356662e-009 5.856791412961471e-009 7.307887307173295e-001 -6.187521776580125e-001 1.862678710897913e-001 2.199951224452307e-001
1.200000000000000e+008 3.173878086291922e-002 4.127433166583399e-002 7.916481064123091e-001 -6.087547576394562e-001 -8.059623749639977e-009 7.670681409499558e-009 3.908391926765731e-008 4.572142053849149e-008
                       7.916481064123091e-001 -6.087547576394562e-001 3.173878086291922e-002 4.127433166583399e-002 3.908391910112385e-008 4.572142076053609e-008 -8.059623749639977e-009 7.670681409499558e-009
                       -8.059623760048318e-009 7.670681395621770e-009 3.908391910112385e-008 4.572142076053609e-008 2.128702098610433e-001 2.228162381902331e-001 6.878731294711163e-001 -6.571679811920809e-001
                       3.908391926765731e-008 4.572142053849149e-008 -8.059623760048318e-009 7.670681395621770e-009 6.878731294711163e-001 -6.571679811920809e-001 2.128702098610433e-001 2.228162381902331e-001
1.300000000000000e+008 3.629567342549614e-002 4.222280121601707e-002 7.571502967906718e-001 -6.508634935359737e-001 -8.395197186733538e-009 9.676675603170759e-009 4.478983323119579e-008 4.689676358360373e-008
                       7.571502967906718e-001 -6.508634935359737e-001 3.629567342549614e-002 4.222280121601707e-002 4.478983312017348e-008 4.689676363911488e-008 -8.395197186733538e-009 9.676675603170759e-009
                       -8.395197190202985e-009 9.676675613579100e-009 4.478983312017348e-008 4.689676363911488e-008 2.392720990775907e-001 2.224578014256963e-001 6.435408928634294e-001 -6.921824242209436e-001
                       4.478983323119579e-008 4.689676358360373e-008 -8.395197190202985e-009 9.676675613579100e-009 6.435408928634294e-001 -6.921824242209436e-001 2.392720990775907e-001 2.224578014256963e-001
1.400000000000000e+008 4.092688735630131e-002 4.266964938894532e-002 7.204287223189738e-001 -6.910041584319099e-001 -8.493655445640513e-009 1.184730139339174e-008 5.067732627983546e-008 4.758057747800137e-008
                       7.204287223189738e-001 -6.910041584319099e-001 4.092688735630131e-002 4.266964938894532e-002 5.067732622432430e-008 4.758057764453483e-008 -8.493655445640513e-009 1.184730139339174e-008
                       -8.493655445640513e-009 1.184730138992229e-008 5.067732622432430e-008 4.758057764453483e-008 2.651100815699088e-001 2.190468142252067e-001 5.981059878691027e-001 -7.238814579079238e-001
                       5.067732627983546e-008 4.758057747800137e-008 -8.493655445640513e-009 1.184730138992229e-008 5.981059878691027e-001 -7.238814579079238e-001 2.651100815699088e-001 2.190468142252067e-001
1.500000000000000e+008 4.557737790633264e-002 4.261016815561330e-002 6.815980022744097e-001 -7.290618900261200e-001 -8.325677182396962e-009 1.415083119779559e-008 5.671165681508938e-008 4.777076734185926e-008
                       6.815980022744097e-001 -7.290618900261200e-001 4.557737790633264e-002 4.261016815561330e-002 5.671165670406708e-008 4.777076750839271e-008 -8.325677182396962e-009 1.415083119779559e-008
                       -8.325677203213644e-009 1.415083121514282e-008 5.671165670406708e-008 4.777076750839271e-008 2.900560974806611e-001 2.127455523902291e-001 5.518432967668764e-001 -7.523800675628785e-001
                       5.671165681508938e-008 4.777076734185926e-008 -8.325677203213644e-009 1.415083121514282e-008 5.518432967668764e-001 -7.523800675628785e-001 2.900560974806611e-001 2.127455523902291e-001
1.600000000000000e+008 5.019200239814273e-002 4.204566536323311e-002 6.407782426146154e-001 -7.649288651313553e-001 -7.866677420587109e-009 1.655209484752174e-008 6.286123160892387e-008 4.746678727851617e-008
                       6.407782426146154e-001 -7.649288651313553e-001 5.019200239814273e-002 4.204566536323311e-002 6.286123166443502e-008 4.746678744504962e-008 -7.866677420587109e-009 1.655209484752174e-008
                       -7.866677420587109e-009 1.655209483364395e-008 6.286123166443502e-008 4.746678744504962e-008 3.138186918126132e-001 2.037436255496876e-001 5.049876013559509e-001 -7.778135291916968e-001
                       6.286123160892387e-008 4.746678727851617e-008 -7.866677420587109e-009 1.655209483364395e-008 5.049876013559509e-001 -7.778135291916968e-001 3.138186918126132e-001 2.037436255496876e-001
1.700000000000000e+008 5.471617327227792e-002 4.098342074023366e-002 5.980945517071534e-001 -7.985044814057565e-001 -7.096922206156764e-009 1.901321234482056e-008 6.909740751792626e-008 4.666880099035708e-008
                       5.980945517071534e-001 -7.985044814057565e-001 5.471617327227792e-002 4.098342074023366e-002 6.909740746241511e-008 4.666880132342399e-008 -7.096922206156764e-009 1.901321234482056e-008
                       -7.096922188809529e-009 1.901321233788167e-008 6.909740746241511e-008 4.666880132342399e-008 3.361427515504304e-001 1.922508443675235e-001 4.577341092001607e-001 -8.003294001189794e-001
                       6.909740751792626e-008 4.666880099035708e-008 -7.096922188809529e-009 1.901321233788167e-008 4.577341092001607e-001 -8.003294001189794e-001 3.361427515504304e-001 1.922508443675235e-001
1.800000000000000e+008 5.909649843052542e-002 3.943657200498487e-002 5.536765656679550e-001 -8.296954991392169e-001 -6.001537607158713e-009 2.149424259412225e-008 7.539414570434389e-008 4.537695147410759e-008
                       5.536765656679550e-001 -8.296954991392169e-001 5.909649843052542e-002 3.943657200498487e-002 7.539414567658831e-008 4.537695164064104e-008 -6.001537607158713e-009 2.149424259412225e-008
                       -6.001537627975395e-009 2.149424259412225e-008 7.539414567658831e-008 4.537695164064104e-008 3.568081288046445e-001 1.784910712114928e-001 4.102401827830576e-001 -8.200804162683163e-001
                       7.539414570434389e-008 4.537695147410759e-008 -6.001537627975395e-009 2.149424259412225e-008 4.102401827830576e-001 -8.200804162683163e-001 3.568081288046445e-001 1.784910712114928e-001
1.900000000000000e+008 6.328140164231091e-002 3.742393372229715e-002 5.076579872747702e-001 -8.584161469514948e-001 -4.570459892494494e-009 2.395373185568039e-008 8.172756299495987e-008 4.359074950999187e-008
                       5.076579872747702e-001 -8.584161469514948e-001 6.328140164231091e-002 3.742393372229715e-002 8.172756299495987e-008 4.359074967652532e-008 -4.570459892494494e-009 2.395373185568039e-008
                       -4.570459899433388e-009 2.395373185914984e-008 8.172756299495987e-008 4.359074967652532e-008 3.756274885947387e-001 1.626971314960365e-001 3.626279533029557e-001 -8.372183709751406e-001
                       8.172756299495987e-008 4.359074950999187e-008 -4.570459899433388e-009 2.395373185914984e-008 3.626279533029557e-001 -8.372183709751406e-001 3.756274885947387e-001 1.626971314960365e-001
2.000000000000000e+008 6.722171628485033e-002 3.496975223649390e-002 4.601761416425027e-001 -8.845881956883912e-001 -2.798350239030523e-009 2.634917490446087e-008 8.807539797484054e-008 4.130858349826738e-008
                       4.601761416425027e-001 -8.845881956883912e-001 6.722171628485033e-002 3.496975223649390e-002 8.807539789157381e-008 4.130858383133429e-008 -2.798350239030523e-009 2.634917490446087e-008
                       -2.798350245969417e-009 2.634917489752198e-008 8.807539789157381e-008 4.130858383133429e-008 3.924436840134233e-001 1.451067854012310e-001 3.149875400745988e-001 -8.518889747533029e-001
                       8.807539797484054e-008 4.130858349826738e-008 -2.798350245969417e-009 2.634917489752198e-008 3.149875400745988e-001 -8.518889747533029e-001 3.924436840134233e-001 1.451067854012310e-001
2.100000000000000e+008 7.087124623985006e-002 3.210340060114918e-002 4.113715510262502e-001 -9.081410050936450e-001 -6.845057506921215e-010 2.863739395619902e-008 9.441642040419751e-008 3.852735463993895e-008
                       4.113715510262502e-001 -9.081410050936450e-001 7.087124623985006e-002 3.210340060114918e-002 9.441642029317521e-008 3.852735475096125e-008 -6.845057506921215e-010 2.863739395619902e-008
                       -6.845057576310154e-010 2.863739395619902e-008 9.441642029317521e-008 3.852735475096125e-008 4.071269164129282e-001 1.259597035679293e-001 2.673806452914380e-001 -8.642276421942891e-001
                       9.441642040419751e-008 3.852735463993895e-008 -6.845057576310154e-010 2.863739395619902e-008 2.673806452914380e-001 -8.642276421942891e-001 4.071269164129282e-001 1.259597035679293e-001
2.200000000000000e+008 7.418728835261929e-002 2.885901792491992e-002 3.613875302780184e-001 -9.290115479857253e-001 1.767210718039980e-009 3.077485166008698e-008 1.007298053856687e-007 3.524222302875302e-008
                       3.613875302780184e-001 -9.290115479857253e-001 7.418728835261929e-002 2.885901792491992e-002 1.007298053440353e-007 3.524222330630877e-008 1.767210718039980e-009 3.077485166008698e-008
                       1.767210711101086e-009 3.077485166008698e-008 1.007298053440353e-007 3.524222330630877e-008 4.195718907252436e-001 1.054953532737617e-001 2.198443453799275e-001 -8.743561189557403e-001
                       1.007298053856687e-007 3.524222302875302e-008 1.767210711101086e-009 3.077485166008698e-008 2.198443453799275e-001 -8.743561189557403e-001 4.195718907252436e-001 1.054953532737617e-001
2.300000000000000e+008 7.713111145825963e-002 2.527509796468720e-002 3.103698036466703e-001 -9.471444166822711e-001 4.548409225646477e-009 3.271791488082543e-008 1.069944803588907e-007 3.144647553465774e-008
                       3.103698036466703e-001 -9.471444166822711e-001 7.713111145825963e-002 2.527509796468720e-002 1.069944804282796e-007 3.144647553465774e-008 4.548409225646477e-009 3.271791488082543e-008
                       4.548409204829795e-009 3.271791487735598e-008 1.069944804282796e-007 3.144647553465774e-008 4.296951307694562e-001 8.395167996975793e-002 1.723949495355806e-001 -8.823798453035313e-001
                       1.069944803588907e-007 3.144647553465774e-008 4.548409204829795e-009 3.271791487735598e-008 1.723949495355806e-001 -8.823798453035313e-001 4.296951307694562e-001 8.395167996975793e-002
2.400000000000000e+008 7.966838758113054e-002 2.139403212833500e-002 2.584661427987227e-001 -9.624918162957268e-001 7.646166234887009e-009 3.442309451720527e-008 1.131884620753088e-007 2.713149166444495e-008
                       2.584661427987227e-001 -9.624918162957268e-001 7.966838758113054e-002 2.139403212833500e-002 1.131884621446977e-007 2.713149199751186e-008 7.646166234887009e-009 3.442309451720527e-008
