! Touchstone generated by fitter/viewer 
# HZ S  RI R 5.000000e+001
! 
1.000000000000000e+007 2.310175401513126e-004 7.562759808160370e-003 9.995226227237375e-001 -2.970018367492486e-002 1.159925181076417e-004 3.437579000218348e-003 -8.034335110471235e-005 -1.827618509320590e-003
                       9.995226227237375e-001 -2.970018367492486e-002 2.310175401513126e-004 7.562759808160370e-003 -8.034335110465532e-005 -1.827618509320596e-003 1.159925181076417e-004 3.437579000218348e-003
                       1.159925181076446e-004 3.437579000218341e-003 -8.034335110465532e-005 -1.827618509320596e-003 2.310176510159634e-004 7.562761094747699e-003 9.995226224289989e-001 -2.970019326551332e-002
                       -8.034335110471235e-005 -1.827618509320590e-003 1.159925181076446e-004 3.437579000218341e-003 9.995226224289989e-001 -2.970019326551332e-002 2.310176510159634e-004 7.562761094747699e-003
2.000000000000000e+007 9.230260790077383e-004 1.509584707486822e-002 9.980915084182939e-001 -5.936315283222209e-002 4.632990736447777e-004 6.858444384143123e-003 -3.207774908077246e-004 -3.642050172866088e-003
                       9.980915084182939e-001 -5.936315283222209e-002 9.230260790077383e-004 1.509584707486822e-002 -3.207774908077083e-004 -3.642050172866096e-003 4.632990736447777e-004 6.858444384143123e-003
                       4.632990736447490e-004 6.858444384143106e-003 -3.207774908077083e-004 -3.642050172866096e-003 9.230265214389410e-004 1.509584962556266e-002 9.980915072403416e-001 -5.936317198200058e-002
                       -3.207774908077246e-004 -3.642050172866088e-003 4.632990736447490e-004 6.858444384143106e-003 9.980915072403416e-001 -5.936317198200058e-002 9.230265214389410e-004 1.509584962556266e-002
3.000000000000000e+007 2.072901501212421e-003 2.256975775490478e-002 9.957097016954148e-001 -8.895185162884239e-002 1.039913368726642e-003 1.024600639314097e-002 -7.195214291424117e-004 -5.430228150831221e-003
                       9.957097016954148e-001 -8.895185162884239e-002 2.072901501212421e-003 2.256975775490478e-002 -7.195214291424053e-004 -5.430228150831228e-003 1.039913368726642e-003 1.024600639314097e-002
                       1.039913368726619e-003 1.024600639314094e-002 -7.195214291424053e-004 -5.430228150831228e-003 2.072902492845641e-003 2.256976152493702e-002 9.957096990487695e-001 -8.895188027518715e-002
                       -7.195214291424117e-004 -5.430228150831221e-003 1.039913368726619e-003 1.024600639314094e-002 9.957096990487695e-001 -8.895188027518715e-002 2.072902492845641e-003 2.256976152493702e-002
4.000000000000000e+007 3.675463919715960e-003 2.995532292571476e-002 9.923822505072937e-001 -1.184295396958652e-001 1.842513783839714e-003 1.358392131753602e-002 -1.273629233816649e-003 -7.179323928193691e-003
                       9.923822505072937e-001 -1.184295396958652e-001 3.675463919715960e-003 2.995532292571476e-002 -1.273629233816729e-003 -7.179323928193719e-003 1.842513783839714e-003 1.358392131753602e-002
                       1.842513783839646e-003 1.358392131753598e-002 -1.273629233816729e-003 -7.179323928193719e-003 3.675465673106948e-003 2.995532784840651e-002 9.923822458114420e-001 -1.184295777452707e-001
                       -1.273629233816649e-003 -7.179323928193691e-003 1.842513783839646e-003 1.358392131753598e-002 9.923822458114420e-001 -1.184295777452707e-001 3.675465673106948e-003 2.995532784840651e-002
5.000000000000000e+007 5.723517695047087e-003 3.722387171270971e-002 9.881161669863547e-001 -1.477599452265282e-001 2.866496283678259e-003 1.685621039210759e-002 -1.979023194907959e-003 -8.876862296139400e-003
                       9.881161669863547e-001 -1.477599452265282e-001 5.723517695047087e-003 3.722387171270971e-002 -1.979023194907967e-003 -8.876862296139440e-003 2.866496283678259e-003 1.685621039210759e-002
                       2.866496283678257e-003 1.685621039210756e-002 -1.979023194907967e-003 -8.876862296139440e-003 5.723520415708450e-003 3.722387770003784e-002 9.881161596676665e-001 -1.477599925551167e-001
                       -1.979023194907959e-003 -8.876862296139400e-003 2.866496283678257e-003 1.685621039210756e-002 9.881161596676665e-001 -1.477599925551167e-001 5.723520415708450e-003 3.722387770003784e-002
6.000000000000000e+007 8.207906596922499e-003 4.434738875785583e-002 9.829203734909284e-001 -1.769074125920917e-001 4.106019677545189e-003 2.004737383899373e-002 -2.830539443293436e-003 -1.051083141850863e-002
                       9.829203734909284e-001 -1.769074125920917e-001 8.207906596922499e-003 4.434738875785583e-002 -2.830539443293510e-003 -1.051083141850864e-002 4.106019677545189e-003 2.004737383899373e-002
                       4.106019677545116e-003 2.004737383899369e-002 -2.830539443293510e-003 -1.051083141850864e-002 8.207910481428549e-003 4.434739570119368e-002 9.829203629845136e-001 -1.769074690462818e-001
                       -2.830539443293436e-003 -1.051083141850863e-002 4.106019677545116e-003 2.004737383899369e-002 9.829203629845136e-001 -1.769074690462818e-001 8.207910481428549e-003 4.434739570119368e-002
7.000000000000000e+007 1.111758326975731e-002 5.129866458653404e-002 9.768056346998906e-001 -2.058370428356391e-001 5.554062452778921e-003 2.314249860719507e-002 -3.821985236873223e-003 -1.206978651166126e-002
                       9.768056346998906e-001 -2.058370428356391e-001 1.111758326975731e-002 5.129866458653404e-002 -3.821985236873156e-003 -1.206978651166129e-002 5.554062452778921e-003 2.314249860719507e-002
                       5.554062452778919e-003 2.314249860719501e-002 -3.821985236873156e-003 -1.206978651166129e-002 1.111758850393085e-002 5.129867235756085e-002 9.768056204513761e-001 -2.058371082329643e-001
                       -3.821985236873223e-003 -1.206978651166126e-002 5.554062452778919e-003 2.314249860719501e-002 9.768056204513761e-001 -2.058371082329643e-001 1.111758850393085e-002 5.129867235756085e-002
8.000000000000000e+007 1.443969196138273e-002 5.805143736961244e-002 9.697844768029310e-001 -2.345148255360950e-001 7.202490212711545e-003 2.612735849379705e-002 -4.946206940376685e-003 -1.354294580208609e-002
                       9.697844768029310e-001 -2.345148255360950e-001 1.443969196138273e-002 5.805143736961244e-002 -4.946206940376738e-003 -1.354294580208612e-002 7.202490212711545e-003 2.612735849379705e-002
                       7.202490212711496e-003 2.612735849379701e-002 -4.946206940376738e-003 -1.354294580208612e-002 1.443969871858608e-002 5.805144582138112e-002 9.697844582701410e-001 -2.345148996661620e-001
                       -4.946206940376685e-003 -1.354294580208609e-002 7.202490212711496e-003 2.612735849379701e-002 9.697844582701410e-001 -2.345148996661620e-001 1.443969871858608e-002 5.805144582138112e-002
9.000000000000000e+007 1.815966329806706e-002 6.458052474661229e-002 9.618710950106861e-001 -2.629077607039793e-001 9.042132589013445e-003 2.898850549357383e-002 -6.195167561557252e-003 -1.492027758763384e-002
                       9.618710950106861e-001 -2.629077607039793e-001 1.815966329806706e-002 6.458052474661229e-002 -6.195167561557253e-003 -1.492027758763392e-002 9.042132589013445e-003 2.898850549357383e-002
                       9.042132589013431e-003 2.898850549357374e-002 -6.195167561557253e-003 -1.492027758763392e-002 1.815967173760269e-002 6.458053371476039e-002 9.618710716652139e-001 -2.629078433295521e-001
                       -6.195167561557252e-003 -1.492027758763384e-002 9.042132589013431e-003 2.898850549357374e-002 9.618710716652139e-001 -2.629078433295521e-001 1.815967173760269e-002 6.458053371476039e-002
1.000000000000000e+008 2.226131974245316e-002 7.086194456667197e-002 9.530812507568189e-001 -2.909839695615916e-001 1.106286836555766e-002 3.171335140579426e-002 -7.560032572461902e-003 -1.619257741043266e-002
                       9.530812507568189e-001 -2.909839695615916e-001 2.226131974245316e-002 7.086194456667197e-002 -7.560032572461847e-003 -1.619257741043271e-002 1.106286836555766e-002 3.171335140579426e-002
                       1.106286836555769e-002 3.171335140579421e-002 -7.560032572461847e-003 -1.619257741043271e-002 2.226133000809727e-002 7.086195387076440e-002 9.530812220854794e-001 -2.909840604197882e-001
                       -7.560032572461902e-003 -1.619257741043266e-002 1.106286836555769e-002 3.171335140579421e-002 9.530812220854794e-001 -2.909840604197882e-001 2.226133000809727e-002 7.086195387076440e-002
1.100000000000000e+008 2.672699025704362e-002 7.687302361111729e-002 9.434321600795309e-001 -3.187127932678536e-001 1.325371744968195e-002 3.429023892431384e-002 -9.031262641780377e-003 -1.735153454684342e-002
                       9.434321600795309e-001 -3.187127932678536e-001 2.672699025704362e-002 7.687302361111729e-002 -9.031262641780349e-003 -1.735153454684344e-002 1.325371744968195e-002 3.429023892431384e-002
                       1.325371744968188e-002 3.429023892431377e-002 -9.031262641780349e-003 -1.735153454684344e-002 2.672700247571569e-002 7.687303305610611e-002 9.434321255856814e-001 -3.187128920714427e-001
                       -9.031262641780377e-003 -1.735153454684342e-002 1.325371744968188e-002 3.429023892431377e-002 9.434321255856814e-001 -3.187128920714427e-001 2.672700247571569e-002 7.687303305610611e-002
1.200000000000000e+008 3.153763261582332e-002 8.259249357894975e-002 9.329423747514268e-001 -3.460648788660407e-001 1.560293825839969e-002 3.670850164364435e-002 -1.059871183444595e-002 -1.838978722648014e-002
                       9.329423747514268e-001 -3.460648788660407e-001 3.153763261582332e-002 8.259249357894975e-002 -1.059871183444595e-002 -1.838978722648021e-002 1.560293825839969e-002 3.670850164364435e-002
                       1.560293825839965e-002 3.670850164364425e-002 -1.059871183444595e-002 -1.838978722648021e-002 3.153764689639771e-002 8.259250295673176e-002 9.329423339561539e-001 -3.460649853048167e-001
                       -1.059871183444595e-002 -1.838978722648014e-002 1.560293825839965e-002 3.670850164364425e-002 9.329423339561539e-001 -3.460649853048167e-001 3.153764689639771e-002 8.259250295673176e-002
1.300000000000000e+008 3.667296176105073e-002 8.800057383852677e-002 9.216316577736727e-001 -3.730122519551733e-001 1.809812905206324e-002 3.895851262385102e-002 -1.225172979805244e-002 -1.930096620256337e-002
                       9.216316577736727e-001 -3.730122519551733e-001 3.667296176105073e-002 8.800057383852677e-002 -1.225172979805244e-002 -1.930096620256344e-002 1.809812905206324e-002 3.895851262385102e-002
                       1.809812905206323e-002 3.895851262385090e-002 -1.225172979805244e-002 -1.930096620256344e-002 3.667297819333037e-002 8.800058292958525e-002 9.216316102168317e-001 -3.730123656973993e-001
                       -1.225172979805244e-002 -1.930096620256337e-002 1.809812905206323e-002 3.895851262385090e-002 9.216316102168317e-001 -3.730123656973993e-001 3.667297819333037e-002 8.800058292958525e-002
1.400000000000000e+008 4.211158259051717e-002 9.307904066941945e-002 9.095208548635970e-001 -3.995283758072197e-001 2.072633174549500e-002 4.103172136522774e-002 -1.397926645152652e-002 -2.007972650409854e-002
                       9.095208548635970e-001 -3.995283758072197e-001 4.211158259051717e-002 9.307904066941945e-002 -1.397926645152652e-002 -2.007972650409863e-002 2.072633174549500e-002 4.103172136522774e-002
                       2.072633174549493e-002 4.103172136522764e-002 -1.397926645152652e-002 -2.007972650409863e-002 4.211160124436009e-002 9.307904924453285e-002 9.095208001047068e-001 -3.995284965011181e-001
                       -1.397926645152652e-002 -2.007972650409854e-002 2.072633174549493e-002 4.103172136522764e-002 9.095208001047068e-001 -3.995284965011181e-001 4.211160124436009e-002 9.307904924453285e-002
1.500000000000000e+008 4.783112558100111e-002 9.781128293247911e-002 8.966317635459541e-001 -4.255881968670632e-001 2.347413675500752e-002 4.292067924451865e-002 -1.576997771817891e-002 -2.072176740135822e-002
                       8.966317635459541e-001 -4.255881968670632e-001 4.783112558100111e-002 9.781128293247911e-002 -1.576997771817890e-002 -2.072176740135833e-002 2.347413675500752e-002 4.292067924451865e-002
                       2.347413675500747e-002 4.292067924451851e-002 -1.576997771817890e-002 -2.072176740135833e-002 4.783114650560671e-002 9.781129075448153e-002 8.966317011649462e-001 -4.255883241423394e-001
                       -1.576997771817891e-002 -2.072176740135822e-002 2.347413675500747e-002 4.292067924451851e-002 8.966317011649462e-001 -4.255883241423394e-001 4.783114650560671e-002 9.781129075448153e-002
1.600000000000000e+008 5.380838370381613e-002 1.021823443087569e-001 8.829870014094416e-001 -4.511681767756551e-001 2.632778749650141e-002 4.461905365331685e-002 -1.761233090021965e-002 -2.122384080523036e-002
                       8.829870014094416e-001 -4.511681767756551e-001 5.380838370381613e-002 1.021823443087569e-001 -1.761233090021975e-002 -2.122384080523041e-002 2.632778749650141e-002 4.461905365331685e-002
                       2.632778749650135e-002 4.461905365331677e-002 -1.761233090021975e-002 -2.122384080523041e-002 5.380840692717603e-002 1.021823511343283e-001 8.829869310072581e-001 -4.511683102450357e-001
                       -1.761233090021965e-002 -2.122384080523036e-002 2.632778749650135e-002 4.461905365331677e-002 8.829869310072581e-001 -4.511683102450357e-001 5.380840692717603e-002 1.021823511343283e-001
1.700000000000000e+008 6.001944916505453e-002 1.061789524348897e-001 8.686098750149333e-001 -4.762463112447204e-001 2.927328323174621e-002 4.612163125218467e-002 -1.949470837183741e-002 -2.158374849419976e-002
                       8.686098750149333e-001 -4.762463112447204e-001 6.001944916505453e-002 1.061789524348897e-001 -1.949470837183747e-002 -2.158374849419980e-002 2.927328323174621e-002 4.612163125218467e-002
                       2.927328323174608e-002 4.612163125218458e-002 -1.949470837183747e-002 -2.158374849419980e-002 6.001947469356206e-002 1.061789580163663e-001 8.686097962139815e-001 -4.762464505054919e-001
                       -1.949470837183741e-002 -2.158374849419976e-002 2.927328323174608e-002 4.612163125218458e-002 8.686097962139815e-001 -4.762464505054919e-001 6.001947469356206e-002 1.061789580163663e-001
1.800000000000000e+008 6.643984860260654e-002 1.097895354305930e-001 8.535242508440096e-001 -5.008021362804851e-001 3.229647906328346e-002 4.742431090777897e-002 -2.140550836927370e-002 -2.180032871683758e-002
                       8.535242508440096e-001 -5.008021362804851e-001 6.643984860260654e-002 1.097895354305930e-001 -2.140550836927379e-002 -2.180032871683765e-002 3.229647906328346e-002 4.742431090777897e-002
                       3.229647906328337e-002 4.742431090777886e-002 -2.140550836927379e-002 -2.180032871683765e-002 6.643987642081972e-002 1.097895395177808e-001 8.535241632884806e-001 -5.008022809160190e-001
                       -2.140550836927370e-002 -2.180032871683758e-002 3.229647906328337e-002 4.742431090777886e-002 8.535241632884806e-001 -5.008022809160190e-001 6.643987642081972e-002 1.097895395177808e-001
1.900000000000000e+008 7.304467549023297e-002 1.130042264603804e-001 8.377544295598253e-001 -5.248167224016006e-001 3.538318199905303e-002 4.852408701243777e-002 -2.333324177487588e-002 -2.187343285030773e-002
                       8.377544295598253e-001 -5.248167224016006e-001 7.304467549023297e-002 1.130042264603804e-001 -2.333324177487597e-002 -2.187343285030787e-002 3.538318199905303e-002 4.852408701243777e-002
                       3.538318199905292e-002 4.852408701243766e-002 -2.333324177487597e-002 -2.187343285030787e-002 7.304470556079767e-002 1.130042288023529e-001 8.377543329158693e-001 -5.248168719828450e-001
                       -2.333324177487588e-002 -2.187343285030773e-002 3.538318199905292e-002 4.852408701243766e-002 8.377543329158693e-001 -5.248168719828450e-001 7.304470556079767e-002 1.130042288023529e-001
2.000000000000000e+008 7.980871863159833e-002 1.158148570948824e-001 8.213250247213735e-001 -5.482726576210468e-001 3.851924214158322e-002 4.941902399472013e-002 -2.526662392363490e-002 -2.180389290500690e-002
                       8.213250247213735e-001 -5.482726576210468e-001 7.980871863159833e-002 1.158148570948824e-001 -2.526662392363503e-002 -2.180389290500691e-002 3.851924214158322e-002 4.941902399472013e-002
                       3.851924214158310e-002 4.941902399472004e-002 -2.526662392363503e-002 -2.180389290500691e-002 7.980875089531236e-002 1.158148574417584e-001 8.213249186771552e-001 -5.482728117079811e-001
                       -2.526662392363490e-002 -2.180389290500690e-002 3.851924214158310e-002 4.941902399472004e-002 8.213249186771552e-001 -5.482728117079811e-001 7.980875089531236e-002 1.158148574417584e-001
2.100000000000000e+008 8.670658576990598e-002 1.182149403362733e-001 8.042608469512067e-001 -5.711540200624389e-001 4.169063819914246e-002 5.010822291453568e-002 -2.719466060093395e-002 -2.159348075129310e-002
                       8.042608469512067e-001 -5.711540200624389e-001 8.670658576990598e-002 1.182149403362733e-001 -2.719466060093400e-002 -2.159348075129321e-002 4.169063819914246e-002 5.010822291453568e-002
                       4.169063819914234e-002 5.010822291453556e-002 -2.719466060093400e-002 -2.159348075129321e-002 8.670662014592423e-002 1.182149384409532e-001 8.042607312168381e-001 -5.711541782054720e-001
                       -2.719466060093395e-002 -2.159348075129310e-002 4.169063819914234e-002 5.010822291453556e-002 8.042607312168381e-001 -5.711541782054720e-001 8.670662014592423e-002 1.182149384409532e-001
2.200000000000000e+008 9.371282148746496e-002 1.201996442471966e-001 7.865867944096907e-001 -5.934463411577425e-001 4.488355666350442e-002 5.059178109776524e-002 -2.910672754503825e-002 -2.124486000636843e-002
                       7.865867944096907e-001 -5.934463411577425e-001 9.371282148746496e-002 1.201996442471966e-001 -2.910672754503821e-002 -2.124486000636853e-002 4.488355666350442e-002 5.059178109776524e-002
                       4.488355666350432e-002 5.059178109776510e-002 -2.910672754503821e-002 -2.124486000636853e-002 9.371285787363681e-002 1.201996398670528e-001 7.865866687170566e-001 -5.934465028990469e-001
                       -2.910672754503825e-002 -2.124486000636843e-002 4.488355666350432e-002 5.059178109776510e-002 7.865866687170566e-001 -5.934465028990469e-001 9.371285787363681e-002 1.201996398670528e-001
2.300000000000000e+008 1.008020187202304e-001 1.217657571737817e-001 7.683277502799378e-001 -6.151365604264515e-001 4.808446414707592e-002 5.087074580332710e-002 -3.099264291338230e-002 -2.076153155843392e-002
                       7.683277502799378e-001 -6.151365604264515e-001 1.008020187202304e-001 1.217657571737817e-001 -3.099264291338233e-002 -2.076153155843390e-002 4.808446414707592e-002 5.087074580332710e-002
                       4.808446414707581e-002 5.087074580332705e-002 -3.099264291338233e-002 -2.076153155843390e-002 1.008020569935626e-001 1.217657500722909e-001 7.683276143824196e-001 -6.151367253012231e-001
                       -3.099264291338230e-002 -2.076153155843392e-002 4.808446414707581e-002 5.087074580332705e-002 7.683276143824196e-001 -6.151367253012231e-001 1.008020569935626e-001 1.217657500722909e-001
2.400000000000000e+008 1.079489233615394e-001 1.229116455820093e-001 7.495084878201509e-001 -6.362129728670238e-001 5.128017251759638e-002 5.094706293175644e-002 -3.284273231447682e-002 -2.014777372254492e-002
                       7.495084878201509e-001 -6.362129728670238e-001 1.079489233615394e-001 1.229116455820093e-001 -3.284273231447688e-002 -2.014777372254494e-002 5.128017251759638e-002 5.094706293175644e-002
