[Version] 2.0
! Touchstone generated by fitter/viewer 
# HZ S  RI R 5.000000e+001
[Number of Ports] 4
[Number of Frequencies] 2000
[Mixed-Mode Order] D1,3 D2,4 C1,3 C2,4 
! 
[Network Data]
1.000000000000000e+007 1.150250774759946e-004 4.125181451235685e-003 9.996029659274714e-001 -2.787256996089846e-002 -5.543232538973318e-011 -6.432936644311382e-010 1.473691724207527e-010 4.795294234610781e-009
                       9.996029659274714e-001 -2.787256996089846e-002 1.150250774759946e-004 4.125181451235685e-003 1.473693389542063e-010 4.795294224202440e-009 -5.543232538973318e-011 -6.432936644311382e-010
                       -5.543232539650944e-011 -6.432936657321808e-010 1.473693389542063e-010 4.795294224202440e-009 3.470101136912807e-004 1.100033945167236e-002 9.994422792252621e-001 -3.152780697953964e-002
                       1.473691724207527e-010 4.795294234610781e-009 -5.543232539650944e-011 -6.432936657321808e-010 9.994422792252621e-001 -3.152780697953964e-002 3.470101136912807e-004 1.100033945167236e-002
2.000000000000000e+007 4.597272265785756e-004 8.237403966072313e-003 9.984122853201241e-001 -5.572111223424516e-002 -2.212156013925437e-010 -1.275347220192069e-009 5.889760346100559e-010 9.574889249519547e-009
                       9.984122853201241e-001 -5.572111223424516e-002 4.597272265785756e-004 8.237403966072313e-003 5.889762566546608e-010 9.574889235641759e-009 -2.212156013925437e-010 -1.275347220192069e-009
                       -2.212156013925437e-010 -1.275347220192069e-009 5.889762566546608e-010 9.574889235641759e-009 1.386325373868101e-003 2.195429273435852e-002 9.977707303385086e-001 -6.300521257997732e-002
                       5.889760346100559e-010 9.574889249519547e-009 -2.212156013925437e-010 -1.275347220192069e-009 9.977707303385086e-001 -6.300521257997732e-002 1.386325373868101e-003 2.195429273435852e-002
3.000000000000000e+007 1.032988628302399e-003 1.232375324677992e-002 9.964292218012332e-001 -8.352163780118344e-002 -4.958166099910955e-010 -1.885016120625749e-009 1.323322673663085e-009 1.432317237731740e-008
                       9.964292218012332e-001 -8.352163780118344e-002 1.032988628302399e-003 1.232375324677992e-002 1.323322673663085e-009 1.432317237731740e-008 -4.958166099910955e-010 -1.885016120625749e-009
                       -4.958166099910955e-010 -1.885016118891025e-009 1.323322673663085e-009 1.432317237731740e-008 3.112815365755658e-003 3.281576603306181e-002 9.949901789429482e-001 -9.438209410284587e-002
                       1.323322673663085e-009 1.432317237731740e-008 -4.958166099910955e-010 -1.885016118891025e-009 9.949901789429482e-001 -9.438209410284587e-002 3.112815365755658e-003 3.281576603306181e-002
4.000000000000000e+007 1.832951012571771e-003 1.637140406952461e-002 9.936558773931831e-001 -1.112502347923741e-001 -8.766954939787297e-010 -2.461345871909715e-009 2.347925853740662e-009 1.902470276454737e-008
                       9.936558773931831e-001 -1.112502347923741e-001 1.832951012571771e-003 1.637140406952461e-002 2.347925798229511e-009 1.902470274373069e-008 -8.766954939787297e-010 -2.461345871909715e-009
                       -8.766954939787297e-010 -2.461345870174991e-009 2.347925798229511e-009 1.902470274373069e-008 5.517978580251126e-003 4.353924670459657e-002 9.911086189255496e-001 -1.256088826487615e-001
                       2.347925853740662e-009 1.902470276454737e-008 -8.766954939787297e-010 -2.461345870174991e-009 9.911086189255496e-001 -1.256088826487615e-001 5.517978580251126e-003 4.353924670459657e-002
5.000000000000000e+007 2.857022771699506e-003 2.036766431426617e-002 9.900951865219172e-001 -1.388831065946828e-001 -1.360330681649327e-009 -2.993664066641699e-009 3.659344161022204e-009 2.366429428801720e-008
                       9.900951865219172e-001 -1.388831065946828e-001 2.857022771699506e-003 2.036766431426617e-002 3.659344161022204e-009 2.366429423250605e-008 -1.360330681649327e-009 -2.993664066641699e-009
                       -1.360330681432487e-009 -2.993664066641699e-009 3.659344161022204e-009 2.366429423250605e-008 8.590015339056014e-003 5.408008509848127e-002 9.861371401321012e-001 -1.566368311869616e-001
                       3.659344161022204e-009 2.366429428801720e-008 -1.360330681432487e-009 -2.993664066641699e-009 9.861371401321012e-001 -1.566368311869616e-001 8.590015339056014e-003 5.408008509848127e-002
6.000000000000000e+007 4.101888861630366e-003 2.430001839053101e-002 9.857509076810130e-001 -1.663966094006779e-001 -1.942253025511570e-009 -3.471668921090076e-009 5.253207535638182e-009 2.822709505023724e-008
                       9.857509076810130e-001 -1.663966094006779e-001 4.101888861630366e-003 2.430001839053101e-002 5.253207313593578e-009 2.822709503635945e-008 -1.942253025511570e-009 -3.471668921090076e-009
                       -1.942253025945251e-009 -3.471668924559523e-009 5.253207313593578e-009 2.822709503635945e-008 1.231392821672066e-002 6.439476606851838e-002 9.800898287944261e-001 -1.874182722376951e-001
                       5.253207535638182e-009 2.822709505023724e-008 -1.942253025945251e-009 -3.471668924559523e-009 9.800898287944261e-001 -1.874182722376951e-001 1.231392821672066e-002 6.439476606851838e-002
7.000000000000000e+007 5.563523434065151e-003 2.815616986485236e-002 9.806276128125051e-001 -1.937672890226402e-001 -2.617086769952232e-009 -3.885513405813001e-009 7.124257239699006e-009 3.269866259703047e-008
                       9.806276128125051e-001 -1.937672890226402e-001 5.563523434065151e-003 2.815616986485236e-002 7.124257239699006e-009 3.269866255539711e-008 -2.617086769952232e-009 -3.885513405813001e-009
                       -2.617086769518551e-009 -3.885513397139384e-009 7.124257239699006e-009 3.269866255539711e-008 1.667164833962298e-002 7.444116707924238e-002 9.729836423387588e-001 -2.179068620459627e-001
                       7.124257239699006e-009 3.269866259703047e-008 -2.617086769518551e-009 -3.885513397139384e-009 9.729836423387588e-001 -2.179068620459627e-001 1.667164833962298e-002 7.444116707924238e-002
8.000000000000000e+007 7.237205127272873e-003 3.192408310169971e-002 9.747306744769114e-001 -2.209719167990421e-001 -3.378601674906140e-009 -4.225884340375297e-009 9.266394984663862e-009 3.706503351463830e-008
                       9.747306744769114e-001 -2.209719167990421e-001 7.237205127272873e-003 3.192408310169971e-002 9.266394984663862e-009 3.706503348688273e-008 -3.378601674906140e-009 -4.225884340375297e-009
                       -3.378601676207182e-009 -4.225884336905850e-009 9.266394984663862e-009 3.706503348688273e-008 2.164218555269589e-002 8.417880008929370e-002 9.648382605961580e-001 -2.480578084032143e-001
                       9.266394984663862e-009 3.706503351463830e-008 -3.378601676207182e-009 -4.225884336905850e-009 9.648382605961580e-001 -2.480578084032143e-001 2.164218555269589e-002 8.417880008929370e-002
9.000000000000000e+007 9.117534928821424e-003 3.559202373711251e-002 9.680662508995059e-001 -2.479875244291315e-001 -4.219767814686581e-009 -4.484074046101627e-009 1.167273616653475e-008 4.131278642793834e-008
                       9.680662508995059e-001 -2.479875244291315e-001 9.117534928821424e-003 3.559202373711251e-002 1.167273616653475e-008 4.131278635854940e-008 -4.219767814686581e-009 -4.484074046101627e-009
                       -4.219767814686581e-009 -4.484074049571074e-009 1.167273616653475e-008 4.131278635854940e-008 2.720180010684827e-002 9.356903472425998e-002 9.556759157763912e-001 -2.778280796043992e-001
                       1.167273616653475e-008 4.131278642793834e-008 -4.219767814686581e-009 -4.484074049571074e-009 9.556759157763912e-001 -2.778280796043992e-001 2.720180010684827e-002 9.356903472425998e-002
1.000000000000000e+008 1.119845650971753e-002 3.914859781292390e-002 9.606412689936097e-001 -2.747914375802568e-001 -5.132822054540465e-009 -4.652046216996331e-009 1.433566970687750e-008 4.542909831650732e-008
                       9.606412689936097e-001 -2.747914375802568e-001 1.119845650971753e-002 3.914859781292390e-002 1.433566981789980e-008 4.542909823324060e-008 -5.132822054540465e-009 -4.652046216996331e-009
                       -5.132822049336294e-009 -4.652046220465778e-009 1.433566981789980e-008 4.542909823324060e-008 3.332419324083284e-002 1.025753006245123e-001 9.455212038486860e-001 -3.071765924011222e-001
                       1.433566970687750e-008 4.542909831650732e-008 -5.132822049336294e-009 -4.652046220465778e-009 9.455212038486860e-001 -3.071765924011222e-001 3.332419324083284e-002 1.025753006245123e-001
1.100000000000000e+008 1.347327891669772e-002 4.258278940929784e-002 9.524634054743851e-001 -3.013613081228043e-001 -6.109336032726620e-009 -4.722494412884304e-009 1.724692477722556e-008 4.940179454404614e-008
                       9.524634054743851e-001 -3.013613081228043e-001 1.347327891669772e-002 4.258278940929784e-002 1.724692477722556e-008 4.940179454404614e-008 -6.109336032726620e-009 -4.722494412884304e-009
                       -6.109336030124535e-009 -4.722494409414857e-009 1.724692477722556e-008 4.940179454404614e-008 3.998071381606152e-002 1.111632672579254e-001 9.344008801908244e-001 -3.360643772164911e-001
                       1.724692477722556e-008 4.940179454404614e-008 -6.109336030124535e-009 -4.722494409414857e-009 9.344008801908244e-001 -3.360643772164911e-001 3.998071381606152e-002 1.111632672579254e-001
1.200000000000000e+008 1.593470149771082e-002 4.588399662419639e-002 9.435410661882351e-001 -3.276751448589481e-001 -7.140287196574779e-009 -4.688891008103324e-009 2.039763646877191e-008 5.321938806313042e-008
                       9.435410661882351e-001 -3.276751448589481e-001 1.593470149771082e-002 4.588399662419639e-002 2.039763646877191e-008 5.321938797986370e-008 -7.140287196574779e-009 -4.688891008103324e-009
                       -7.140287194840056e-009 -4.688890997694983e-009 2.039763646877191e-008 5.321938797986370e-008 4.714057801451012e-002 1.193009999114849e-001 9.223436425193431e-001 -3.644547193119083e-001
                       2.039763646877191e-008 5.321938806313042e-008 -7.140287194840056e-009 -4.688890997694983e-009 9.223436425193431e-001 -3.644547193119083e-001 4.714057801451012e-002 1.193009999114849e-001
1.300000000000000e+008 1.857484092512730e-002 4.904206576020499e-002 9.338833637933035e-001 -3.537113426237224e-001 -8.216139815372947e-009 -4.545529237731660e-009 2.377842051037860e-008 5.687111304109038e-008
                       9.338833637933035e-001 -3.537113426237224e-001 1.857484092512730e-002 4.904206576020499e-002 2.377842056588975e-008 5.687111295782366e-008 -8.216139815372947e-009 -4.545529237731660e-009
                       -8.216139810168777e-009 -4.545529244670554e-009 2.377842056588975e-008 5.687111295782366e-008 5.477109902925370e-002 1.269590910079068e-001 9.093799041971985e-001 -3.923132750288492e-001
                       2.377842051037860e-008 5.687111304109038e-008 -8.216139810168777e-009 -4.545529244670554e-009 9.093799041971985e-001 -3.923132750288492e-001 5.477109902925370e-002 1.269590910079068e-001
1.400000000000000e+008 2.138526017194363e-002 5.204732359174839e-002 9.235000939356771e-001 -3.794487096500697e-001 -9.326921460856008e-009 -4.287556691628947e-009 2.737944504449530e-008 6.034694918777284e-008
                       9.235000939356771e-001 -3.794487096500697e-001 2.138526017194363e-002 5.204732359174839e-002 2.737944510000645e-008 6.034694913226169e-008 -9.326921460856008e-009 -4.287556691628947e-009
                       -9.326921464325455e-009 -4.287556684690053e-009 2.737944510000645e-008 6.034694913226169e-008 6.283792366293350e-002 1.341107663222037e-001 8.955415610326243e-001 -4.196081626582670e-001
                       2.737944504449530e-008 6.034694918777284e-008 -9.326921464325455e-009 -4.287556684690053e-009 8.955415610326243e-001 -4.196081626582670e-001 6.283792366293350e-002 1.341107663222037e-001
1.500000000000000e+008 2.435699928829638e-002 5.489060759896165e-002 9.124017100736277e-001 -4.048664931033424e-001 -1.046230279667937e-008 -3.911001213857679e-009 3.119050395739009e-008 6.363763815908641e-008
                       9.124017100736277e-001 -4.048664931033424e-001 2.435699928829638e-002 5.489060759896165e-002 3.119050395739009e-008 6.363763807581968e-008 -1.046230279667937e-008 -3.911001213857679e-009
                       -1.046230279494465e-008 -3.911001217327126e-009 3.119050395739009e-008 6.363763807581968e-008 7.130527279831131e-002 1.407319660879987e-001 8.808617546372700e-001 -4.463100279060589e-001
                       3.119050395739009e-008 6.363763815908641e-008 -1.046230279494465e-008 -3.911001217327126e-009 8.808617546372700e-001 -4.463100279060589e-001 7.130527279831131e-002 1.407319660879987e-001
1.600000000000000e+008 2.748060781899466e-002 5.756329406822572e-002 9.005992971085683e-001 -4.299444027051144e-001 -1.161167994916112e-008 -3.412785703343912e-009 3.520109187471476e-008 6.673469030160639e-008
                       9.005992971085683e-001 -4.299444027051144e-001 2.748060781899466e-002 5.756329406822572e-002 3.520109170818131e-008 6.673469024609524e-008 -1.161167994916112e-008 -3.412785703343912e-009
                       -1.161167994395695e-008 -3.412785692935572e-009 3.520109170818131e-008 6.673469024609524e-008 8.013618281199736e-002 1.468014013748592e-001 8.653746353081290e-001 -4.723920843155751e-001
                       3.520109187471476e-008 6.673469030160639e-008 -1.161167994395695e-008 -3.412785692935572e-009 8.653746353081290e-001 -4.723920843155751e-001 8.013618281199736e-002 1.468014013748592e-001
1.700000000000000e+008 3.074617869756210e-002 6.005732397344329e-002 8.881045439862936e-001 -4.546626323809057e-001 -1.276425376332824e-008 -2.790738300173512e-009 3.940047599293450e-008 6.963038579055336e-008
                       8.881045439862936e-001 -4.546626323809057e-001 3.074617869756210e-002 6.005732397344329e-002 3.940047582640105e-008 6.963038570728664e-008 -1.276425376332824e-008 -2.790738300173512e-009
                       -1.276425375812407e-008 -2.790738307112406e-009 3.940047582640105e-008 6.963038570728664e-008 8.929274516105432e-002 1.523005864778124e-001 8.491151272426187e-001 -4.978301293693053e-001
                       3.940047599293450e-008 6.963038579055336e-008 -1.276425375812407e-008 -2.790738307112406e-009 8.491151272426187e-001 -4.978301293693053e-001 8.929274516105432e-002 1.523005864778124e-001
1.800000000000000e+008 3.414338344842967e-002 6.236522656640788e-002 8.749297154355177e-001 -4.790018798814137e-001 -1.390910659218592e-008 -2.043593894801576e-009 4.377776463559968e-008 7.231776699700987e-008
                       8.749297154355177e-001 -4.790018798814137e-001 3.414338344842967e-002 6.236522656640788e-002 4.377776446906623e-008 7.231776688598757e-008 -1.390910659218592e-008 -2.043593894801576e-009
                       -1.390910659565536e-008 -2.043593905209917e-009 4.377776446906623e-008 7.231776688598757e-008 9.873634157499639e-002 1.572138483819656e-001 8.321186986969702e-001 -5.226025373150889e-001
                       4.377776463559968e-008 7.231776699700987e-008 -1.390910659565536e-008 -2.043593905209917e-009 8.321186986969702e-001 -5.226025373150889e-001 9.873634157499639e-002 1.572138483819656e-001
1.900000000000000e+008 3.766150852646229e-002 6.448014061892884e-002 8.610876230127220e-001 -5.029433643419143e-001 -1.503528235247131e-008 -1.170986259346751e-009 4.832197808557481e-008 7.479062230641986e-008
                       8.610876230127220e-001 -5.029433643419143e-001 3.766150852646229e-002 6.448014061892884e-002 4.832197786353021e-008 7.479062213988641e-008 -1.503528235247131e-008 -1.170986259346751e-009
                       -1.503528235941021e-008 -1.170986266285645e-009 4.832197786353021e-008 7.479062213988641e-008 1.084278725245682e-001 1.615283146438041e-001 8.144211394629702e-001 -5.466902300425298e-001
                       4.832197808557481e-008 7.479062230641986e-008 -1.503528235941021e-008 -1.170986266285645e-009 8.144211394629702e-001 -5.466902300425298e-001 1.084278725245682e-001 1.615283146438041e-001
2.000000000000000e+008 4.128949262187213e-002 6.639583327360021e-002 8.465915956228980e-001 -5.264688417595064e-001 -1.613185702034614e-008 -1.734379931339625e-010 5.302210914770456e-008 7.704346716153054e-008
                       8.465915956228980e-001 -5.264688417595064e-001 4.128949262187213e-002 6.639583327360021e-002 5.302210898117110e-008 7.704346721704170e-008 -1.613185702034614e-008 -1.734379931339625e-010
                       -1.613185701687669e-008 -1.734379861950686e-010 5.302210898117110e-008 7.704346721704170e-008 1.183279769050383e-001 1.652338812630403e-001 7.960583477756282e-001 -5.700766275695202e-001
                       5.302210914770456e-008 7.704346716153054e-008 -1.613185701687669e-008 -1.734379861950686e-010 7.960583477756282e-001 -5.700766275695202e-001 1.183279769050383e-001 1.652338812630403e-001
2.100000000000000e+008 4.501596475877264e-002 6.810671647407753e-002 8.314554496849551e-001 -5.495606183826616e-001 -1.718800912708929e-008 9.476600615343500e-010 5.786718432210236e-008 7.907151661212808e-008
                       8.314554496849551e-001 -5.495606183826616e-001 4.501596475877264e-002 6.810671647407753e-002 5.786718432210236e-008 7.907151650110578e-008 -1.718800912708929e-008 9.476600615343500e-010
                       -1.718800911321150e-008 9.476600476565622e-010 5.786718432210236e-008 7.907151650110578e-008 1.283972411570573e-001 1.683231623031486e-001 7.770661284830873e-001 -5.927475798852477e-001
                       5.786718432210236e-008 7.907151661212808e-008 -1.718800911321150e-008 9.476600476565622e-010 7.770661284830873e-001 -5.927475798852477e-001 1.283972411570573e-001 1.683231623031486e-001
2.200000000000000e+008 4.882928301704645e-002 6.960786095935943e-002 8.156934591084107e-001 -5.722015620220253e-001 -1.819308593012381e-008 2.190071901608803e-009 6.284631692832221e-008 8.087065223039147e-008
                       8.156934591084107e-001 -5.722015620220253e-001 4.882928301704645e-002 6.960786095935943e-002 6.284631709485566e-008 8.087065206385802e-008 -1.819308593012381e-008 2.190071901608803e-009
                       -1.819308594053215e-008 2.190071901608803e-009 6.284631709485566e-008 8.087065206385802e-008 1.385963963440551e-001 1.707914231548897e-001 7.574800040183345e-001 -6.146912820347623e-001
                       6.284631692832221e-008 8.087065223039147e-008 -1.819308594053215e-008 2.190071901608803e-009 7.574800040183345e-001 -6.146912820347623e-001 1.385963963440551e-001 1.707914231548897e-001
2.300000000000000e+008 5.271757370982054e-002 7.089500781970912e-002 7.993203252445600e-001 -5.943751113054026e-001 -1.913666610245390e-008 3.550745399094613e-009 6.794875923032961e-008 8.243738580659965e-008
                       7.993203252445600e-001 -5.943751113054026e-001 5.271757370982054e-002 7.089500781970912e-002 6.794875900828501e-008 8.243738580659965e-008 -1.913666610245390e-008 3.550745399094613e-009
                       -1.913666609898446e-008 3.550745419911294e-009 6.794875900828501e-008 8.243738580659965e-008 1.488865020039721e-001 1.726364994263631e-001 7.373350394177953e-001 -6.358981744222703e-001
                       6.794875923032961e-008 8.243738580659965e-008 -1.913666609898446e-008 3.550745419911294e-009 7.373350394177953e-001 -6.358981744222703e-001 1.488865020039721e-001 1.726364994263631e-001
2.400000000000000e+008 5.666877085255861e-002 7.196457762440810e-002 7.823511469706830e-001 -6.160652829132980e-001 -2.000861559423028e-008 5.025844698747228e-009 7.316394351475353e-008 8.376881993621410e-008
                       7.823511469706830e-001 -6.160652829132980e-001 5.666877085255861e-002 7.196457762440810e-002 7.316394351475353e-008 8.376881993621410e-008 -2.000861559423028e-008 5.025844698747228e-009
