! Touchstone generated by fitter/viewer 
# HZ S  RI R 5.000000e+001
! 
1.000000000000000e+007 2.366925624138760e-004 7.623624400379561e-005 9.996730134192787e-001 -4.974595595300196e-003 -0.000000000000000e+000 -0.000000000000000e+000 -0.000000000000000e+000 -0.000000000000000e+000
                       9.996730134192787e-001 -4.974595595300196e-003 2.366925624137650e-004 7.623624400379561e-005 -0.000000000000000e+000 -0.000000000000000e+000 -0.000000000000000e+000 -0.000000000000000e+000
                       -0.000000000000000e+000 -0.000000000000000e+000 -0.000000000000000e+000 -0.000000000000000e+000 2.364594842145795e-004 2.911661165385743e-005 9.996727803410795e-001 -5.021715227650135e-003
                       -0.000000000000000e+000 -0.000000000000000e+000 -0.000000000000000e+000 -0.000000000000000e+000 9.996727803410795e-001 -5.021715227650135e-003 2.364594842145795e-004 2.911661165385734e-005
2.000000000000000e+007 2.777164817076017e-004 6.817621254176620e-005 9.995180202116873e-001 -9.794190071957754e-003 -0.000000000000000e+000 -0.000000000000000e+000 -0.000000000000000e+000 -0.000000000000000e+000
                       9.995180202116873e-001 -9.794190071957754e-003 2.777164817076017e-004 6.817621254176620e-005 -0.000000000000000e+000 -0.000000000000000e+000 -0.000000000000000e+000 -0.000000000000000e+000
                       -0.000000000000000e+000 -0.000000000000000e+000 -0.000000000000000e+000 -0.000000000000000e+000 2.767908153569199e-004 -2.605225826982602e-005 9.995170945453363e-001 -9.888418542769346e-003
                       -0.000000000000000e+000 -0.000000000000000e+000 -0.000000000000000e+000 -0.000000000000000e+000 9.995170945453362e-001 -9.888418542769343e-003 2.767908153566978e-004 -2.605225826982453e-005
3.000000000000000e+007 2.973494908280472e-004 5.556974150359923e-005 9.993624924967828e-001 -1.458286828799536e-002 -0.000000000000000e+000 -0.000000000000000e+000 -0.000000000000000e+000 -0.000000000000000e+000
                       9.993624924967827e-001 -1.458286828799535e-002 2.973494908281582e-004 5.556974150359923e-005 -0.000000000000000e+000 -0.000000000000000e+000 -0.000000000000000e+000 -0.000000000000000e+000
                       -0.000000000000000e+000 -0.000000000000000e+000 -0.000000000000000e+000 -0.000000000000000e+000 2.952754508741551e-004 -8.575359923932480e-005 9.993604184568284e-001 -1.472419162873827e-002
                       -0.000000000000000e+000 -0.000000000000000e+000 -0.000000000000000e+000 -0.000000000000000e+000 9.993604184568283e-001 -1.472419162873827e-002 2.952754508741551e-004 -8.575359923932585e-005
4.000000000000000e+007 3.055654596597623e-004 4.366948430769859e-005 9.991946876879224e-001 -1.935472169435352e-002 -0.000000000000000e+000 -0.000000000000000e+000 -0.000000000000000e+000 -0.000000000000000e+000
                       9.991946876879224e-001 -1.935472169435352e-002 3.055654596596513e-004 4.366948430769858e-005 -0.000000000000000e+000 -0.000000000000000e+000 -0.000000000000000e+000 -0.000000000000000e+000
                       -0.000000000000000e+000 -0.000000000000000e+000 -0.000000000000000e+000 -0.000000000000000e+000 3.018893306795389e-004 -1.447312538935806e-004 9.991910115589419e-001 -1.954312243255479e-002
                       -0.000000000000000e+000 -0.000000000000000e+000 -0.000000000000000e+000 -0.000000000000000e+000 9.991910115589417e-001 -1.954312243255479e-002 3.018893306795389e-004 -1.447312538935790e-004
5.000000000000000e+007 3.072810979510843e-004 3.417176215662439e-005 9.990103016639080e-001 -2.411445983089826e-002 -0.000000000000000e+000 -0.000000000000000e+000 -0.000000000000000e+000 -0.000000000000000e+000
                       9.990103016639080e-001 -2.411445983089825e-002 3.072810979510843e-004 3.417176215662439e-005 -0.000000000000000e+000 -0.000000000000000e+000 -0.000000000000000e+000 -0.000000000000000e+000
                       -0.000000000000000e+000 -0.000000000000000e+000 -0.000000000000000e+000 -0.000000000000000e+000 3.015509442819697e-004 -2.012856304863581e-004 9.990045715102388e-001 -2.434991722354123e-002
                       -0.000000000000000e+000 -0.000000000000000e+000 -0.000000000000000e+000 -0.000000000000000e+000 9.990045715102386e-001 -2.434991722354123e-002 3.015509442817477e-004 -2.012856304863546e-004
6.000000000000000e+007 3.053187084756104e-004 2.703134221552496e-005 9.988074844317133e-001 -2.886457851220444e-002 -0.000000000000000e+000 -0.000000000000000e+000 -0.000000000000000e+000 -0.000000000000000e+000
                       9.988074844317133e-001 -2.886457851220444e-002 3.053187084757214e-004 2.703134221552495e-005 -0.000000000000000e+000 -0.000000000000000e+000 -0.000000000000000e+000 -0.000000000000000e+000
                       -0.000000000000000e+000 -0.000000000000000e+000 -0.000000000000000e+000 -0.000000000000000e+000 2.970839396748692e-004 -2.554589110812443e-004 9.987992496629122e-001 -2.914706876550120e-002
                       -0.000000000000000e+000 -0.000000000000000e+000 -0.000000000000000e+000 -0.000000000000000e+000 9.987992496629120e-001 -2.914706876550120e-002 2.970839396744252e-004 -2.554589110812356e-004
7.000000000000000e+007 3.010879805676048e-004 2.170915199347172e-005 9.985851818468804e-001 -3.360666664901728e-002 -0.000000000000000e+000 -0.000000000000000e+000 -0.000000000000000e+000 -0.000000000000000e+000
                       9.985851818468804e-001 -3.360666664901728e-002 3.010879805677158e-004 2.170915199347173e-005 -0.000000000000000e+000 -0.000000000000000e+000 -0.000000000000000e+000 -0.000000000000000e+000
                       -0.000000000000000e+000 -0.000000000000000e+000 -0.000000000000000e+000 -0.000000000000000e+000 2.898990092271570e-004 -3.077870976080250e-004 9.985739928755401e-001 -3.393616289861878e-002
                       -0.000000000000000e+000 -0.000000000000000e+000 -0.000000000000000e+000 -0.000000000000000e+000 9.985739928755405e-001 -3.393616289861878e-002 2.898990092276010e-004 -3.077870976080346e-004
8.000000000000000e+007 2.952083460208144e-004 1.773041013405057e-005 9.983426881703521e-001 -3.834175376232493e-002 -0.000000000000000e+000 -0.000000000000000e+000 -0.000000000000000e+000 -0.000000000000000e+000
                       9.983426881703521e-001 -3.834175376232493e-002 2.952083460208144e-004 1.773041013405057e-005 -0.000000000000000e+000 -0.000000000000000e+000 -0.000000000000000e+000 -0.000000000000000e+000
                       -0.000000000000000e+000 -0.000000000000000e+000 -0.000000000000000e+000 -0.000000000000000e+000 2.806164235047426e-004 -3.587418014296107e-004 9.983280962478357e-001 -3.871822597388859e-002
                       -0.000000000000000e+000 -0.000000000000000e+000 -0.000000000000000e+000 -0.000000000000000e+000 9.983280962478356e-001 -3.871822597388859e-002 2.806164235045205e-004 -3.587418014296091e-004
9.000000000000000e+007 2.879349467741488e-004 1.481211352797211e-005 9.980795211398722e-001 -4.307050153552997e-002 -0.000000000000000e+000 -0.000000000000000e+000 -0.000000000000000e+000 -0.000000000000000e+000
                       9.980795211398723e-001 -4.307050153552998e-002 2.879349467740378e-004 1.481211352797211e-005 -0.000000000000000e+000 -0.000000000000000e+000 -0.000000000000000e+000 -0.000000000000000e+000
                       -0.000000000000000e+000 -0.000000000000000e+000 -0.000000000000000e+000 -0.000000000000000e+000 2.694921192690769e-004 -4.086027804018252e-004 9.980610783123673e-001 -4.349391642945977e-002
                       -0.000000000000000e+000 -0.000000000000000e+000 -0.000000000000000e+000 -0.000000000000000e+000 9.980610783123670e-001 -4.349391642945975e-002 2.694921192688549e-004 -4.086027804018135e-004
1.000000000000000e+008 2.793878333776645e-004 1.283095783813890e-005 9.977953661544518e-001 -4.779333925631210e-002 -0.000000000000000e+000 -0.000000000000000e+000 -0.000000000000000e+000 -0.000000000000000e+000
                       9.977953661544516e-001 -4.779333925631210e-002 2.793878333776645e-004 1.283095783813890e-005 -0.000000000000000e+000 -0.000000000000000e+000 -0.000000000000000e+000 -0.000000000000000e+000
                       -0.000000000000000e+000 -0.000000000000000e+000 -0.000000000000000e+000 -0.000000000000000e+000 2.566469507713221e-004 -4.574900675311127e-004 9.977726252718455e-001 -4.826366028168136e-002
                       -0.000000000000000e+000 -0.000000000000000e+000 -0.000000000000000e+000 -0.000000000000000e+000 9.977726252718459e-001 -4.826366028168137e-002 2.566469507715441e-004 -4.574900675311247e-004
1.100000000000000e+008 2.696548761080830e-004 1.176038852027631e-005 9.974900340407508e-001 -5.251055607774496e-002 -0.000000000000000e+000 -0.000000000000000e+000 -0.000000000000000e+000 -0.000000000000000e+000
                       9.974900340407508e-001 -5.251055607774496e-002 2.696548761081941e-004 1.176038852027631e-005 -0.000000000000000e+000 -0.000000000000000e+000 -0.000000000000000e+000 -0.000000000000000e+000
                       -0.000000000000000e+000 -0.000000000000000e+000 -0.000000000000000e+000 -0.000000000000000e+000 2.421696123865447e-004 -5.054269594876691e-004 9.974625487770292e-001 -5.302774342575291e-002
                       -0.000000000000000e+000 -0.000000000000000e+000 -0.000000000000000e+000 -0.000000000000000e+000 9.974625487770293e-001 -5.302774342575292e-002 2.421696123865447e-004 -5.054269594876734e-004
1.200000000000000e+008 2.588287323835870e-004 1.161914610265087e-005 9.971634248722239e-001 -5.722235949727335e-002 -0.000000000000000e+000 -0.000000000000000e+000 -0.000000000000000e+000 -0.000000000000000e+000
                       9.971634248722239e-001 -5.722235949727335e-002 2.588287323834759e-004 1.161914610265087e-005 -0.000000000000000e+000 -0.000000000000000e+000 -0.000000000000000e+000 -0.000000000000000e+000
                       -0.000000000000000e+000 -0.000000000000000e+000 -0.000000000000000e+000 -0.000000000000000e+000 2.261535991918695e-004 -5.523914938775653e-004 9.971307497390324e-001 -5.778637013725357e-002
                       -0.000000000000000e+000 -0.000000000000000e+000 -0.000000000000000e+000 -0.000000000000000e+000 9.971307497390327e-001 -5.778637013725357e-002 2.261535991920916e-004 -5.523914938775725e-004
1.300000000000000e+008 2.470141030773698e-004 1.243848928526685e-005 9.968154983686649e-001 -6.192891009831599e-002 -0.000000000000000e+000 -0.000000000000000e+000 -0.000000000000000e+000 -0.000000000000000e+000
                       9.968154983686650e-001 -6.192891009831600e-002 2.470141030773698e-004 1.243848928526685e-005 -0.000000000000000e+000 -0.000000000000000e+000 -0.000000000000000e+000 -0.000000000000000e+000
                       -0.000000000000000e+000 -0.000000000000000e+000 -0.000000000000000e+000 -0.000000000000000e+000 2.087044514097469e-004 -5.983492345508827e-004 9.967771887169973e-001 -6.253969782215214e-002
                       -0.000000000000000e+000 -0.000000000000000e+000 -0.000000000000000e+000 -0.000000000000000e+000 9.967771887169972e-001 -6.253969782215213e-002 2.087044514095249e-004 -5.983492345508746e-004
1.400000000000000e+008 2.343238111393031e-004 1.424459242717507e-005 9.964462512023544e-001 -6.663034092442297e-002 -0.000000000000000e+000 -0.000000000000000e+000 -0.000000000000000e+000 -0.000000000000000e+000
                       9.964462512023544e-001 -6.663034092442297e-002 2.343238111393031e-004 1.424459242717507e-005 -0.000000000000000e+000 -0.000000000000000e+000 -0.000000000000000e+000 -0.000000000000000e+000
                       -0.000000000000000e+000 -0.000000000000000e+000 -0.000000000000000e+000 -0.000000000000000e+000 1.899358223143022e-004 -6.432708732721823e-004 9.964018632135293e-001 -6.728785639012233e-002
                       -0.000000000000000e+000 -0.000000000000000e+000 -0.000000000000000e+000 -0.000000000000000e+000 9.964018632135294e-001 -6.728785639012233e-002 1.899358223143022e-004 -6.432708732721861e-004
1.500000000000000e+008 2.208721749011877e-004 1.705099096476083e-005 9.960557005847699e-001 -7.132676748688124e-002 -0.000000000000000e+000 -0.000000000000000e+000 -0.000000000000000e+000 -0.000000000000000e+000
                       9.960557005847699e-001 -7.132676748688124e-002 2.208721749011877e-004 1.705099096476083e-005 -0.000000000000000e+000 -0.000000000000000e+000 -0.000000000000000e+000 -0.000000000000000e+000
                       -0.000000000000000e+000 -0.000000000000000e+000 -0.000000000000000e+000 -0.000000000000000e+000 1.699628442147771e-004 -6.871397784147296e-004 9.960047912540830e-001 -7.203095825626071e-002
                       -0.000000000000000e+000 -0.000000000000000e+000 -0.000000000000000e+000 -0.000000000000000e+000 9.960047912540827e-001 -7.203095825626069e-002 1.699628442143331e-004 -6.871397784147014e-004
1.600000000000000e+008 2.067690749421036e-004 2.085692218037388e-005 9.956438730302196e-001 -7.601829236723903e-002 -0.000000000000000e+000 -0.000000000000000e+000 -0.000000000000000e+000 -0.000000000000000e+000
                       9.956438730302195e-001 -7.601829236723902e-002 2.067690749419926e-004 2.085692218037388e-005 -0.000000000000000e+000 -0.000000000000000e+000 -0.000000000000000e+000 -0.000000000000000e+000
                       -0.000000000000000e+000 -0.000000000000000e+000 -0.000000000000000e+000 -0.000000000000000e+000 1.488961916403797e-004 -7.299536462134718e-004 9.955860001469179e-001 -7.676910293563287e-002
                       -0.000000000000000e+000 -0.000000000000000e+000 -0.000000000000000e+000 -0.000000000000000e+000 9.955860001469181e-001 -7.676910293563288e-002 1.488961916406018e-004 -7.299536462134858e-004
1.700000000000000e+008 1.921157564278575e-004 2.564873969645109e-005 9.952107971155290e-001 -8.070500689929674e-002 -0.000000000000000e+000 -0.000000000000000e+000 -0.000000000000000e+000 -0.000000000000000e+000
                       9.952107971155290e-001 -8.070500689929674e-002 1.921157564279685e-004 2.564873969645109e-005 -0.000000000000000e+000 -0.000000000000000e+000 -0.000000000000000e+000 -0.000000000000000e+000
                       -0.000000000000000e+000 -0.000000000000000e+000 -0.000000000000000e+000 -0.000000000000000e+000 1.268378831154049e-004 -7.717230780544873e-004 9.951455192422165e-001 -8.150237871704769e-002
                       -0.000000000000000e+000 -0.000000000000000e+000 -0.000000000000000e+000 -0.000000000000000e+000 9.951455192422166e-001 -8.150237871704770e-002 1.268378831154049e-004 -7.717230780544991e-004
1.800000000000000e+008 1.770024077423216e-004 3.140265490841164e-005 9.947564991767915e-001 -8.538699142713144e-002 -0.000000000000000e+000 -0.000000000000000e+000 -0.000000000000000e+000 -0.000000000000000e+000
                       9.947564991767917e-001 -8.538699142713144e-002 1.770024077422105e-004 3.140265490841164e-005 -0.000000000000000e+000 -0.000000000000000e+000 -0.000000000000000e+000 -0.000000000000000e+000
                       -0.000000000000000e+000 -0.000000000000000e+000 -0.000000000000000e+000 -0.000000000000000e+000 1.038788615258524e-004 -8.124688316270748e-004 9.946833756305753e-001 -8.623086291366691e-002
                       -0.000000000000000e+000 -0.000000000000000e+000 -0.000000000000000e+000 -0.000000000000000e+000 9.946833756305753e-001 -8.623086291366694e-002 1.038788615260744e-004 -8.124688316270883e-004
1.900000000000000e+008 1.615071938835255e-004 3.808780097615531e-005 9.942810010745043e-001 -9.006431500239111e-002 -0.000000000000000e+000 -0.000000000000000e+000 -0.000000000000000e+000 -0.000000000000000e+000
                       9.942810010745045e-001 -9.006431500239111e-002 1.615071938835255e-004 3.808780097615531e-005 -0.000000000000000e+000 -0.000000000000000e+000 -0.000000000000000e+000 -0.000000000000000e+000
                       -0.000000000000000e+000 -0.000000000000000e+000 -0.000000000000000e+000 -0.000000000000000e+000 8.009803078279365e-005 -8.522187508126751e-004 9.941995919114036e-001 -9.095462155417994e-002
                       -0.000000000000000e+000 -0.000000000000000e+000 -0.000000000000000e+000 -0.000000000000000e+000 9.941995919114036e-001 -9.095462155417994e-002 8.009803078279365e-005 -8.522187508126824e-004
2.000000000000000e+008 1.456963445650716e-004 4.566909012140388e-005 9.937843193525007e-001 -9.473703498964636e-002 -0.000000000000000e+000 -0.000000000000000e+000 -0.000000000000000e+000 -0.000000000000000e+000
                       9.937843193525007e-001 -9.473703498964636e-002 1.456963445651827e-004 4.566909012140388e-005 -0.000000000000000e+000 -0.000000000000000e+000 -0.000000000000000e+000 -0.000000000000000e+000
                       -0.000000000000000e+000 -0.000000000000000e+000 -0.000000000000000e+000 -0.000000000000000e+000 5.556234804426907e-005 -8.910049037108941e-004 9.936941853559798e-001 -9.567370898347866e-002
                       -0.000000000000000e+000 -0.000000000000000e+000 -0.000000000000000e+000 -0.000000000000000e+000 9.936941853559800e-001 -9.567370898347868e-002 5.556234804438009e-005 -8.910049037109143e-004
2.100000000000000e+008 1.296249330238197e-004 5.410962368971519e-005 9.932664652872506e-001 -9.940519680950902e-002 -0.000000000000000e+000 -0.000000000000000e+000 -0.000000000000000e+000 -0.000000000000000e+000
                       9.932664652872505e-001 -9.940519680950900e-002 1.296249330237087e-004 5.410962368971518e-005 -0.000000000000000e+000 -0.000000000000000e+000 -0.000000000000000e+000 -0.000000000000000e+000
                       -0.000000000000000e+000 -0.000000000000000e+000 -0.000000000000000e+000 -0.000000000000000e+000 3.032760699039905e-005 -9.288611692880997e-004 9.931671679612170e-001 -1.003881676024868e-001
                       -0.000000000000000e+000 -0.000000000000000e+000 -0.000000000000000e+000 -0.000000000000000e+000 9.931671679612169e-001 -1.003881676024868e-001 3.032760699028803e-005 -9.288611692881069e-004
2.200000000000000e+008 1.133380546359808e-004 6.337258130122740e-005 9.927274454643270e-001 -1.040688339092158e-001 -0.000000000000000e+000 -0.000000000000000e+000 -0.000000000000000e+000 -0.000000000000000e+000
                       9.927274454643269e-001 -1.040688339092158e-001 1.133380546358698e-004 6.337258130122740e-005 -0.000000000000000e+000 -0.000000000000000e+000 -0.000000000000000e+000 -0.000000000000000e+000
                       -0.000000000000000e+000 -0.000000000000000e+000 -0.000000000000000e+000 -0.000000000000000e+000 4.439620877372263e-006 -9.658213461616429e-004 9.926185470305684e-001 -1.050980278366787e-001
                       -0.000000000000000e+000 -0.000000000000000e+000 -0.000000000000000e+000 -0.000000000000000e+000 9.926185470305685e-001 -1.050980278366787e-001 4.439620877594308e-006 -9.658213461616501e-004
2.300000000000000e+008 9.687219056919716e-005 7.342260572415022e-005 9.921672626286676e-001 -1.087279679725225e-001 -0.000000000000000e+000 -0.000000000000000e+000 -0.000000000000000e+000 -0.000000000000000e+000
                       9.921672626286676e-001 -1.087279679725225e-001 9.687219056919716e-005 7.342260572415022e-005 -0.000000000000000e+000 -0.000000000000000e+000 -0.000000000000000e+000 -0.000000000000000e+000
                       -0.000000000000000e+000 -0.000000000000000e+000 -0.000000000000000e+000 -0.000000000000000e+000 -2.206440964480638e-005 -1.001917766677413e-003 9.920483260284537e-001 -1.098033083449240e-001
                       -0.000000000000000e+000 -0.000000000000000e+000 -0.000000000000000e+000 -0.000000000000000e+000 9.920483260284538e-001 -1.098033083449241e-001 -2.206440964469536e-005 -1.001917766677426e-003
2.400000000000000e+008 8.025660790789146e-005 8.422674380119109e-005 9.915859166383465e-001 -1.133826093411237e-001 -0.000000000000000e+000 -0.000000000000000e+000 -0.000000000000000e+000 -0.000000000000000e+000
