! Touchstone generated by fitter/viewer 
# HZ S  RI R 5.000000e+001
! 
1.000000000000000e+007 5.017730308321311e-003 1.045717622239337e-003 9.937011525357167e-001 -3.611658911504360e-002 9.937011525357167e-001 -3.611658911504360e-002 5.017730308321311e-003 1.045717622239337e-003
4.002002002002002e+007 6.357342703646740e-003 6.648110367378281e-004 9.814664740047675e-001 -1.379852291803374e-001 9.814664740047675e-001 -1.379852291803374e-001 6.357342703646740e-003 6.648110367378281e-004
7.004004004004005e+007 6.782648509965017e-003 -2.841398614852833e-005 9.599533489875067e-001 -2.366203835739376e-001 9.599533489875067e-001 -2.366203835739376e-001 6.782648509965017e-003 -2.841398614852833e-005
1.000600600600601e+008 6.832375494519538e-003 -7.133450977717950e-004 9.290645874180896e-001 -3.318925786796457e-001 9.290645874180896e-001 -3.318925786796457e-001 6.832375494519538e-003 -7.133450977717950e-004
1.300800800800801e+008 6.639800438719701e-003 -1.309910596394687e-003 8.890676763746489e-001 -4.231103984653358e-001 8.890676763746489e-001 -4.231103984653358e-001 6.639800438719701e-003 -1.309910596394687e-003
1.601001001001001e+008 6.296917254932088e-003 -1.773042639441660e-003 8.403898847083572e-001 -5.094895454368730e-001 8.403898847083572e-001 -5.094895454368730e-001 6.296917254932088e-003 -1.773042639441660e-003
1.901201201201201e+008 5.877597975350812e-003 -2.094296538590928e-003 7.835612550401322e-001 -5.902662742315064e-001 7.835612550401322e-001 -5.902662742315064e-001 5.877597975350812e-003 -2.094296538590928e-003
2.201401401401402e+008 5.433854275972760e-003 -2.285683010051866e-003 7.191851847637673e-001 -6.647213864706204e-001 7.191851847637673e-001 -6.647213864706204e-001 5.433854275972760e-003 -2.285683010051866e-003
2.501601601601602e+008 4.999847194130824e-003 -2.366440491257036e-003 6.479291672150861e-001 -7.321876825308686e-001 6.479291672150861e-001 -7.321876825308686e-001 4.999847194130824e-003 -2.366440491257036e-003
2.801801801801802e+008 4.597799534715175e-003 -2.357098809701321e-003 5.705211925764853e-001 -7.920573602197790e-001 5.705211925764853e-001 -7.920573602197790e-001 4.597799534715175e-003 -2.357098809701321e-003
3.102002002002002e+008 4.242206306647733e-003 -2.277859727207284e-003 4.877455951236043e-001 -8.437903530154606e-001 4.877455951236043e-001 -8.437903530154606e-001 4.242206306647733e-003 -2.277859727207284e-003
3.402202202202202e+008 3.941966774597350e-003 -2.148493393468729e-003 4.004369332059733e-001 -8.869222961647314e-001 4.004369332059733e-001 -8.869222961647314e-001 3.941966774597350e-003 -2.148493393468729e-003
3.702402402402402e+008 3.701172699353994e-003 -1.988320516471013e-003 3.094721735935700e-001 -9.210712370402387e-001 3.094721735935700e-001 -9.210712370402387e-001 3.701172699353994e-003 -1.988320516471013e-003
4.002602602602602e+008 3.519335599830753e-003 -1.815819805578752e-003 2.157617821712990e-001 -9.459427842801318e-001 2.157617821712990e-001 -9.459427842801318e-001 3.519335599830753e-003 -1.815819805578752e-003
4.302802802802803e+008 3.391578964979769e-003 -1.647876262510054e-003 1.202402295263484e-001 -9.613337086709496e-001 1.202402295263484e-001 -9.613337086709496e-001 3.391578964979769e-003 -1.647876262510054e-003
4.603003003003003e+008 3.309060646425777e-003 -1.498855297788203e-003 2.385625906215707e-002 -9.671341280244540e-001 2.385625906215707e-002 -9.671341280244540e-001 3.309060646425777e-003 -1.498855297788203e-003
4.903203203203203e+008 3.259704258972040e-003 -1.379706804388421e-003 -7.243686155396482e-002 -9.633284277840087e-001 -7.243686155396482e-002 -9.633284277840087e-001 3.259704258972040e-003 -1.379706804388421e-003
5.203403403403403e+008 3.229205893478415e-003 -1.297261743057105e-003 -1.676909653068727e-001 -9.499950506968449e-001 -1.676909653068727e-001 -9.499950506968449e-001 3.229205893478415e-003 -1.297261743057105e-003
5.503603603603604e+008 3.202224795899267e-003 -1.253825250094170e-003 -2.609723921012745e-001 -9.273052622514730e-001 -2.609723921012745e-001 -9.273052622514730e-001 3.202224795899267e-003 -1.253825250094170e-003
5.803803803803804e+008 3.163645441297103e-003 -1.247113965990057e-003 -3.513711043969929e-001 -8.955209753579423e-001 -3.513711043969929e-001 -8.955209753579423e-001 3.163645441297103e-003 -1.247113965990057e-003
6.104004004004004e+008 3.099799824204608e-003 -1.270538549617597e-003 -4.380094506469283e-001 -8.549917012066863e-001 -4.380094506469283e-001 -8.549917012066863e-001 3.099799824204608e-003 -1.270538549617597e-003
6.404204204204204e+008 2.999553286779810e-003 -1.313797142754613e-003 -5.200505189905611e-001 -8.061506832374774e-001 -5.200505189905611e-001 -8.061506832374774e-001 2.999553286779810e-003 -1.313797142754613e-003
6.704404404404404e+008 2.855178459401975e-003 -1.363721490265019e-003 -5.967060249595841e-001 -7.495102664170362e-001 -5.967060249595841e-001 -7.495102664170362e-001 2.855178459401975e-003 -1.363721490265019e-003
7.004604604604604e+008 2.662965713260745e-003 -1.405303156348025e-003 -6.672436775956631e-001 -6.856565531214354e-001 -6.672436775956631e-001 -6.856565531214354e-001 2.662965713260745e-003 -1.405303156348025e-003
7.304804804804804e+008 2.423542220408637e-003 -1.422821150389718e-003 -7.309939694190702e-001 -6.152433985821808e-001 -7.309939694190702e-001 -6.152433985821808e-001 2.423542220408637e-003 -1.422821150389718e-003
7.605005005005004e+008 2.141893597669253e-003 -1.400992619730165e-003 -7.873563375929308e-001 -5.389858020866435e-001 -7.873563375929308e-001 -5.389858020866435e-001 2.141893597669253e-003 -1.400992619730165e-003
7.905205205205205e+008 1.827101188936586e-003 -1.326073542223894e-003 -8.358046465487188e-001 -4.576527541897099e-001 -8.358046465487188e-001 -4.576527541897099e-001 1.827101188936586e-003 -1.326073542223894e-003
8.205405405405406e+008 1.491823805110148e-003 -1.186845205958034e-003 -8.758919462556164e-001 -3.720596045769882e-001 -8.758919462556164e-001 -3.720596045769882e-001 1.491823805110148e-003 -1.186845205958034e-003
8.505605605605606e+008 1.151565002776356e-003 -9.754335450653975e-004 -9.072544651377726e-001 -2.830600195689142e-001 -9.072544651377726e-001 -2.830600195689142e-001 1.151565002776356e-003 -9.754335450653975e-004
8.805805805805806e+008 8.237757625282338e-004 -6.879211485616332e-004 -9.296148022557474e-001 -1.915376023355762e-001 -9.296148022557474e-001 -1.915376023355762e-001 8.237757625282338e-004 -6.879211485616332e-004
9.106006006006006e+008 5.268478798141629e-004 -3.247251830867837e-004 -9.427842896621591e-001 -9.839725254689720e-002 -9.427842896621591e-001 -9.839725254689720e-002 5.268478798141629e-004 -3.247251830867837e-004
9.406206206206206e+008 2.790557417079453e-004 1.092720760381534e-004 -9.466645027200227e-001 -4.556345301731013e-003 -9.466645027200227e-001 -4.556345301731013e-003 2.790557417079453e-004 1.092720760381534e-004
9.706406406406406e+008 9.750371778793898e-005 6.048404552612967e-004 -9.412479035515682e-001 8.906418832299934e-002 -9.412479035515682e-001 8.906418832299934e-002 9.750371778793898e-005 6.048404552612967e-004
1.000660660660661e+009 -2.866541485069263e-006 1.148755156942787e-003 -9.266176105888018e-001 1.815487949597529e-001 -9.266176105888018e-001 1.815487949597529e-001 -2.866541485069263e-006 1.148755156942787e-003
1.030680680680681e+009 -1.015969354223323e-005 1.724363670102583e-003 -9.029462953484356e-001 2.719961616939567e-001 -9.029462953484356e-001 2.719961616939567e-001 -1.015969354223323e-005 1.724363670102583e-003
1.060700700700701e+009 8.374113624243229e-005 2.312334701711256e-003 -8.704942159702770e-001 3.595279224786601e-001 -8.704942159702770e-001 3.595279224786601e-001 8.374113624243229e-005 2.312334701711256e-003
1.090720720720721e+009 2.826276132462668e-004 2.891550104220620e-003 -8.296064056449272e-001 4.432971235261190e-001 -8.296064056449272e-001 4.432971235261190e-001 2.826276132462668e-004 2.891550104220620e-003
1.120740740740741e+009 5.856294753654456e-004 3.440095309366014e-003 -7.807090427038947e-001 5.224963646231958e-001 -7.807090427038947e-001 5.224963646231958e-001 5.856294753654456e-004 3.440095309366014e-003
1.150760760760761e+009 9.871023820404723e-004 3.936300358476587e-003 -7.243050377272284e-001 5.963655359488362e-001 -7.243050377272284e-001 5.963655359488362e-001 9.871023820404723e-004 3.936300358476587e-003
1.180780780780781e+009 1.476744529985807e-003 4.359782288711532e-003 -6.609688814009088e-001 6.641990736140254e-001 -6.609688814009088e-001 6.641990736140254e-001 1.476744529985807e-003 4.359782288711532e-003
1.210800800800801e+009 2.039935993602304e-003 4.692440373777427e-003 -5.913408048788197e-001 7.253526617929123e-001 -5.913408048788197e-001 7.253526617929123e-001 2.039935993602304e-003 4.692440373777427e-003
1.240820820820821e+009 2.658284987282267e-003 4.919358444126738e-003 -5.161203119186109e-001 7.792493149345250e-001 -5.161203119186109e-001 7.792493149345250e-001 2.658284987282267e-003 4.919358444126738e-003
1.270840840840841e+009 3.310356323769415e-003 5.029573079524729e-003 -4.360591489166961e-001 8.253847800736307e-001 -4.360591489166961e-001 8.253847800736307e-001 3.310356323769415e-003 5.029573079524729e-003
1.300860860860861e+009 3.972549582980767e-003 5.016672669052062e-003 -3.519537850255265e-001 8.633322066019636e-001 -3.519537850255265e-001 8.633322066019636e-001 3.972549582980767e-003 5.016672669052062e-003
1.330880880880881e+009 4.620088192122562e-003 4.879199907062146e-003 -2.646374796751777e-001 8.927460388950125e-001 -2.646374796751777e-001 8.927460388950125e-001 4.620088192122562e-003 4.879199907062146e-003
1.360900900900901e+009 5.228075980124536e-003 4.620838926464885e-003 -1.749720189455140e-001 9.133650957693240e-001 -1.749720189455140e-001 9.133650957693240e-001 5.228075980124536e-003 4.620838926464885e-003
1.390920920920921e+009 5.772574974230116e-003 4.250377612749253e-003 -8.383920527973851e-002 9.250148097091071e-001 -8.383920527973851e-002 9.250148097091071e-001 5.772574974230116e-003 4.250377612749253e-003
1.420940940940941e+009 6.231657351064013e-003 3.781445316887976e-003 7.867813036493110e-003 9.276086079787518e-001 7.867813036493110e-003 9.276086079787518e-001 6.231657351064013e-003 3.781445316887976e-003
1.450960960960961e+009 6.586385560918173e-003 3.232035803832464e-003 9.925328538012893e-002 9.211484269596846e-001 9.925328538012893e-002 9.211484269596846e-001 6.586385560918173e-003 3.232035803832464e-003
1.480980980980981e+009 6.821677658557901e-003 2.623834449486607e-003 1.894275882746531e-001 9.057243601548780e-001 1.894275882746531e-001 9.057243601548780e-001 6.821677658557901e-003 2.623834449486607e-003
1.511001001001001e+009 6.927019667698264e-003 1.981377064229873e-003 2.775158550970669e-001 8.815134491478255e-001 2.775158550970669e-001 8.815134491478255e-001 6.927019667698264e-003 1.981377064229873e-003
1.541021021021021e+009 6.896993180636413e-003 1.331074939011571e-003 3.626664224167255e-001 8.487776352637512e-001 3.626664224167255e-001 8.487776352637512e-001 6.896993180636413e-003 1.331074939011571e-003
1.571041041041041e+009 6.731594087805881e-003 7.001464902340154e-004 4.440590123491217e-001 8.078608976653965e-001 4.440590123491217e-001 8.078608976653965e-001 6.731594087805881e-003 7.001464902340154e-004
1.601061061061061e+009 6.436327030426403e-003 1.154999889481042e-004 5.209125739781245e-001 7.591856110599243e-001 5.209125739781245e-001 7.591856110599243e-001 6.436327030426403e-003 1.154999889481042e-004
1.631081081081081e+009 6.022069519103224e-003 -3.973858681779348e-004 5.924927111546601e-001 7.032481630621582e-001 5.924927111546601e-001 7.032481630621582e-001 6.022069519103224e-003 -3.973858681779348e-004
1.661101101101101e+009 5.504709282243225e-003 -8.155364472444298e-004 6.581186287141549e-001 6.406138775439561e-001 6.581186287141549e-001 6.406138775439561e-001 5.504709282243225e-003 -8.155364472444298e-004
1.691121121121121e+009 4.904567909469026e-003 -1.119465231222840e-003 7.171695342808876e-001 5.719112960124506e-001 7.171695342808876e-001 5.719112960124506e-001 4.904567909469026e-003 -1.119465231222840e-003
1.721141141141141e+009 4.245632850003123e-003 -1.294025436418866e-003 7.690904382757813e-001 4.978258742282393e-001 7.690904382757813e-001 4.978258742282393e-001 4.245632850003123e-003 -1.294025436418866e-003
1.751161161161161e+009 3.554627946846356e-003 -1.329092426103285e-003 8.133973004684553e-001 4.190931559322403e-001 8.133973004684553e-001 4.190931559322403e-001 3.554627946846356e-003 -1.329092426103285e-003
1.781181181181181e+009 2.859959600882589e-003 -1.220046934718745e-003 8.496814773897509e-001 3.364914897296973e-001 8.496814773897509e-001 3.364914897296973e-001 2.859959600882589e-003 -1.220046934718745e-003
1.811201201201201e+009 2.190581078297393e-003 -9.680371650544672e-004 8.776134311420114e-001 2.508343589058453e-001 8.776134311420114e-001 2.508343589058453e-001 2.190581078297393e-003 -9.680371650544672e-004
1.841221221221221e+009 1.574821171893670e-003 -5.800068177648722e-004 8.969456666199698e-001 1.629623972295997e-001 8.969456666199698e-001 1.629623972295997e-001 1.574821171893670e-003 -5.800068177648722e-004
1.871241241241241e+009 1.039225242053021e-003 -6.848569517362521e-005 9.075148709017833e-001 7.373516662970714e-002 9.075148709017833e-001 7.373516662970714e-002 1.039225242053021e-003 -6.848569517362521e-005
1.901261261261261e+009 6.074565111643393e-004 5.488506991101014e-004 9.092432356042621e-001 -1.597722502835961e-002 9.092432356042621e-001 -1.597722502835961e-002 6.074565111643393e-004 5.488506991101014e-004
1.931281281281281e+009 2.993033604216100e-004 1.249836566053472e-003 9.021389503273349e-001 -1.053025860278569e-001 9.021389503273349e-001 -1.053025860278569e-001 2.993033604216100e-004 1.249836566053472e-003
1.961301301301301e+009 1.298343544028358e-004 2.008661243475596e-003 8.862958629335599e-001 -1.933751015063231e-001 8.862958629335599e-001 -1.933751015063231e-001 1.298343544028358e-004 2.008661243475596e-003
1.991321321321321e+009 1.087369495421653e-004 2.796871675503957e-003 8.618923102905103e-001 -2.793437110168595e-001 8.618923102905103e-001 -2.793437110168595e-001 1.087369495421653e-004 2.796871675503957e-003
2.021341341341341e+009 2.398685534606981e-004 3.584492226692751e-003 8.291891311926385e-001 -3.623803214258523e-001 8.291891311926385e-001 -3.623803214258523e-001 2.398685534606981e-004 3.584492226692751e-003
2.051361361361361e+009 5.210400838542295e-004 4.341217037488823e-003 7.885268813924217e-001 -4.416877747204112e-001 7.885268813924217e-001 -4.416877747204112e-001 5.210400838542295e-004 4.341217037488823e-003
2.081381381381381e+009 9.440427725835310e-004 5.037626821321074e-003 7.403222788987282e-001 -5.165074923058742e-001 7.403222788987282e-001 -5.165074923058742e-001 9.440427725835310e-004 5.037626821321074e-003
2.111401401401401e+009 1.494919056738042e-003 5.646380669515464e-003 6.850639158107834e-001 -5.861267203405259e-001 6.850639158107834e-001 -5.861267203405259e-001 1.494919056738042e-003 5.646380669515464e-003
2.141421421421421e+009 2.154468401632470e-003 6.143334125425479e-003 6.233072807986093e-001 -6.498853045988465e-001 6.233072807986093e-001 -6.498853045988465e-001 2.154468401632470e-003 6.143334125425479e-003
2.171441441441442e+009 2.898969225326065e-003 6.508537495677044e-003 5.556691437563259e-001 -7.071819282588896e-001 5.556691437563259e-001 -7.071819282588896e-001 2.898969225326065e-003 6.508537495677044e-003
2.201461461461462e+009 3.701089143603231e-003 6.727072981614477e-003 4.828213609841421e-001 -7.574797518215390e-001 4.828213609841421e-001 -7.574797518215390e-001 3.701089143603231e-003 6.727072981614477e-003
2.231481481481482e+009 4.530947902880445e-003 6.789695554361258e-003 4.054841653496799e-001 -8.003114010006024e-001 4.054841653496799e-001 -8.003114010006024e-001 4.530947902880445e-003 6.789695554361258e-003
2.261501501501502e+009 5.357290945638416e-003 6.693250305522651e-003 3.244190111106682e-001 -8.352832557520106e-001 3.244190111106682e-001 -8.352832557520106e-001 5.357290945638416e-003 6.693250305522651e-003
2.291521521521522e+009 6.148726828668516e-003 6.440847963374672e-003 2.404210473479152e-001 -8.620790014906390e-001 2.404210473479152e-001 -8.620790014906390e-001 6.148726828668516e-003 6.440847963374672e-003
2.321541541541542e+009 6.874978887483230e-003 6.041790003733440e-003 1.543112971939024e-001 -8.804624118082947e-001 1.543112971939024e-001 -8.804624118082947e-001 6.874978887483230e-003 6.041790003733440e-003
2.351561561561562e+009 7.508100730052481e-003 5.511244905499566e-003 6.692862221925267e-002 -8.902793404824856e-001 6.692862221925267e-002 -8.902793404824856e-001 7.508100730052481e-003 5.511244905499566e-003
2.381581581581582e+009 8.023606384689686e-003 4.869687187687689e-003 -2.087844753281710e-002 -8.914589090799441e-001 -2.087844753281710e-002 -8.914589090799441e-001 8.023606384689686e-003 4.869687187687689e-003
2.411601601601602e+009 8.401469170478904e-003 4.142120504732547e-003 -1.082599372488386e-001 -8.840138848511883e-001 -1.082599372488386e-001 -8.840138848511883e-001 8.401469170478904e-003 4.142120504732547e-003
2.441621621621622e+009 8.626948471847196e-003 3.357114876923348e-003 -1.943726249694686e-001 -8.680402517430383e-001 -1.943726249694686e-001 -8.680402517430383e-001 8.626948471847196e-003 3.357114876923348e-003
2.471641641641642e+009 8.691210373580782e-003 2.545695735866797e-003 -2.783881349458643e-001 -8.437159851131240e-001 -2.783881349458643e-001 -8.437159851131240e-001 8.691210373580782e-003 2.545695735866797e-003
2.501661661661662e+009 8.591716273998684e-003 1.740128564024509e-003 -3.595008508716318e-001 -8.112990480346988e-001 -3.595008508716318e-001 -8.112990480346988e-001 8.591716273998684e-003 1.740128564024509e-003
2.531681681681682e+009 8.332362812842886e-003 9.726472577614942e-004 -4.369355760566550e-001 -7.711246338859338e-001 -4.369355760566550e-001 -7.711246338859338e-001 8.332362812842886e-003 9.726472577614942e-004
2.561701701701702e+009 7.923366356443196e-003 2.741767712326259e-004 -5.099548710062656e-001 -7.236016862121706e-001 -5.099548710062656e-001 -7.236016862121706e-001 7.923366356443196e-003 2.741767712326259e-004
2.591721721721722e+009 7.380895479949579e-003 -3.268989928017521e-004 -5.778660026403549e-001 -6.692087326475473e-001 -5.778660026403549e-001 -6.692087326475473e-001 7.380895479949579e-003 -3.268989928017521e-004
2.621741741741742e+009 6.726464968754398e-003 -8.058747060344801e-004 -6.400274434536087e-001 -6.084890750202960e-001 -6.400274434536087e-001 -6.084890750202960e-001 6.726464968754398e-003 -8.058747060344801e-004
2.651761761761762e+009 5.986114428138234e-003 -1.142720811406120e-003 -6.958548632266463e-001 -5.420453826935090e-001 -6.958548632266463e-001 -5.420453826935090e-001 5.986114428138234e-003 -1.142720811406120e-003
2.681781781781782e+009 5.189403261935732e-003 -1.322900084165613e-003 -7.448265604236057e-001 -4.705337407634235e-001 -7.448265604236057e-001 -4.705337407634235e-001 5.189403261935732e-003 -1.322900084165613e-003
2.711801801801802e+009 4.368261212988389e-003 -1.337970298051471e-003 -7.864882851563760e-001 -3.946572089973597e-001 -7.864882851563760e-001 -3.946572089973597e-001 4.368261212988389e-003 -1.337970298051471e-003
2.741821821821822e+009 3.555739553636195e-003 -1.185948132187294e-003 -8.204574105832106e-001 -3.151589513767551e-001 -8.204574105832106e-001 -3.151589513767551e-001 3.555739553636195e-003 -1.185948132187294e-003
2.771841841841842e+009 2.784712136058687e-003 -8.714188651998576e-004 -8.464264148811891e-001 -2.328149998279134e-001 -8.464264148811891e-001 -2.328149998279134e-001 2.784712136058687e-003 -8.714188651998576e-004
2.801861861861862e+009 2.086577690827429e-003 -4.053864611130748e-004 -8.641656415357708e-001 -1.484267191607554e-001 -8.641656415357708e-001 -1.484267191607554e-001 2.086577690827429e-003 -4.053864611130748e-004
