! Touchstone generated by fitter/viewer 
# HZ S  RI R 5.000000e+001
! 
1.000000000000000e+007 -1.222597910113255e-004 -7.608768421933225e-004 9.988430751371271e-001 -3.429379533593643e-002 9.988430751371271e-001 -3.429379533593643e-002 -1.222597910113255e-004 -7.608768421933225e-004
4.002002002002002e+007 -1.163619487745793e-003 -2.182631086869207e-003 9.890216597489735e-001 -1.350680022297313e-001 9.890216597489735e-001 -1.350680022297313e-001 -1.163619487745793e-003 -2.182631086869207e-003
7.004004004004005e+007 -2.441054554449984e-003 -2.907344228075102e-003 9.692955286918266e-001 -2.336126348645089e-001 9.692955286918266e-001 -2.336126348645089e-001 -2.441054554449984e-003 -2.907344228075102e-003
1.000600600600601e+008 -3.770408240841849e-003 -3.136143473324366e-003 9.399331207088316e-001 -3.292871932574920e-001 9.399331207088316e-001 -3.292871932574920e-001 -3.770408240841849e-003 -3.136143473324366e-003
1.300800800800801e+008 -5.071124587568976e-003 -2.949981395821710e-003 9.012611765967037e-001 -4.212549082816151e-001 9.012611765967037e-001 -4.212549082816151e-001 -5.071124587568976e-003 -2.949981395821710e-003
1.601001001001001e+008 -6.259223741913678e-003 -2.397989420974438e-003 8.537166901797579e-001 -5.086557081783599e-001 8.537166901797579e-001 -5.086557081783599e-001 -6.259223741913678e-003 -2.397989420974438e-003
1.901201201201201e+008 -7.259586397685869e-003 -1.543237178887416e-003 7.978252752584876e-001 -5.906739408462848e-001 7.978252752584876e-001 -5.906739408462848e-001 -7.259586397685869e-003 -1.543237178887416e-003
2.201401401401402e+008 -8.019593286727522e-003 -4.589831637247329e-004 7.341817070765100e-001 -6.665487437264649e-001 7.341817070765100e-001 -6.665487437264649e-001 -8.019593286727522e-003 -4.589831637247329e-004
2.501601601601602e+008 -8.508690270034647e-003 7.803763962221657e-004 6.634443918825924e-001 -7.355762505608741e-001 6.634443918825924e-001 -7.355762505608741e-001 -8.508690270034647e-003 7.803763962221657e-004
2.801801801801802e+008 -8.713822256150472e-003 2.103931112261981e-003 5.863334095793166e-001 -7.971146785289331e-001 5.863334095793166e-001 -7.971146785289331e-001 -8.713822256150472e-003 2.103931112261981e-003
3.102002002002002e+008 -8.635567515481446e-003 3.445711683514127e-003 5.036271685655311e-001 -8.505915858680038e-001 5.036271685655311e-001 -8.505915858680038e-001 -8.635567515481446e-003 3.445711683514127e-003
3.402202202202202e+008 -8.285808566401709e-003 4.745105948090676e-003 4.161567121151026e-001 -8.955113492264873e-001 4.161567121151026e-001 -8.955113492264873e-001 -8.285808566401709e-003 4.745105948090676e-003
3.702402402402402e+008 -7.686411592256803e-003 5.947361631853139e-003 3.247981285355178e-001 -9.314617007795953e-001 3.247981285355178e-001 -9.314617007795953e-001 -7.686411592256803e-003 5.947361631853139e-003
4.002602602602602e+008 -6.868241197450553e-003 7.004482259135695e-003 2.304637439446449e-001 -9.581188830220113e-001 2.304637439446449e-001 -9.581188830220113e-001 -6.868241197450553e-003 7.004482259135695e-003
4.302802802802803e+008 -5.870053023688149e-003 7.876415656638609e-003 1.340926418336481e-001 -9.752513574660767e-001 1.340926418336481e-001 -9.752513574660767e-001 -5.870053023688149e-003 7.876415656638609e-003
4.603003003003003e+008 -4.737048681450640e-003 8.532300095131520e-003 3.664087655438236e-002 -9.827221516058208e-001 3.664087655438236e-002 -9.827221516058208e-001 -4.737048681450640e-003 8.532300095131520e-003
4.903203203203203e+008 -3.519055006230509e-003 8.951533679540134e-003 -6.092838475724169e-002 -9.804899639798217e-001 -6.092838475724169e-002 -9.804899639798217e-001 -3.519055006230509e-003 8.951533679540134e-003
5.203403403403403e+008 -2.268397948909984e-003 9.124486701319221e-003 -1.576546395899082e-001 -9.686091390669274e-001 -1.576546395899082e-001 -9.686091390669274e-001 -2.268397948909984e-003 9.124486701319221e-003
5.503603603603604e+008 -1.037596951160458e-003 9.052744305084015e-003 -2.525896403908623e-001 -9.472286046317487e-001 -2.525896403908623e-001 -9.472286046317487e-001 -1.037596951160458e-003 9.052744305084015e-003
5.803803803803804e+008 1.229744546168421e-004 8.748830595956658e-003 -3.448067149644967e-001 -9.165898468208873e-001 -3.448067149644967e-001 -9.165898468208873e-001 1.229744546168421e-004 8.748830595956658e-003
6.104004004004004e+008 1.167318822582475e-003 8.235418708541964e-003 -4.334097454768883e-001 -8.770239864943092e-001 -4.334097454768883e-001 -8.770239864943092e-001 1.167318822582475e-003 8.235418708541964e-003
6.404204204204204e+008 2.055809087419980e-003 7.544072737904599e-003 -5.175417401804333e-001 -8.289480139517989e-001 -5.175417401804333e-001 -8.289480139517989e-001 2.055809087419980e-003 7.544072737904599e-003
6.704404404404404e+008 2.756844168434802e-003 6.713597233644151e-003 -5.963929353181895e-001 -7.728602371459605e-001 -5.963929353181895e-001 -7.728602371459605e-001 2.756844168434802e-003 6.713597233644151e-003
7.004604604604604e+008 3.248090389795011e-003 5.788089424065468e-003 -6.692083676572309e-001 -7.093349992373825e-001 -6.692083676572309e-001 -7.093349992373825e-001 3.248090389795011e-003 5.788089424065468e-003
7.304804804804804e+008 3.517261298732199e-003 4.814799958638684e-003 -7.352948615696349e-001 -6.390167237230743e-001 -7.352948615696349e-001 -6.390167237230743e-001 3.517261298732199e-003 4.814799958638684e-003
7.605005005005004e+008 3.562415529352547e-003 3.841911221262549e-003 -7.940273787776288e-001 -5.626133484472187e-001 -7.940273787776288e-001 -5.626133484472187e-001 3.562415529352547e-003 3.841911221262549e-003
7.905205205205205e+008 3.391777270787988e-003 2.916339552787178e-003 -8.448546837538911e-001 -4.808892129796461e-001 -8.448546837538911e-001 -4.808892129796461e-001 3.391777270787988e-003 2.916339552787178e-003
8.205405405405406e+008 3.023105938750104e-003 2.081660259345563e-003 -8.873042831396567e-001 -3.946574667735524e-001 -8.873042831396567e-001 -3.946574667735524e-001 3.023105938750104e-003 2.081660259345563e-003
8.505605605605606e+008 2.482660394610203e-003 1.376243151240376e-003 -9.209866032101959e-001 -3.047720680331927e-001 -9.209866032101959e-001 -3.047720680331927e-001 2.482660394610203e-003 1.376243151240376e-003
8.805805805805806e+008 1.803818278460656e-003 8.316724938812740e-004 -9.455983752116808e-001 -2.121194453085858e-001 -9.455983752116808e-001 -2.121194453085858e-001 1.803818278460656e-003 8.316724938812740e-004
9.106006006006006e+008 1.025422628629702e-003 4.715094772772266e-004 -9.609252042090316e-001 -1.176098955378145e-001 -9.609252042090316e-001 -1.176098955378145e-001 1.025422628629702e-003 4.715094772772266e-004
9.406206206206206e+008 1.899359496804198e-004 3.104383476369023e-004 -9.668433028817461e-001 -2.216879365970040e-002 -9.668433028817461e-001 -2.216879365970040e-002 1.899359496804198e-004 3.104383476369023e-004
9.706406406406406e+008 -6.585136663708191e-004 3.538198421334860e-004 -9.633203775054382e-001 7.327230990129834e-002 -9.633203775054382e-001 7.327230990129834e-002 -6.585136663708191e-004 3.538198421334860e-004
1.000660660660661e+009 -1.476108737606285e-003 5.976581155531333e-004 -9.504156592275352e-001 1.677846265698887e-001 -9.504156592275352e-001 1.677846265698887e-001 -1.476108737606285e-003 5.976581155531333e-004
1.030680680680681e+009 -2.221257495756523e-003 1.028970487396407e-003 -9.282790797797025e-001 2.604510236251302e-001 -9.282790797797025e-001 2.604510236251302e-001 -2.221257495756523e-003 1.028970487396407e-003
1.060700700700701e+009 -2.856369702172623e-003 1.626533569889900e-003 -8.971495970657856e-001 3.503747960921135e-001 -8.971495970657856e-001 3.503747960921135e-001 -2.856369702172623e-003 1.626533569889900e-003
1.090720720720721e+009 -3.349422915561284e-003 2.361965119049364e-003 -8.573526827072061e-001 4.366882373973983e-001 -8.573526827072061e-001 4.366882373973983e-001 -3.349422915561284e-003 2.361965119049364e-003
1.120740740740741e+009 -3.675259250180529e-003 3.201088693505776e-003 -8.092969906710140e-001 5.185609297524924e-001 -8.092969906710140e-001 5.185609297524924e-001 -3.675259250180529e-003 3.201088693505776e-003
1.150760760760761e+009 -3.816564924673083e-003 4.105518265431814e-003 -7.534702335575286e-001 5.952076759002053e-001 -7.534702335575286e-001 5.952076759002053e-001 -3.816564924673083e-003 4.105518265431814e-003
1.180780780780781e+009 -3.764498667672145e-003 5.034392595292057e-003 -6.904343009397177e-001 6.658959952829431e-001 -6.904343009397177e-001 6.658959952829431e-001 -3.764498667672145e-003 5.034392595292057e-003
1.210800800800801e+009 -3.518949812546079e-003 5.946184670842970e-003 -6.208196622235551e-001 7.299531100347435e-001 -6.208196622235551e-001 7.299531100347435e-001 -3.518949812546079e-003 5.946184670842970e-003
1.240820820820821e+009 -3.088422140762992e-003 6.800509945938008e-003 -5.453191046821715e-001 7.867723496014238e-001 -5.453191046821715e-001 7.867723496014238e-001 -3.088422140762992e-003 6.800509945938008e-003
1.270840840840841e+009 -2.489554661625926e-003 7.559858523656754e-003 -4.646808654049853e-001 8.358189073579503e-001 -4.646808654049853e-001 8.358189073579503e-001 -2.489554661625926e-003 7.559858523656754e-003
1.300860860860861e+009 -1.746304983728519e-003 8.191180734099810e-003 -3.797012236610688e-001 8.766348883683252e-001 -3.797012236610688e-001 8.766348883683252e-001 -1.746304983728519e-003 8.191180734099810e-003
1.330880880880881e+009 -8.888341972730363e-004 8.667262576566723e-003 -2.912166273508604e-001 9.088435944087686e-001 -2.912166273508604e-001 9.088435944087686e-001 -8.888341972730363e-004 8.667262576566723e-003
1.360900900900901e+009 4.785625628989099e-005 8.967836941574242e-003 -2.000954335598536e-001 9.321530004716885e-001 -2.000954335598536e-001 9.321530004716885e-001 4.785625628989099e-005 8.967836941574242e-003
1.390920920920921e+009 1.025475840446988e-003 9.080388017169405e-003 -1.072293484991555e-001 9.463583860438904e-001 -1.072293484991555e-001 9.463583860438904e-001 1.025475840446988e-003 9.080388017169405e-003
1.420940940940941e+009 2.004117513537351e-003 9.000619350421438e-003 -1.352465612462564e-002 9.513440943085539e-001 -1.352465612462564e-002 9.513440943085539e-001 2.004117513537351e-003 9.000619350421438e-003
1.450960960960961e+009 2.943980719077866e-003 8.732570148081360e-003 8.010667267559901e-002 9.470844028123931e-001 8.010667267559901e-002 9.470844028123931e-001 2.943980719077866e-003 8.732570148081360e-003
1.480980980980981e+009 3.807072613046691e-003 8.288378986389469e-003 1.727558973281274e-001 9.336434997935463e-001 1.727558973281274e-001 9.336434997935463e-001 3.807072613046691e-003 8.288378986389469e-003
1.511001001001001e+009 4.558817073087695e-003 7.687708566406797e-003 2.635263586562386e-001 9.111745709973876e-001 2.635263586562386e-001 9.111745709973876e-001 4.558817073087695e-003 7.687708566406797e-003
1.541021021021021e+009 5.169505587984791e-003 6.956858912703037e-003 3.515421730449250e-001 8.799180121398234e-001 3.515421730449250e-001 8.799180121398234e-001 5.169505587984791e-003 6.956858912703037e-003
1.571041041041041e+009 5.615531313517663e-003 6.127608916975880e-003 4.359566821182636e-001 8.401987919603429e-001 4.359566821182636e-001 8.401987919603429e-001 5.615531313517663e-003 6.127608916975880e-003
1.601061061061061e+009 5.880357085321197e-003 5.235836877816994e-003 5.159605747033442e-001 7.924229998314890e-001 5.159605747033442e-001 7.924229998314890e-001 5.880357085321197e-003 5.235836877816994e-003
1.631081081081081e+009 5.955179590546700e-003 4.319979264197011e-003 5.907896031564661e-001 7.370736200028843e-001 5.907896031564661e-001 7.370736200028843e-001 5.955179590546700e-003 4.319979264197011e-003
1.661101101101101e+009 5.839264734468053e-003 3.419393008119341e-003 6.597318221574298e-001 6.747055816627220e-001 6.597318221574298e-001 6.747055816627220e-001 5.839264734468053e-003 3.419393008119341e-003
1.691121121121121e+009 5.539942960139710e-003 2.572689992151292e-003 7.221342846062985e-001 6.059401400662037e-001 7.221342846062985e-001 6.059401400662037e-001 5.539942960139710e-003 2.572689992151292e-003
1.721141141141141e+009 5.072267324478852e-003 1.816112934187807e-003 7.774091360683529e-001 5.314586490364924e-001 7.774091360683529e-001 5.314586490364924e-001 5.072267324478852e-003 1.816112934187807e-003
1.751161161161161e+009 4.458350933317923e-003 1.182019593827788e-003 8.250390561231050e-001 4.519957892662231e-001 8.250390561231050e-001 4.519957892662231e-001 4.458350933317923e-003 1.182019593827788e-003
1.781181181181181e+009 3.726413339226631e-003 6.975372534094807e-004 8.645820018397600e-001 3.683323201513934e-001 8.645820018397600e-001 3.683323201513934e-001 3.726413339226631e-003 6.975372534094807e-004
1.811201201201201e+009 2.909577196531177e-003 3.834419883708543e-004 8.956752153326478e-001 2.812874255104456e-001 8.956752153326478e-001 2.812874255104456e-001 2.909577196531177e-003 3.834419883708543e-004
1.841221221221221e+009 2.044466393148370e-003 2.533076566356458e-004 9.180384639063324e-001 1.917107256206829e-001 9.180384639063324e-001 1.917107256206829e-001 2.044466393148370e-003 2.533076566356458e-004
1.871241241241241e+009 1.169664658044578e-003 3.129582060622304e-004 9.314764876910179e-001 1.004740296715172e-001 9.314764876910179e-001 1.004740296715172e-001 1.169664658044578e-003 3.129582060622304e-004
1.901261261261261e+009 3.240989830330943e-004 5.602442874489593e-004 9.358806359464630e-001 8.462904092725758e-003 9.358806359464630e-001 8.462904092725758e-003 3.240989830330943e-004 5.602442874489593e-004
1.931281281281281e+009 -4.545850979327248e-004 9.851517790537825e-004 9.312296794588993e-001 -8.343186666804198e-002 9.312296794588993e-001 -8.343186666804198e-002 -4.545850979327248e-004 9.851517790537825e-004
1.961301301301301e+009 -1.131589352445950e-003 1.570236214663086e-003 9.175897927683362e-001 -1.743228494494713e-001 9.175897927683362e-001 -1.743228494494713e-001 -1.131589352445950e-003 1.570236214663086e-003
1.991321321321321e+009 -1.676405534634773e-003 2.291363805270587e-003 8.951137064412877e-001 -2.633344836459886e-001 8.951137064412877e-001 -2.633344836459886e-001 -1.676405534634773e-003 2.291363805270587e-003
2.021341341341341e+009 -2.064075962069811e-003 3.118727285259544e-003 8.640390363286133e-001 -3.496114759957447e-001 8.640390363286133e-001 -3.496114759957447e-001 -2.064075962069811e-003 3.118727285259544e-003
2.051361361361361e+009 -2.276220740370816e-003 4.018093695030113e-003 8.246858037725577e-001 -4.323269905354168e-001 8.246858037725577e-001 -4.323269905354168e-001 -2.276220740370816e-003 4.018093695030113e-003
2.081381381381381e+009 -2.301790153844019e-003 4.952231878108585e-003 7.774531680627234e-001 -5.106905560232011e-001 7.774531680627234e-001 -5.106905560232011e-001 -2.301790153844019e-003 4.952231878108585e-003
2.111401401401401e+009 -2.137512162194266e-003 5.882460296430168e-003 7.228154000511103e-001 -5.839556144873602e-001 7.228154000511103e-001 -5.839556144873602e-001 -2.137512162194266e-003 5.882460296430168e-003
2.141421421421421e+009 -1.788017558230992e-003 6.770251041457837e-003 6.613171336343664e-001 -6.514266367570418e-001 6.613171336343664e-001 -6.514266367570418e-001 -1.788017558230992e-003 6.770251041457837e-003
2.171441441441442e+009 -1.265638633506150e-003 7.578823831273633e-003 5.935679396617395e-001 -7.124657339946380e-001 5.935679396617395e-001 -7.124657339946380e-001 -1.265638633506150e-003 7.578823831273633e-003
2.201461461461462e+009 -5.898906225181300e-004 8.274664417533481e-003 5.202362745539809e-001 -7.664986984596962e-001 5.202362745539809e-001 -7.664986984596962e-001 -5.898906225181300e-004 8.274664417533481e-003
2.231481481481482e+009 2.133418010067389e-004 8.828905151638186e-003 4.420428633163693e-001 -8.130204120315067e-001 4.420428633163693e-001 -8.130204120315067e-001 2.133418010067389e-004 8.828905151638186e-003
2.261501501501502e+009 1.112878656409966e-003 9.218511334932646e-003 3.597535834784207e-001 -8.515995673845674e-001 3.597535834784207e-001 -8.515995673845674e-001 1.112878656409966e-003 9.218511334932646e-003
2.291521521521522e+009 2.073534505557584e-003 9.427225154318547e-003 2.741719225756563e-001 -8.818826540741853e-001 2.741719225756563e-001 -8.818826540741853e-001 2.073534505557584e-003 9.427225154318547e-003
2.321541541541542e+009 3.057570405135546e-003 9.446229136518210e-003 1.861310869056300e-001 -9.035971700187967e-001 1.861310869056300e-001 -9.035971700187967e-001 3.057570405135546e-003 9.446229136518210e-003
2.351561561561562e+009 4.026247888408219e-003 9.274502713337809e-003 9.648584327578443e-002 -9.165540277826682e-001 9.648584327578443e-002 -9.165540277826682e-001 4.026247888408219e-003 9.274502713337809e-003
2.381581581581582e+009 4.941420946341091e-003 8.918858185338037e-003 6.104178195563598e-003 -9.206491344514799e-001 6.104178195563598e-003 -9.206491344514799e-001 4.941420946341091e-003 8.918858185338037e-003
2.411601601601602e+009 5.767100674577086e-003 8.393655569584770e-003 -8.414113961377032e-002 -9.158641335145885e-001 -8.414113961377032e-002 -9.158641335145885e-001 5.767100674577086e-003 8.393655569584770e-003
2.441621621621622e+009 6.470928640338047e-003 7.720208968279095e-003 -1.733810074149086e-001 -9.022663067755301e-001 -1.733810074149086e-001 -9.022663067755301e-001 6.470928640338047e-003 7.720208968279095e-003
2.471641641641642e+009 7.025499025734239e-003 6.925909655445632e-003 -2.607583625390268e-001 -8.800076436706990e-001 -2.607583625390268e-001 -8.800076436706990e-001 7.025499025734239e-003 6.925909655445632e-003
2.501661661661662e+009 7.409476036037366e-003 6.043102535255807e-003 -3.454363998571919e-001 -8.493230942747438e-001 -3.454363998571919e-001 -8.493230942747438e-001 7.409476036037366e-003 6.043102535255807e-003
2.531681681681682e+009 7.608461638920594e-003 5.107762516790966e-003 -4.266065534565999e-001 -8.105280305389220e-001 -4.266065534565999e-001 -8.105280305389220e-001 7.608461638920594e-003 5.107762516790966e-003
2.561701701701702e+009 7.615579054120136e-003 4.158025285592152e-003 -5.034961674839620e-001 -7.640149478224736e-001 -5.034961674839620e-001 -7.640149478224736e-001 7.615579054120136e-003 4.158025285592152e-003
2.591721721721722e+009 7.431749105192842e-003 3.232632627295872e-003 -5.753757858934270e-001 -7.102494454676531e-001 -5.753757858934270e-001 -7.102494454676531e-001 7.431749105192842e-003 3.232632627295872e-003
2.621741741741742e+009 7.065649090853832e-003 2.369355664227007e-003 -6.415659960499093e-001 -6.497655310206865e-001 -6.415659960499093e-001 -6.497655310206865e-001 7.065649090853832e-003 2.369355664227007e-003
2.651761761761762e+009 6.533356720076267e-003 1.603459995600227e-003 -7.014437666158401e-001 -5.831602977470103e-001 -7.014437666158401e-001 -5.831602977470103e-001 6.533356720076267e-003 1.603459995600227e-003
2.681781781781782e+009 5.857694363939792e-003 9.662747835234440e-004 -7.544482257450174e-001 -5.110880294036100e-001 -7.544482257450174e-001 -5.110880294036100e-001 5.857694363939792e-003 9.662747835234440e-004
2.711801801801802e+009 5.067300903218497e-003 4.839233996214323e-004 -8.000858312159641e-001 -4.342537899166066e-001 -8.000858312159641e-001 -4.342537899166066e-001 5.067300903218497e-003 4.839233996214323e-004
2.741821821821822e+009 4.195469322191725e-003 1.762665356259365e-004 -8.379348896986996e-001 -3.534065587848271e-001 -8.379348896986996e-001 -3.534065587848271e-001 4.195469322191725e-003 1.762665356259365e-004
2.771841841841842e+009 3.278797494354557e-003 5.609996704645913e-005 -8.676493878479978e-001 -2.693319758062850e-001 -8.676493878479978e-001 -2.693319758062850e-001 3.278797494354557e-003 5.609996704645913e-005
2.801861861861862e+009 2.355706967706706e-003 1.286387978125218e-004 -8.889621033804463e-001 -1.828447612054377e-001 -8.889621033804463e-001 -1.828447612054377e-001 2.355706967706706e-003 1.286387978125218e-004
