! Touchstone generated by fitter/viewer 
# HZ S  RI R 5.000000e+001
! 
1.000000000000000e+007 4.018135566843051e-003 1.138562689341221e-003 9.947018125264719e-001 -3.619359408041804e-002 9.947018125264719e-001 -3.619359408041804e-002 4.018135566843051e-003 1.138562689341221e-003
2.000000000000000e+007 4.686732997814858e-003 1.167791260919381e-003 9.915619957945574e-001 -7.059800946508441e-002 9.915619957945574e-001 -7.059800946508441e-002 4.686732997814858e-003 1.167791260919381e-003
3.000000000000000e+007 5.124766112348911e-003 1.061044466713582e-003 9.874995269680377e-001 -1.045250640322943e-001 9.874995269680377e-001 -1.045250640322943e-001 5.124766112348911e-003 1.061044466713582e-003
4.000000000000000e+007 5.429772349529571e-003 8.980968000301589e-004 9.824175074508704e-001 -1.380905302399869e-001 9.824175074508704e-001 -1.380905302399869e-001 5.429772349529571e-003 8.980968000301589e-004
5.000000000000000e+007 5.645979697273873e-003 7.131506502229861e-004 9.762922022591826e-001 -1.713170931390302e-001 9.762922022591826e-001 -1.713170931390302e-001 5.645979697273873e-003 7.131506502229861e-004
6.000000000000000e+007 5.799204033387517e-003 5.199050464640073e-004 9.691200830569485e-001 -2.042045922277752e-001 9.691200830569485e-001 -2.042045922277752e-001 5.799204033387517e-003 5.199050464640073e-004
7.000000000000000e+007 5.903967539905741e-003 3.243060960295129e-004 9.609029824477191e-001 -2.367419204057316e-001 9.609029824477191e-001 -2.367419204057316e-001 5.903967539905741e-003 3.243060960295129e-004
8.000000000000000e+007 5.968680850890418e-003 1.301930255488674e-004 9.516453941899059e-001 -2.689105094295289e-001 9.516453941899059e-001 -2.689105094295289e-001 5.968680850890418e-003 1.301930255488674e-004
9.000000000000000e+007 5.998953706205845e-003 -5.901575836730028e-005 9.413543444406217e-001 -3.006867718074471e-001 9.413543444406217e-001 -3.006867718074471e-001 5.998953706205845e-003 -5.901575836730028e-005
1.000000000000000e+008 5.999295046568487e-003 -2.401317557580374e-004 9.300393908299395e-001 -3.320440427682602e-001 9.300393908299395e-001 -3.320440427682602e-001 5.999295046568487e-003 -2.401317557580374e-004
1.100000000000000e+008 5.973827862592041e-003 -4.103721351593328e-004 9.177124178147188e-001 -3.629539740682869e-001 9.177124178147188e-001 -3.629539740682869e-001 5.973827862592041e-003 -4.103721351593328e-004
1.200000000000000e+008 5.926509185032236e-003 -5.675201544398778e-004 9.043873241488883e-001 -3.933874481499516e-001 9.043873241488883e-001 -3.933874481499516e-001 5.926509185032236e-003 -5.675201544398778e-004
1.300000000000000e+008 5.861140540599497e-003 -7.099892945912745e-004 8.900797064228013e-001 -4.233151410915608e-001 8.900797064228013e-001 -4.233151410915608e-001 5.861140540599497e-003 -7.099892945912745e-004
1.400000000000000e+008 5.781311211156770e-003 -8.368050562114803e-004 8.748065905710245e-001 -4.527078540362758e-001 8.748065905710245e-001 -4.527078540362758e-001 5.781311211156770e-003 -8.368050562114803e-004
1.500000000000000e+008 5.690336817639086e-003 -9.475366501975901e-004 8.585862258436323e-001 -4.815367023865771e-001 8.585862258436323e-001 -4.815367023865771e-001 5.690336817639086e-003 -9.475366501975901e-004
1.600000000000000e+008 5.591215943644645e-003 -1.042206036501814e-003 8.414379371498486e-001 -5.097732227284501e-001 8.414379371498486e-001 -5.097732227284501e-001 5.591215943644645e-003 -1.042206036501814e-003
1.700000000000000e+008 5.486609329568681e-003 -1.121192757333376e-003 8.233820247332524e-001 -5.373894353288163e-001 8.233820247332524e-001 -5.373894353288163e-001 5.486609329568681e-003 -1.121192757333376e-003
1.800000000000000e+008 5.378838785178752e-003 -1.185145278395449e-003 8.044396989837004e-001 -5.643578849620543e-001 8.044396989837004e-001 -5.643578849620543e-001 5.378838785178752e-003 -1.185145278395449e-003
1.900000000000000e+008 5.269900686448836e-003 -1.234904090390962e-003 7.846330394969857e-001 -5.906516730592148e-001 7.846330394969857e-001 -5.906516730592148e-001 5.269900686448836e-003 -1.234904090390962e-003
2.000000000000000e+008 5.161488890117139e-003 -1.271438335726201e-003 7.639849695947970e-001 -6.162444880778687e-001 7.639849695947970e-001 -6.162444880778687e-001 5.161488890117139e-003 -1.271438335726201e-003
2.100000000000000e+008 5.055022735326098e-003 -1.295795677942410e-003 7.425192396575847e-001 -6.411106373091967e-001 7.425192396575847e-001 -6.411106373091967e-001 5.055022735326098e-003 -1.295795677942410e-003
2.200000000000000e+008 4.951676859347276e-003 -1.309064052783168e-003 7.202604144965558e-001 -6.652250812067254e-001 7.202604144965558e-001 -6.652250812067254e-001 4.951676859347276e-003 -1.309064052783168e-003
2.300000000000000e+008 4.852410550319930e-003 -1.312343477803233e-003 6.972338615079611e-001 -6.885634701620632e-001 6.972338615079611e-001 -6.885634701620632e-001 4.852410550319930e-003 -1.312343477803233e-003
2.400000000000000e+008 4.757995187790742e-003 -1.306726006953588e-003 6.734657375191528e-001 -7.111021830904616e-001 6.734657375191528e-001 -7.111021830904616e-001 4.757995187790742e-003 -1.306726006953588e-003
2.500000000000000e+008 4.669038959529637e-003 -1.293282033824364e-003 6.489829730966987e-001 -7.328183669799074e-001 6.489829730966987e-001 -7.328183669799074e-001 4.669038959529637e-003 -1.293282033824364e-003
2.600000000000000e+008 4.586008506007322e-003 -1.273051366770254e-003 6.238132536983387e-001 -7.536899765469409e-001 6.238132536983387e-001 -7.536899765469409e-001 4.586008506007322e-003 -1.273051366770254e-003
2.700000000000000e+008 4.509247461287558e-003 -1.247037755753834e-003 5.979849974677973e-001 -7.736958132338454e-001 5.979849974677973e-001 -7.736958132338454e-001 4.509247461287558e-003 -1.247037755753834e-003
2.800000000000000e+008 4.438992062743452e-003 -1.216205806228241e-003 5.715273297424424e-001 -7.928155629166690e-001 5.715273297424424e-001 -7.928155629166690e-001 4.438992062743452e-003 -1.216205806228241e-003
2.900000000000000e+008 4.375384120874015e-003 -1.181479449302804e-003 5.444700545081952e-001 -8.110298318376680e-001 5.444700545081952e-001 -8.110298318376680e-001 4.375384120874015e-003 -1.181479449302804e-003
3.000000000000000e+008 4.318481698814325e-003 -1.143741340506754e-003 5.168436231252175e-001 -8.283201804108251e-001 5.168436231252175e-001 -8.283201804108251e-001 4.318481698814325e-003 -1.143741340506754e-003
3.100000000000000e+008 4.268267868020481e-003 -1.103832729153212e-003 4.886791006856791e-001 -8.446691546663410e-001 4.886791006856791e-001 -8.446691546663410e-001 4.268267868020481e-003 -1.103832729153212e-003
3.200000000000000e+008 4.224657896532924e-003 -1.062553477952633e-003 4.600081303690459e-001 -8.600603151965122e-001 4.600081303690459e-001 -8.600603151965122e-001 4.224657896532924e-003 -1.062553477952633e-003
3.300000000000000e+008 4.187505199747754e-003 -1.020662021366638e-003 4.308628961437213e-001 -8.744782635415012e-001 4.308628961437213e-001 -8.744782635415012e-001 4.187505199747754e-003 -1.020662021366638e-003
3.400000000000000e+008 4.156606348278524e-003 -9.788751352465689e-004 4.012760841354633e-001 -8.879086660111453e-001 4.012760841354633e-001 -8.879086660111453e-001 4.156606348278524e-003 -9.788751352465689e-004
3.500000000000000e+008 4.131705388298101e-003 -9.378674537203830e-004 3.712808429490428e-001 -9.003382749808727e-001 3.712808429490428e-001 -9.003382749808727e-001 4.131705388298101e-003 -9.378674537203830e-004
3.600000000000000e+008 4.112497690169414e-003 -8.982707158566583e-004 3.409107431940492e-001 -9.117549477287957e-001 3.409107431940492e-001 -9.117549477287957e-001 4.112497690169414e-003 -8.982707158566583e-004
3.700000000000000e+008 4.098633503201277e-003 -8.606727577729678e-004 3.101997364312539e-001 -9.221476628998040e-001 3.101997364312539e-001 -9.221476628998040e-001 4.098633503201277e-003 -8.606727577729678e-004
3.800000000000000e+008 4.089721359287313e-003 -8.256162884185194e-004 2.791821137238856e-001 -9.315065346933383e-001 2.791821137238856e-001 -9.315065346933383e-001 4.089721359287313e-003 -8.256162884185194e-004
3.900000000000000e+008 4.085331436592954e-003 -7.935975016246075e-004 2.478924639494049e-001 -9.398228248764542e-001 2.478924639494049e-001 -9.398228248764542e-001 4.085331436592954e-003 -7.935975016246075e-004
4.000000000000000e+008 4.084998966548792e-003 -7.650645851341863e-004 2.163656320021265e-001 -9.470889527244099e-001 2.163656320021265e-001 -9.470889527244099e-001 4.084998966548792e-003 -7.650645851341863e-004
4.100000000000000e+008 4.088227743200612e-003 -7.404161907225239e-004 1.846366769953368e-001 -9.532985029886169e-001 1.846366769953368e-001 -9.532985029886169e-001 4.088227743200612e-003 -7.404161907225239e-004
4.200000000000000e+008 4.094493773230012e-003 -7.199999294462166e-004 1.527408305532016e-001 -9.584462319874022e-001 1.527408305532016e-001 -9.584462319874022e-001 4.094493773230012e-003 -7.199999294462166e-004
4.300000000000000e+008 4.103249087490379e-003 -7.041109534512466e-004 1.207134552674096e-001 -9.625280719093706e-001 1.207134552674096e-001 -9.625280719093706e-001 4.103249087490379e-003 -7.041109534512466e-004
4.400000000000000e+008 4.113925720324207e-003 -6.929906814075393e-004 8.859000338089822e-002 -9.655411334128334e-001 8.859000338089822e-002 -9.655411334128334e-001 4.113925720324207e-003 -6.929906814075393e-004
4.500000000000000e+008 4.125939851037819e-003 -6.868257190595495e-004 5.640597575071939e-002 -9.674837065982138e-001 5.640597575071939e-002 -9.674837065982138e-001 4.125939851037819e-003 -6.868257190595495e-004
4.600000000000000e+008 4.138696092285010e-003 -6.857470200711006e-004 2.419688113387164e-002 -9.683552604237730e-001 2.419688113387164e-002 -9.683552604237730e-001 4.138696092285010e-003 -6.857470200711006e-004
4.700000000000000e+008 4.151591902598062e-003 -6.898293256082841e-004 -8.001804166634123e-003 -9.681564406287490e-001 -8.001804166634123e-003 -9.681564406287490e-001 4.151591902598062e-003 -6.898293256082841e-004
4.800000000000000e+008 4.164022094516495e-003 -6.990909142229275e-004 -4.015467626330075e-002 -9.668890662220721e-001 -4.015467626330075e-002 -9.668890662220721e-001 4.164022094516495e-003 -6.990909142229275e-004
4.900000000000000e+008 4.175383405570998e-003 -7.134936867522940e-004 -7.222644322501676e-002 -9.645561245893827e-001 -7.222644322501676e-002 -9.645561245893827e-001 4.175383405570998e-003 -7.134936867522940e-004
5.000000000000000e+008 4.185079096515110e-003 -7.329436042894104e-004 -1.041819641719900e-001 -9.611617652661488e-001 -1.041819641719900e-001 -9.611617652661488e-001 4.185079096515110e-003 -7.329436042894104e-004
5.100000000000000e+008 4.192523539446769e-003 -7.572914909036465e-004 -1.359862879015978e-001 -9.567112924202471e-001 -1.359862879015978e-001 -9.567112924202471e-001 4.192523539446769e-003 -7.572914909036465e-004
5.200000000000000e+008 4.197146757752290e-003 -7.863342067800937e-004 -1.676046910235669e-001 -9.512111560834788e-001 -1.676046910235669e-001 -9.512111560834788e-001 4.197146757752290e-003 -7.863342067800937e-004
5.300000000000000e+008 4.198398879844301e-003 -8.198161918466188e-004 -1.990027155838998e-001 -9.446689421680781e-001 -1.990027155838998e-001 -9.446689421680781e-001 4.198398879844301e-003 -8.198161918466188e-004
5.400000000000000e+008 4.195754469486723e-003 -8.574313748121552e-004 -2.301462061576258e-001 -9.370933613013384e-001 -2.301462061576258e-001 -9.370933613013384e-001 4.195754469486723e-003 -8.574313748121552e-004
5.500000000000000e+008 4.188716696815087e-003 -8.988254378504743e-004 -2.610013463907650e-001 -9.284942365089830e-001 -2.610013463907650e-001 -9.284942365089830e-001 4.188716696815087e-003 -8.988254378504743e-004
5.600000000000000e+008 4.176821316008272e-003 -9.435984229593680e-004 -2.915346949720342e-001 -9.188824897758062e-001 -2.915346949720342e-001 -9.188824897758062e-001 4.176821316008272e-003 -9.435984229593680e-004
5.700000000000000e+008 4.159640417782162e-003 -9.913076622896078e-004 -3.217132210147521e-001 -9.082701275103948e-001 -3.217132210147521e-001 -9.082701275103948e-001 4.159640417782162e-003 -9.913076622896078e-004
5.800000000000000e+008 4.136785927368214e-003 -1.041471011468814e-003 -3.515043388292435e-001 -8.966702249393491e-001 -3.515043388292435e-001 -8.966702249393491e-001 4.136785927368214e-003 -1.041471011468814e-003
5.900000000000000e+008 4.107912821407100e-003 -1.093570362132125e-003 -3.808759420658180e-001 -8.840969094553101e-001 -3.808759420658180e-001 -8.840969094553101e-001 4.107912821407100e-003 -1.093570362132125e-003
6.000000000000000e+008 4.072722040086352e-003 -1.147055407499782e-003 -4.097964372081134e-001 -8.705653429423115e-001 -4.097964372081134e-001 -8.705653429423115e-001 4.072722040086352e-003 -1.147055407499782e-003
6.100000000000000e+008 4.030963073880511e-003 -1.201347632877925e-003 -4.382347763963079e-001 -8.560917031013438e-001 -4.382347763963079e-001 -8.560917031013438e-001 4.030963073880511e-003 -1.201347632877925e-003
6.200000000000000e+008 3.982436207357942e-003 -1.255844501408417e-003 -4.661604895594489e-001 -8.406931637986826e-001 -4.661604895594489e-001 -8.406931637986826e-001 3.982436207357942e-003 -1.255844501408417e-003
6.300000000000000e+008 3.926994405638817e-003 -1.309923804207439e-003 -4.935437158358698e-001 -8.243878744593036e-001 -4.935437158358698e-001 -8.243878744593036e-001 3.926994405638817e-003 -1.309923804207439e-003
6.400000000000000e+008 3.864544832195116e-003 -1.362948143197967e-003 -5.203552342604654e-001 -8.071949385276929e-001 -5.203552342604654e-001 -8.071949385276929e-001 3.864544832195116e-003 -1.362948143197967e-003
6.500000000000000e+008 3.795049989781529e-003 -1.414269514444027e-003 -5.465664936974324e-001 -7.891343910184577e-001 -5.465664936974324e-001 -7.891343910184577e-001 3.795049989781529e-003 -1.414269514444027e-003
6.600000000000000e+008 3.718528479283223e-003 -1.463233959593109e-003 -5.721496419969558e-001 -7.702271751793641e-001 -5.721496419969558e-001 -7.702271751793641e-001 3.718528479283223e-003 -1.463233959593109e-003
6.700000000000000e+008 3.635055374195617e-003 -1.509186253112464e-003 -5.970775543542766e-001 -7.504951182897591e-001 -5.970775543542766e-001 -7.504951182897591e-001 3.635055374195617e-003 -1.509186253112464e-003
6.800000000000000e+008 3.544762211287411e-003 -1.551474593343327e-003 -6.213238608495756e-001 -7.299609066177348e-001 -6.213238608495756e-001 -7.299609066177348e-001 3.544762211287411e-003 -1.551474593343327e-003
6.900000000000000e+008 3.447836600682930e-003 -1.589455265975367e-003 -6.448629731471901e-001 -7.086480595598835e-001 -6.448629731471901e-001 -7.086480595598835e-001 3.447836600682930e-003 -1.589455265975367e-003
7.000000000000000e+008 3.344521461186245e-003 -1.622497249318257e-003 -6.676701103327899e-001 -6.865809029880367e-001 -6.676701103327899e-001 -6.865809029880367e-001 3.344521461186245e-003 -1.622497249318257e-003
7.100000000000000e+008 3.235113889088148e-003 -1.649986731727935e-003 -6.897213238673631e-001 -6.637845418279575e-001 -6.897213238673631e-001 -6.637845418279575e-001 3.235113889088148e-003 -1.649986731727935e-003
7.200000000000000e+008 3.119963670981218e-003 -1.671331512692094e-003 -7.109935216371124e-001 -6.402848318956061e-001 -7.109935216371124e-001 -6.402848318956061e-001 3.119963670981218e-003 -1.671331512692094e-003
7.300000000000000e+008 2.999471453237756e-003 -1.685965260373581e-003 -7.314644910786837e-001 -6.161083510172333e-001 -7.314644910786837e-001 -6.161083510172333e-001 2.999471453237756e-003 -1.685965260373581e-003
7.400000000000000e+008 2.874086582751900e-003 -1.693351599836283e-003 -7.511129213595407e-001 -5.912823694602606e-001 -7.511129213595407e-001 -5.912823694602606e-001 2.874086582751900e-003 -1.693351599836283e-003
7.500000000000000e+008 2.744304635369121e-003 -1.692988007735419e-003 -7.699184245937493e-001 -5.658348197025817e-001 -7.699184245937493e-001 -5.658348197025817e-001 2.744304635369121e-003 -1.692988007735419e-003
7.600000000000000e+008 2.610664650051220e-003 -1.684409490879667e-003 -7.878615560739205e-001 -5.397942655686403e-001 -7.878615560739205e-001 -5.397942655686403e-001 2.610664650051220e-003 -1.684409490879667e-003
7.700000000000000e+008 2.473746088304862e-003 -1.667192027821481e-003 -8.049238335006573e-001 -5.131898707613266e-001 -8.049238335006573e-001 -5.131898707613266e-001 2.473746088304862e-003 -1.667192027821481e-003
7.800000000000000e+008 2.334165539702893e-003 -1.640955754407332e-003 -8.210877551914126e-001 -4.860513668194709e-001 -8.210877551914126e-001 -4.860513668194709e-001 2.334165539702893e-003 -1.640955754407332e-003
7.900000000000000e+008 2.192573195489711e-003 -1.605367876086017e-003 -8.363368172513820e-001 -4.584090205313742e-001 -8.363368172513820e-001 -4.584090205313742e-001 2.192573195489711e-003 -1.605367876086017e-003
8.000000000000000e+008 2.049649113236796e-003 -1.560145291662843e-003 -8.506555296897433e-001 -4.302936008355371e-001 -8.506555296897433e-001 -4.302936008355371e-001 2.049649113236796e-003 -1.560145291662843e-003
8.100000000000000e+008 1.906099296348995e-003 -1.505056915110594e-003 -8.640294314653194e-001 -4.017363452404078e-001 -8.640294314653194e-001 -4.017363452404078e-001 1.906099296348995e-003 -1.505056915110594e-003
8.200000000000000e+008 1.762651612901789e-003 -1.439925683991739e-003 -8.764451044465650e-001 -3.727689257956276e-001 -8.764451044465650e-001 -3.727689257956276e-001 1.762651612901789e-003 -1.439925683991739e-003
8.300000000000000e+008 1.620051578809290e-003 -1.364630245006800e-003 -8.878901862716193e-001 -3.434234146479025e-001 -8.878901862716193e-001 -3.434234146479025e-001 1.620051578809290e-003 -1.364630245006800e-003
8.400000000000000e+008 1.479058030704139e-003 -1.279106309125806e-003 -8.983533820950715e-001 -3.137322492152330e-001 -8.983533820950715e-001 -3.137322492152330e-001 1.479058030704139e-003 -1.279106309125806e-003
8.500000000000000e+008 1.340438714147685e-003 -1.183347670708816e-003 -9.078244752090193e-001 -2.837281970138281e-001 -9.078244752090193e-001 -2.837281970138281e-001 1.340438714147685e-003 -1.183347670708816e-003
8.600000000000000e+008 1.204965812884651e-003 -1.077406886946242e-003 -9.162943365269815e-001 -2.534443201725971e-001 -9.162943365269815e-001 -2.534443201725971e-001 1.204965812884651e-003 -1.077406886946242e-003
8.700000000000000e+008 1.073411444819539e-003 -9.613956158418586e-004 -9.237549329202294e-001 -2.229139396706505e-001 -9.237549329202294e-001 -2.229139396706505e-001 1.073411444819539e-003 -9.613956158418586e-004
8.800000000000000e+008 9.465431502333477e-004 -8.354846128305744e-004 -9.301993343971708e-001 -1.921705993337142e-001 -9.301993343971708e-001 -1.921705993337142e-001 9.465431502333477e-004 -8.354846128305744e-004
8.900000000000000e+008 8.251193974674331e-004 -6.999033879432304e-004 -9.356217201174709e-001 -1.612480296258859e-001 -9.356217201174709e-001 -1.612480296258859e-001 8.251193974674331e-004 -6.999033879432304e-004
9.000000000000000e+008 7.098851308938725e-004 -5.549395272081619e-004 -9.400173832337483e-001 -1.301801112735152e-001 -9.400173832337483e-001 -1.301801112735152e-001 7.098851308938725e-004 -5.549395272081619e-004
9.100000000000000e+008 6.015673854833370e-004 -4.009376836998868e-004 -9.433827345547834e-001 -9.900083875847066e-002 -9.433827345547834e-001 -9.900083875847066e-002 6.015673854833370e-004 -4.009376836998868e-004
9.200000000000000e+008 5.008709916368703e-004 -2.382982453118851e-004 -9.457153050253938e-001 -6.774428371834093e-002 -9.457153050253938e-001 -6.774428371834093e-002 5.008709916368703e-004 -2.382982453118851e-004
9.300000000000000e+008 4.084743932387669e-004 -6.747568792747258e-005 -9.470137470192955e-001 -3.644455829147019e-002 -9.470137470192955e-001 -3.644455829147019e-002 4.084743932387669e-004 -6.747568792747258e-005
9.400000000000000e+008 3.250256010490782e-004 1.110233758060922e-004 -9.472778344425050e-001 -5.135778444991197e-003 -9.472778344425050e-001 -5.135778444991197e-003 3.250256010490782e-004 1.110233758060922e-004
