! Touchstone generated by fitter/viewer 
# HZ S  RI R 5.000000e+001
! 
1.000000000000000e+007 8.772684947321086e-003 1.270813965725960e-002 9.903942781972651e-001 -3.873694735892365e-002 9.903942781972651e-001 -3.873694735892365e-002 8.772684947321086e-003 1.270813965725960e-002
2.000000000000000e+007 1.139515390056856e-002 2.314727240467622e-002 9.862793020908133e-001 -7.473011199608970e-002 9.862793020908133e-001 -7.473011199608970e-002 1.139515390056856e-002 2.314727240467622e-002
3.000000000000000e+007 1.434904689531058e-002 3.309126626034689e-002 9.811940869687625e-001 -1.100241309272179e-001 9.811940869687625e-001 -1.100241309272179e-001 1.434904689531058e-002 3.309126626034689e-002
4.000000000000000e+007 1.777898942517420e-002 4.266279643852174e-002 9.749877431844347e-001 -1.447877448736612e-001 9.749877431844347e-001 -1.447877448736612e-001 1.777898942517420e-002 4.266279643852174e-002
5.000000000000000e+007 2.173004638559906e-002 5.188590305493170e-002 9.676229026776254e-001 -1.790549309713431e-001 9.676229026776254e-001 -1.790549309713431e-001 2.173004638559906e-002 5.188590305493170e-002
6.000000000000000e+007 2.621398239155992e-002 6.075043105842308e-002 9.590962876445106e-001 -2.128229660056025e-001 9.590962876445106e-001 -2.128229660056025e-001 2.621398239155992e-002 6.075043105842308e-002
7.000000000000000e+007 3.122453748927123e-002 6.923341761207065e-002 9.494175689898239e-001 -2.460734820013331e-001 9.494175689898239e-001 -2.460734820013331e-001 3.122453748927123e-002 6.923341761207065e-002
8.000000000000000e+007 3.674485631451852e-002 7.730785879903863e-002 9.386035562006362e-001 -2.787796741736580e-001 9.386035562006362e-001 -2.787796741736580e-001 3.674485631451852e-002 7.730785879903863e-002
9.000000000000000e+007 4.275160521125887e-002 8.494617293040616e-002 9.266763187715973e-001 -3.109102268831806e-001 9.266763187715973e-001 -3.109102268831806e-001 4.275160521125887e-002 8.494617293040616e-002
1.000000000000000e+008 4.921718924947582e-002 9.212157531848306e-002 9.136622091220340e-001 -3.424318653854323e-001 9.136622091220340e-001 -3.424318653854323e-001 4.921718924947582e-002 9.212157531848306e-002
1.100000000000000e+008 5.611093519542576e-002 9.880869787200318e-002 8.995910945856518e-001 -3.733110410063587e-001 8.995910945856518e-001 -3.733110410063587e-001 5.611093519542576e-002 9.880869787200318e-002
1.200000000000000e+008 6.339975755428406e-002 1.049839508127540e-001 8.844956809109350e-001 -4.035150213349514e-001 8.844956809109350e-001 -4.035150213349514e-001 6.339975755428406e-002 1.049839508127540e-001
1.300000000000000e+008 7.104858556885407e-002 1.106257917124194e-001 8.684109188658306e-001 -4.330125787283236e-001 8.684109188658306e-001 -4.330125787283236e-001 7.104858556885407e-002 1.106257917124194e-001
1.400000000000000e+008 7.902068849942634e-002 1.157149480862117e-001 8.513734926261021e-001 -4.617744132847356e-001 8.513734926261021e-001 -4.617744132847356e-001 7.902068849942634e-002 1.157149480862117e-001
1.500000000000000e+008 8.727796199254101e-002 1.202346021777283e-001 8.334213823331530e-001 -4.897734016279179e-001 8.334213823331530e-001 -4.897734016279179e-001 8.727796199254101e-002 1.202346021777283e-001
1.600000000000000e+008 9.578120131619639e-002 1.241705373535054e-001 8.145934898066016e-001 -5.169847307650476e-001 8.145934898066016e-001 -5.169847307650476e-001 9.578120131619639e-002 1.241705373535054e-001
1.700000000000000e+008 1.044903697788810e-001 1.275112450967292e-001 7.949293163052740e-001 -5.433859548311723e-001 7.949293163052740e-001 -5.433859548311723e-001 1.044903697788810e-001 1.275112450967292e-001
1.800000000000000e+008 1.133648629561789e-001 1.302479932190652e-001 7.744686827789963e-001 -5.689569987481609e-001 7.744686827789963e-001 -5.689569987481609e-001 1.133648629561789e-001 1.302479932190652e-001
1.900000000000000e+008 1.223637663835079e-001 1.323748575226480e-001 7.532514850671084e-001 -5.936801241606590e-001 7.532514850671084e-001 -5.936801241606590e-001 1.223637663835079e-001 1.323748575226480e-001
2.000000000000000e+008 1.314461036209992e-001 1.338887202494053e-001 7.313174784035200e-001 -6.175398676355107e-001 7.313174784035200e-001 -6.175398676355107e-001 1.314461036209992e-001 1.338887202494053e-001
2.100000000000000e+008 1.405710718178939e-001 1.347892392513944e-001 7.087060871672379e-001 -6.405229578077926e-001 7.087060871672379e-001 -6.405229578077926e-001 1.405710718178939e-001 1.347892392513944e-001
2.200000000000000e+008 1.496982624972293e-001 1.350787920240816e-001 6.854562370311111e-001 -6.626182161441615e-001 6.854562370311111e-001 -6.626182161441615e-001 1.496982624972293e-001 1.350787920240816e-001
2.300000000000000e+008 1.587878659619844e-001 1.347623986897334e-001 6.616062075431358e-001 -6.838164447774288e-001 6.616062075431358e-001 -6.838164447774288e-001 1.587878659619844e-001 1.347623986897334e-001
2.400000000000000e+008 1.678008583639781e-001 1.338476278002082e-001 6.371935037816503e-001 -7.041103041331882e-001 6.371935037816503e-001 -7.041103041331882e-001 1.678008583639781e-001 1.338476278002082e-001
2.500000000000000e+008 1.766991710275172e-001 1.323444885192149e-001 6.122547461186032e-001 -7.234941826244060e-001 6.122547461186032e-001 -7.234941826244060e-001 1.766991710275172e-001 1.323444885192149e-001
2.600000000000000e+008 1.854458420694942e-001 1.302653123919388e-001 5.868255773583241e-001 -7.419640604113342e-001 5.868255773583241e-001 -7.419640604113342e-001 1.854458420694942e-001 1.302653123919388e-001
2.700000000000000e+008 1.940051507118451e-001 1.276246275458372e-001 5.609405866383429e-001 -7.595173690371277e-001 5.609405866383429e-001 -7.595173690371277e-001 1.940051507118451e-001 1.276246275458372e-001
2.800000000000000e+008 2.023427349530675e-001 1.244390278090632e-001 5.346332495202451e-001 -7.761528486093631e-001 5.346332495202451e-001 -7.761528486093631e-001 2.023427349530675e-001 1.244390278090632e-001
2.900000000000000e+008 2.104256934663211e-001 1.207270388928965e-001 5.079358836903425e-001 -7.918704040783278e-001 5.079358836903425e-001 -7.918704040783278e-001 2.104256934663211e-001 1.207270388928965e-001
3.000000000000000e+008 2.182226727351820e-001 1.165089834669760e-001 4.808796196529665e-001 -8.066709620506878e-001 4.808796196529665e-001 -8.066709620506878e-001 2.182226727351820e-001 1.165089834669760e-001
3.100000000000000e+008 2.257039405351405e-001 1.118068466629083e-001 4.534943857486260e-001 -8.205563294652157e-001 4.534943857486260e-001 -8.205563294652157e-001 2.257039405351405e-001 1.118068466629083e-001
3.200000000000000e+008 2.328414469284227e-001 1.066441432731880e-001 4.258089067754985e-001 -8.335290553435940e-001 4.258089067754985e-001 -8.335290553435940e-001 2.328414469284227e-001 1.066441432731880e-001
3.300000000000000e+008 2.396088739687174e-001 1.010457876673394e-001 3.978507154426969e-001 -8.455922967140234e-001 3.978507154426969e-001 -8.455922967140234e-001 2.396088739687174e-001 1.010457876673394e-001
3.400000000000000e+008 2.459816753166590e-001 9.503796722449792e-002 3.696461758415592e-001 -8.567496896899872e-001 3.696461758415592e-001 -8.567496896899872e-001 2.459816753166590e-001 9.503796722449792e-002
3.500000000000000e+008 2.519371069508883e-001 8.864801987989826e-002 3.412205180890447e-001 -8.670052265729854e-001 3.412205180890447e-001 -8.670052265729854e-001 2.519371069508883e-001 8.864801987989826e-002
3.600000000000000e+008 2.574542501268030e-001 8.190431620044938e-002 3.125978832758289e-001 -8.763631397383503e-001 3.125978832758289e-001 -8.763631397383503e-001 2.574542501268030e-001 8.190431620044938e-002
3.700000000000000e+008 2.625140276886111e-001 7.483614624053910e-002 2.838013778406368e-001 -8.848277929591546e-001 2.838013778406368e-001 -8.848277929591546e-001 2.625140276886111e-001 7.483614624053910e-002
3.800000000000000e+008 2.670992147824136e-001 6.747361128223781e-002 2.548531364906429e-001 -8.924035807261704e-001 2.548531364906429e-001 -8.924035807261704e-001 2.670992147824136e-001 6.747361128223781e-002
3.900000000000000e+008 2.711944449507149e-001 5.984752043311146e-002 2.257743927941465e-001 -8.990948360328314e-001 2.257743927941465e-001 -8.990948360328314e-001 2.711944449507149e-001 5.984752043311146e-002
4.000000000000000e+008 2.747862125137507e-001 5.198929193902524e-002 1.965855565844102e-001 -9.049057470138416e-001 1.965855565844102e-001 -9.049057470138416e-001 2.747862125137507e-001 5.198929193902524e-002
4.100000000000000e+008 2.778628720616316e-001 4.393085896777777e-002 1.673062973310042e-001 -9.098402827547319e-001 1.673062973310042e-001 -9.098402827547319e-001 2.778628720616316e-001 4.393085896777777e-002
4.200000000000000e+008 2.804146357949384e-001 3.570457953138556e-002 1.379556326553348e-001 -9.139021285271433e-001 1.379556326553348e-001 -9.139021285271433e-001 2.804146357949384e-001 3.570457953138556e-002
4.300000000000000e+008 2.824335693609131e-001 2.734315013972253e-002 1.085520211888476e-001 -9.170946306506141e-001 1.085520211888476e-001 -9.170946306506141e-001 2.824335693609131e-001 2.734315013972253e-002
4.400000000000000e+008 2.839135867388860e-001 1.887952271536330e-002 7.911345899404722e-002 -9.194207511354759e-001 7.911345899404722e-002 -9.194207511354759e-001 2.839135867388860e-001 1.887952271536330e-002
4.500000000000000e+008 2.848504446326984e-001 1.034682424836874e-002 4.965757878874007e-002 -9.208830322222888e-001 4.965757878874007e-002 -9.208830322222888e-001 2.848504446326984e-001 1.034682424836874e-002
4.600000000000000e+008 2.852417367304141e-001 1.778278629959040e-003 2.020175123169057e-002 -9.214835709001219e-001 2.020175123169057e-002 -9.214835709001219e-001 2.852417367304141e-001 1.778278629959040e-003
4.700000000000000e+008 2.850868880930878e-001 -6.792869924889410e-003 -9.236812457824414e-003 -9.212240034576664e-001 -9.236812457824414e-003 -9.212240034576664e-001 2.850868880930878e-001 -6.792869924889410e-003
4.800000000000000e+008 2.843871498353665e-001 -1.533343247414817e-002 -3.864095726383179e-002 -9.201055000965462e-001 -3.864095726383179e-002 -9.201055000965462e-001 2.843871498353665e-001 -1.533343247414817e-002
4.900000000000000e+008 2.831455941617529e-001 -2.381035058086148e-002 -6.799348123258751e-002 -9.181287696138499e-001 -6.799348123258751e-002 -9.181287696138499e-001 2.831455941617529e-001 -2.381035058086148e-002
5.000000000000000e+008 2.813671097238969e-001 -3.219077179442149e-002 -9.727703313761936e-002 -9.152940741395605e-001 -9.727703313761936e-002 -9.152940741395605e-001 2.813671097238969e-001 -3.219077179442149e-002
5.100000000000000e+008 2.790583971668603e-001 -4.044212598215011e-002 -1.264740116661549e-001 -9.116012538928257e-001 -1.264740116661549e-001 -9.116012538928257e-001 2.790583971668603e-001 -4.044212598215011e-002
5.200000000000000e+008 2.762279646364205e-001 -4.853220308956100e-002 -1.555664668512574e-001 -9.070497618975066e-001 -1.555664668512574e-001 -9.070497618975066e-001 2.762279646364205e-001 -4.853220308956100e-002
5.300000000000000e+008 2.728861229257509e-001 -5.642923287461164e-002 -1.845360044873993e-001 -9.016387085708508e-001 -1.845360044873993e-001 -9.016387085708508e-001 2.728861229257509e-001 -5.642923287461164e-002
5.400000000000000e+008 2.690449798488999e-001 -6.410196711780344e-002 -2.133636942844668e-001 -8.953669160681562e-001 -2.133636942844668e-001 -8.953669160681562e-001 2.690449798488999e-001 -6.410196711780344e-002
5.500000000000000e+008 2.647184333411631e-001 -7.151976475601871e-002 -2.420299825353934e-001 -8.882329822297326e-001 -2.420299825353934e-001 -8.882329822297326e-001 2.647184333411631e-001 -7.151976475601871e-002
5.600000000000000e+008 2.599221627036148e-001 -7.865268032335007e-002 -2.705146100948425e-001 -8.802353539331812e-001 -2.705146100948425e-001 -8.802353539331812e-001 2.599221627036148e-001 -7.865268032335007e-002
5.700000000000000e+008 2.546736173317314e-001 -8.547155600678487e-002 -2.987965364892371e-001 -8.713724096030925e-001 -2.987965364892371e-001 -8.713724096030925e-001 2.546736173317314e-001 -8.547155600678487e-002
5.800000000000000e+008 2.489920021974067e-001 -9.194811753842865e-002 -3.268538710006640e-001 -8.616425505708097e-001 -3.268538710006640e-001 -8.616425505708097e-001 2.489920021974067e-001 -9.194811753842865e-002
5.900000000000000e+008 2.428982592910349e-001 -9.805507404902958e-002 -3.546638115870024e-001 -8.510443009083997e-001 -3.546638115870024e-001 -8.510443009083997e-001 2.428982592910349e-001 -9.805507404902958e-002
6.000000000000000e+008 2.364150441771755e-001 -1.037662219001558e-001 -3.822025925163429e-001 -8.395764152829602e-001 -3.822025925163429e-001 -8.395764152829602e-001 2.364150441771755e-001 -1.037662219001558e-001
6.100000000000000e+008 2.295666967752262e-001 -1.090565523948291e-001 -4.094454416033244e-001 -8.272379942898266e-001 -4.094454416033244e-001 -8.272379942898266e-001 2.295666967752262e-001 -1.090565523948291e-001
6.200000000000000e+008 2.223792054472544e-001 -1.139023631394200e-001 -4.363665479363932e-001 -8.140286066262814e-001 -4.363665479363932e-001 -8.140286066262814e-001 2.223792054472544e-001 -1.139023631394200e-001
6.300000000000000e+008 2.148801634603850e-001 -1.182813726940549e-001 -4.629390409760237e-001 -7.999484173616173e-001 -4.629390409760237e-001 -7.999484173616173e-001 2.148801634603850e-001 -1.182813726940549e-001
6.400000000000000e+008 2.070987168928637e-001 -1.221728380058888e-001 -4.891349818823554e-001 -7.849983214457589e-001 -4.891349818823554e-001 -7.849983214457589e-001 2.070987168928637e-001 -1.221728380058888e-001
6.500000000000000e+008 1.990655030728432e-001 -1.255576739710207e-001 -5.149253678944087e-001 -7.691800814785034e-001 -5.149253678944087e-001 -7.691800814785034e-001 1.990655030728432e-001 -1.255576739710207e-001
6.600000000000000e+008 1.908125786788346e-001 -1.284185743184699e-001 -5.402801505299076e-001 -7.524964686365504e-001 -5.402801505299076e-001 -7.524964686365504e-001 1.908125786788346e-001 -1.284185743184699e-001
6.700000000000000e+008 1.823733366922784e-001 -1.307401328559480e-001 -5.651682683028068e-001 -7.349514055281440e-001 -5.651682683028068e-001 -7.349514055281440e-001 1.823733366922784e-001 -1.307401328559480e-001
6.800000000000000e+008 1.737824114771165e-001 -1.325089639649376e-001 -5.895576945632878e-001 -7.165501096180051e-001 -5.895576945632878e-001 -7.165501096180051e-001 1.737824114771165e-001 -1.325089639649376e-001
6.900000000000000e+008 1.650755713696380e-001 -1.337138210850189e-001 -6.134155009508990e-001 -6.972992357414695e-001 -6.134155009508990e-001 -6.972992357414695e-001 1.650755713696380e-001 -1.337138210850189e-001
7.000000000000000e+008 1.562895982948439e-001 -1.343457117880851e-001 -6.367079368147756e-001 -6.772070161098689e-001 -6.367079368147756e-001 -6.772070161098689e-001 1.562895982948439e-001 -1.343457117880851e-001
7.100000000000000e+008 1.474621540832185e-001 -1.343980079159741e-001 -6.594005247952147e-001 -6.562833961031370e-001 -6.594005247952147e-001 -6.562833961031370e-001 1.474621540832185e-001 -1.343980079159741e-001
7.200000000000000e+008 1.386316333435265e-001 -1.338665491442634e-001 -6.814581725785334e-001 -6.345401640545492e-001 -6.814581725785334e-001 -6.345401640545492e-001 1.386316333435265e-001 -1.338665491442634e-001
7.300000000000000e+008 1.298370029518867e-001 -1.327497382449211e-001 -7.028453006332360e-001 -6.119910731607410e-001 -7.028453006332360e-001 -6.119910731607410e-001 1.298370029518867e-001 -1.327497382449211e-001
7.400000000000000e+008 1.211176284428286e-001 -1.310486262554914e-001 -7.235259855117995e-001 -5.886519536021942e-001 -7.235259855117995e-001 -5.886519536021942e-001 1.211176284428286e-001 -1.310486262554914e-001
7.500000000000000e+008 1.125130878314686e-001 -1.287669857268653e-001 -7.434641180616709e-001 -5.645408129393926e-001 -7.434641180616709e-001 -5.645408129393926e-001 1.125130878314686e-001 -1.287669857268653e-001
7.600000000000000e+008 1.040629736536242e-001 -1.259113702194089e-001 -7.626235756348343e-001 -5.396779228621007e-001 -7.626235756348343e-001 -5.396779228621007e-001 1.040629736536242e-001 -1.259113702194089e-001
7.700000000000000e+008 9.580668427798533e-002 -1.224911582518891e-001 -7.809684071220852e-001 -5.140858904171328e-001 -7.809684071220852e-001 -5.140858904171328e-001 9.580668427798533e-002 -1.224911582518891e-001
7.800000000000000e+008 8.778320581598653e-002 -1.185185799822146e-001 -7.984630293712601e-001 -4.877897119266983e-001 -7.984630293712601e-001 -4.877897119266983e-001 8.778320581598653e-002 -1.185185799822146e-001
7.900000000000000e+008 8.003088622458554e-002 -1.140087250155726e-001 -8.150724332840990e-001 -4.608168079370761e-001 -8.150724332840990e-001 -4.608168079370761e-001 8.003088622458554e-002 -1.140087250155726e-001
8.000000000000000e+008 7.258720345796099e-002 -1.089795298953132e-001 -8.307623976309960e-001 -4.331970377071567e-001 -8.307623976309960e-001 -4.331970377071567e-001 7.258720345796099e-002 -1.089795298953132e-001
8.100000000000000e+008 6.548852976896125e-002 -1.034517440347868e-001 -8.454997083836567e-001 -4.049626919583981e-001 -8.454997083836567e-001 -4.049626919583981e-001 6.548852976896125e-002 -1.034517440347868e-001
8.200000000000000e+008 5.876989448244474e-002 -9.744887309304913e-002 -8.592523811501779e-001 -3.761484628606248e-001 -8.592523811501779e-001 -3.761484628606248e-001 5.876989448244474e-002 -9.744887309304913e-002
8.300000000000000e+008 5.246474775300525e-002 -9.099709908115340e-002 -8.719898841126244e-001 -3.467913905193216e-001 -8.719898841126244e-001 -3.467913905193216e-001 5.246474775300525e-002 -9.099709908115340e-002
8.400000000000000e+008 4.660472797169868e-002 -8.412517680455868e-002 -8.836833587210802e-001 -3.169307855554343e-001 -8.836833587210802e-001 -3.169307855554343e-001 4.660472797169868e-002 -8.412517680455868e-002
8.500000000000000e+008 4.121943559368357e-002 -7.686430659540655e-002 -8.943058352968858e-001 -2.866081277228466e-001 -8.943058352968858e-001 -2.866081277228466e-001 4.121943559368357e-002 -7.686430659540655e-002
8.600000000000000e+008 3.633621621530392e-002 -6.924798365922531e-002 -9.038324406472527e-001 -2.558669408846721e-001 -9.038324406472527e-001 -2.558669408846721e-001 3.633621621530392e-002 -6.924798365922531e-002
8.700000000000000e+008 3.197995573049883e-002 -6.131182474585217e-002 -9.122405947981367e-001 -2.247526450592899e-001 -9.122405947981367e-001 -2.247526450592899e-001 3.197995573049883e-002 -6.131182474585217e-002
8.800000000000000e+008 2.817289033923831e-002 -5.309337324503530e-002 -9.195101940154811e-001 -1.933123866417634e-001 -9.195101940154811e-001 -1.933123866417634e-001 2.817289033923831e-002 -5.309337324503530e-002
8.900000000000000e+008 2.493443406338514e-002 -4.463188419338945e-002 -9.256237774082221e-001 -1.615948482958778e-001 -9.256237774082221e-001 -1.615948482958778e-001 2.493443406338514e-002 -4.463188419338945e-002
9.000000000000000e+008 2.228102624815354e-002 -3.596809105105595e-002 -9.305666745896312e-001 -1.296500403866653e-001 -9.305666745896312e-001 -1.296500403866653e-001 2.228102624815354e-002 -3.596809105105595e-002
9.100000000000000e+008 2.022600129228325e-002 -2.714395645322712e-002 -9.343271321144877e-001 -9.752907617256229e-002 -9.343271321144877e-001 -9.752907617256229e-002 2.022600129228325e-002 -2.714395645322712e-002
9.200000000000000e+008 1.877948256115869e-002 -1.820240945381732e-002 -9.368964167043008e-001 -6.528393329043176e-002 -9.368964167043008e-001 -6.528393329043176e-002 1.877948256115869e-002 -1.820240945381732e-002
9.300000000000000e+008 1.794830210019383e-002 -9.187072046834891e-003 -9.382688936154418e-001 -3.296720433658033e-002 -9.382688936154418e-001 -3.296720433658033e-002 1.794830210019383e-002 -9.187072046834891e-003
9.400000000000000e+008 1.773594738848294e-002 -1.419779673621084e-004 -9.384420788880806e-001 -6.318395644038992e-004 -9.384420788880806e-001 -6.318395644038992e-004 1.773594738848294e-002 -1.419779673621084e-004
