! Touchstone generated by fitter/viewer 
# HZ S  RI R 5.000000e+001
! 
1.000000000000000e+007 3.324562599437031e-003 4.566861529862789e-004 9.953930159884770e-001 -3.555809311551933e-002 9.953930159884770e-001 -3.555809311551933e-002 3.324562599437031e-003 4.566861529862789e-004
2.000000000000000e+007 3.668790677898826e-003 2.305104443067640e-004 9.925726033282096e-001 -6.975194319204087e-002 9.925726033282096e-001 -6.975194319204087e-002 3.668790677898826e-003 2.305104443067640e-004
3.000000000000000e+007 3.841204409137378e-003 -5.076614038777076e-005 9.887685686104698e-001 -1.035479735996893e-001 9.887685686104698e-001 -1.035479735996893e-001 3.841204409137378e-003 -5.076614038777076e-005
4.000000000000000e+007 3.910067343252166e-003 -3.419206104600024e-004 9.839135564180468e-001 -1.370272874849014e-001 9.839135564180468e-001 -1.370272874849014e-001 3.910067343252166e-003 -3.419206104600024e-004
5.000000000000000e+007 3.908944087809063e-003 -6.226496038706179e-004 9.779947686918069e-001 -1.701985403596494e-001 9.779947686918069e-001 -1.701985403596494e-001 3.908944087809063e-003 -6.226496038706179e-004
6.000000000000000e+007 3.858518759432106e-003 -8.866851571042649e-004 9.710140695901292e-001 -2.030540424873597e-001 9.710140695901292e-001 -2.030540424873597e-001 3.858518759432106e-003 -8.866851571042649e-004
7.000000000000000e+007 3.770449687515942e-003 -1.132692226594627e-003 9.629763986616458e-001 -2.355780000873909e-001 9.629763986616458e-001 -2.355780000873909e-001 3.770449687515942e-003 -1.132692226594627e-003
8.000000000000000e+007 3.651390136848787e-003 -1.359967756714669e-003 9.538882393736445e-001 -2.677486487996661e-001 9.538882393736445e-001 -2.677486487996661e-001 3.651390136848787e-003 -1.359967756714669e-003
9.000000000000000e+007 3.505797450774506e-003 -1.567360749723031e-003 9.437579978858941e-001 -2.995400884591868e-001 9.437579978858941e-001 -2.995400884591868e-001 3.505797450774506e-003 -1.567360749723031e-003
1.000000000000000e+008 3.337388129560526e-003 -1.753392843586559e-003 9.325962501409454e-001 -3.309239146430109e-001 9.325962501409454e-001 -3.309239146430109e-001 3.337388129560526e-003 -1.753392843586559e-003
1.100000000000000e+008 3.149722636602292e-003 -1.916610180644656e-003 9.204156681953649e-001 -3.618704375400826e-001 9.204156681953649e-001 -3.618704375400826e-001 3.149722636602292e-003 -1.916610180644656e-003
1.200000000000000e+008 2.946352363569882e-003 -2.055851284642132e-003 9.072307806278739e-001 -3.923494894357166e-001 9.072307806278739e-001 -3.923494894357166e-001 2.946352363569882e-003 -2.055851284642132e-003
1.300000000000000e+008 2.730787422382308e-003 -2.170381245929256e-003 8.930576982254898e-001 -4.223309180614711e-001 8.930576982254898e-001 -4.223309180614711e-001 2.730787422382308e-003 -2.170381245929256e-003
1.400000000000000e+008 2.506414183416794e-003 -2.259922018699349e-003 8.779138705138608e-001 -4.517848698007121e-001 8.779138705138608e-001 -4.517848698007121e-001 2.506414183416794e-003 -2.259922018699349e-003
1.500000000000000e+008 2.276417835868738e-003 -2.324619591310446e-003 8.618178949409113e-001 -4.806819436209329e-001 8.618178949409113e-001 -4.806819436209329e-001 2.276417835868738e-003 -2.324619591310446e-003
1.600000000000000e+008 2.043728560611080e-003 -2.364980271061905e-003 8.447893787424978e-001 -5.089932709605871e-001 8.447893787424978e-001 -5.089932709605871e-001 2.043728560611080e-003 -2.364980271061905e-003
1.700000000000000e+008 1.810993410742423e-003 -2.381797298995484e-003 8.268488448617019e-001 -5.366905566470077e-001 8.268488448617019e-001 -5.366905566470077e-001 1.810993410742423e-003 -2.381797298995484e-003
1.800000000000000e+008 1.580569580116986e-003 -2.376080143946229e-003 8.080176711768967e-001 -5.637461019384794e-001 8.080176711768967e-001 -5.637461019384794e-001 1.580569580116986e-003 -2.376080143946229e-003
1.900000000000000e+008 1.354533039893746e-003 -2.348992708928545e-003 7.883180530317308e-001 -5.901328216624596e-001 7.883180530317308e-001 -5.901328216624596e-001 1.354533039893746e-003 -2.348992708928545e-003
2.000000000000000e+008 1.134696853643313e-003 -2.301802811267494e-003 7.677729808136344e-001 -6.158242617078825e-001 7.677729808136344e-001 -6.158242617078825e-001 1.134696853643313e-003 -2.301802811267494e-003
2.100000000000000e+008 9.226345495005894e-004 -2.235843023919071e-003 7.464062262478178e-001 -6.407946196786810e-001 7.464062262478178e-001 -6.407946196786810e-001 9.226345495005894e-004 -2.235843023919071e-003
2.200000000000000e+008 7.197051357448192e-004 -2.152481754426102e-003 7.242423328060721e-001 -6.650187695234884e-001 7.242423328060721e-001 -6.650187695234884e-001 7.197051357448192e-004 -2.152481754426102e-003
2.300000000000000e+008 5.270774390471189e-004 -2.053102900536276e-003 7.013066070551488e-001 -6.884722898821769e-001 7.013066070551488e-001 -6.884722898821769e-001 5.270774390471189e-004 -2.053102900536276e-003
2.400000000000000e+008 3.457523336672930e-004 -1.939092289932079e-003 6.776251088770735e-001 -7.111314953780135e-001 6.776251088770735e-001 -7.111314953780135e-001 3.457523336672930e-004 -1.939092289932079e-003
2.500000000000000e+008 1.765821042050142e-004 -1.811829208126818e-003 6.532246393178549e-001 -7.329734699047610e-001 6.532246393178549e-001 -7.329734699047610e-001 1.765821042050142e-004 -1.811829208126818e-003
2.600000000000000e+008 2.028666708786542e-005 -1.672681529138235e-003 6.281327254109622e-001 -7.539761009644745e-001 6.281327254109622e-001 -7.539761009644745e-001 2.028666708786542e-005 -1.672681529138235e-003
2.700000000000000e+008 -1.225332986685146e-004 -1.523003217425343e-003 6.023776017279293e-001 -7.741181142126113e-001 6.023776017279293e-001 -7.741181142126113e-001 -1.225332986685146e-004 -1.523003217425343e-003
2.800000000000000e+008 -2.513860571757842e-004 -1.364133225159955e-003 5.759881886752590e-001 -7.933791075071200e-001 5.759881886752590e-001 -7.933791075071200e-001 -2.513860571757842e-004 -1.364133225159955e-003
2.900000000000000e+008 -3.658809898836601e-004 -1.197395043766567e-003 5.489940677217586e-001 -8.117395839054123e-001 5.489940677217586e-001 -8.117395839054123e-001 -3.658809898836601e-004 -1.197395043766567e-003
3.000000000000000e+008 -4.657228202544772e-004 -1.024096372317980e-003 5.214254538331122e-001 -8.291809831904334e-001 5.214254538331122e-001 -8.291809831904334e-001 -4.657228202544772e-004 -1.024096372317980e-003
3.100000000000000e+008 -5.507074640378473e-004 -8.455285347930407e-004 4.933131654335952e-001 -8.456857116263863e-001 4.933131654335952e-001 -8.456857116263863e-001 -5.507074640378473e-004 -8.455285347930407e-004
3.200000000000000e+008 -6.207191010176860e-004 -6.629654144052574e-004 4.646885922252070e-001 -8.612371697435216e-001 4.646885922252070e-001 -8.612371697435216e-001 -6.207191010176860e-004 -6.629654144052574e-004
3.300000000000000e+008 -6.757281012479410e-004 -4.776617795529128e-004 4.355836611843721e-001 -8.758197780301805e-001 4.355836611843721e-001 -8.758197780301805e-001 -6.757281012479410e-004 -4.776617795529128e-004
3.400000000000000e+008 -7.157894842519941e-004 -2.908509564623474e-004 4.060308010343213e-001 -8.894190004710386e-001 4.060308010343213e-001 -8.894190004710386e-001 -7.157894842519941e-004 -2.908509564623474e-004
3.500000000000000e+008 -7.410416381092855e-004 -1.037418627021403e-004 3.760629054632365e-001 -9.020213659158710e-001 3.760629054632365e-001 -9.020213659158710e-001 -7.410416381092855e-004 -1.037418627021403e-004
3.600000000000000e+008 -7.517050732532837e-004 8.248454258701436e-005 3.457132953280749e-001 -9.136144872958470e-001 3.457132953280749e-001 -9.136144872958470e-001 -7.517050732532837e-004 8.248454258701436e-005
3.700000000000000e+008 -7.480810309430375e-004 2.666793080748289e-004 3.150156800541897e-001 -9.241870787269975e-001 3.150156800541897e-001 -9.241870787269975e-001 -7.480810309430375e-004 2.666793080748289e-004
3.800000000000000e+008 -7.305498076219941e-004 4.477299384983860e-004 2.840041184128745e-001 -9.337289705552352e-001 2.840041184128745e-001 -9.337289705552352e-001 -7.305498076219941e-004 4.477299384983860e-004
3.900000000000000e+008 -6.995686930715284e-004 6.245651322664443e-004 2.527129788335897e-001 -9.422311224061478e-001 2.527129788335897e-001 -9.422311224061478e-001 -6.995686930715284e-004 6.245651322664443e-004
4.000000000000000e+008 -6.556694523627282e-004 7.961596962483563e-004 2.211768993851722e-001 -9.496856343071584e-001 2.211768993851722e-001 -9.496856343071584e-001 -6.556694523627282e-004 7.961596962483563e-004
4.100000000000000e+008 -5.994553091366317e-004 9.615395275193757e-004 1.894307475408621e-001 -9.560857559508930e-001 1.894307475408621e-001 -9.560857559508930e-001 -5.994553091366317e-004 9.615395275193757e-004
4.200000000000000e+008 -5.315974110660093e-004 1.119786556990283e-003 1.575095798253723e-001 -9.614258941676056e-001 1.575095798253723e-001 -9.614258941676056e-001 -5.315974110660093e-004 1.119786556990283e-003
4.300000000000000e+008 -4.528307777409424e-004 1.270043557262929e-003 1.254486014281969e-001 -9.657016186720739e-001 1.254486014281969e-001 -9.657016186720739e-001 -4.528307777409424e-004 1.270043557262929e-003
4.400000000000000e+008 -3.639497471692454e-004 1.411518725903483e-003 9.328312585569991e-002 -9.689096661470179e-001 9.328312585569991e-002 -9.689096661470179e-001 -3.639497471692454e-004 1.411518725903483e-003
4.500000000000000e+008 -2.658029498940895e-004 1.543489965059605e-003 6.104853468489598e-002 -9.710479427212433e-001 6.104853468489598e-002 -9.710479427212433e-001 -2.658029498940895e-004 1.543489965059605e-003
4.600000000000000e+008 -1.592878498357653e-004 1.665308788491447e-003 2.878023747397738e-002 -9.721155248966878e-001 2.878023747397738e-002 -9.721155248966878e-001 -1.592878498357653e-004 1.665308788491447e-003
4.700000000000000e+008 -4.534489873342373e-005 1.776403797317324e-003 -3.486368121704969e-003 -9.721126589744995e-001 -3.486368121704969e-003 -9.721126589744995e-001 -4.534489873342373e-005 1.776403797317324e-003
4.800000000000000e+008 7.504864326091099e-005 1.876283675853176e-003 -3.571593598459728e-002 -9.710407590264445e-001 -3.571593598459728e-002 -9.710407590264445e-001 7.504864326091099e-005 1.876283675853176e-003
4.900000000000000e+008 2.008851643188203e-004 1.964539668664643e-003 -6.787321088126347e-002 -9.689024034543262e-001 -6.787321088126347e-002 -9.689024034543262e-001 2.008851643188203e-004 1.964539668664643e-003
5.000000000000000e+008 3.311333760447344e-004 2.040847509233220e-003 -9.992306748367862e-002 -9.657013301768245e-001 -9.992306748367862e-002 -9.657013301768245e-001 3.311333760447344e-004 2.040847509233220e-003
5.100000000000000e+008 4.647451467967301e-004 2.104968779382809e-003 -1.318305490315506e-001 -9.614424304802226e-001 -1.318305490315506e-001 -9.614424304802226e-001 4.647451467967301e-004 2.104968779382809e-003
5.200000000000000e+008 6.006624329839561e-004 2.156751686755988e-003 -1.635609056036513e-001 -9.561317415669242e-001 -1.635609056036513e-001 -9.561317415669242e-001 6.006624329839561e-004 2.156751686755988e-003
5.300000000000000e+008 7.378242488615960e-004 2.196131255153164e-003 -1.950796319675717e-001 -9.497764378334188e-001 -1.950796319675717e-001 -9.497764378334188e-001 7.378242488615960e-004 2.196131255153164e-003
5.400000000000000e+008 8.751736168817192e-004 2.223128929429531e-003 -2.263525049783847e-001 -9.423848209074920e-001 -2.263525049783847e-001 -9.423848209074920e-001 8.751736168817192e-004 2.223128929429531e-003
5.500000000000000e+008 1.011664442811644e-003 2.237851602887873e-003 -2.573456204975509e-001 -9.339663084728908e-001 -2.573456204975509e-001 -9.339663084728908e-001 1.011664442811644e-003 2.237851602887873e-003
5.600000000000000e+008 1.146268262461780e-003 2.240490080716951e-003 -2.880254298039710e-001 -9.245314219084087e-001 -2.880254298039710e-001 -9.245314219084087e-001 1.146268262461780e-003 2.240490080716951e-003
5.700000000000000e+008 1.277980809883950e-003 2.231316998032466e-003 -3.183587754695609e-001 -9.140917727673397e-001 -3.183587754695609e-001 -9.140917727673397e-001 1.277980809883950e-003 2.231316998032466e-003
5.800000000000000e+008 1.405828360266481e-003 2.210684215479003e-003 -3.483129266720593e-001 -9.026600481225193e-001 -3.483129266720593e-001 -9.026600481225193e-001 1.405828360266481e-003 2.210684215479003e-003
5.900000000000000e+008 1.528873804296560e-003 2.179019719203472e-003 -3.778556139180648e-001 -8.902499948016270e-001 -3.778556139180648e-001 -8.902499948016270e-001 1.528873804296560e-003 2.179019719203472e-003
6.000000000000000e+008 1.646222414512955e-003 2.136824055311114e-003 -4.069550631495159e-001 -8.768764025370958e-001 -4.069550631495159e-001 -8.768764025370958e-001 1.646222414512955e-003 2.136824055311114e-003
6.100000000000000e+008 1.757027268008748e-003 2.084666331715721e-003 -4.355800292070574e-001 -8.625550860548062e-001 -4.355800292070574e-001 -8.625550860548062e-001 1.757027268008748e-003 2.084666331715721e-003
6.200000000000000e+008 1.860494293750459e-003 2.023179822611873e-003 -4.636998286239502e-001 -8.473028661257323e-001 -4.636998286239502e-001 -8.473028661257323e-001 1.860494293750459e-003 2.023179822611873e-003
6.300000000000000e+008 1.955886916706007e-003 1.953057212668965e-003 -4.912843717244041e-001 -8.311375496048034e-001 -4.912843717244041e-001 -8.311375496048034e-001 1.955886916706007e-003 1.953057212668965e-003
6.400000000000000e+008 2.042530274873888e-003 1.875045519496676e-003 -5.183041940004988e-001 -8.140779084814775e-001 -5.183041940004988e-001 -8.140779084814775e-001 2.042530274873888e-003 1.875045519496676e-003
6.500000000000000e+008 2.119814989167135e-003 1.789940733995017e-003 -5.447304867421061e-001 -7.961436579668243e-001 -5.447304867421061e-001 -7.961436579668243e-001 2.119814989167135e-003 1.789940733995017e-003
6.600000000000000e+008 2.187200469889628e-003 1.698582218905548e-003 -5.705351268946105e-001 -7.773554336422949e-001 -5.705351268946105e-001 -7.773554336422949e-001 2.187200469889628e-003 1.698582218905548e-003
6.700000000000000e+008 2.244217747226718e-003 1.601846906252034e-003 -5.956907061195556e-001 -7.577347676958135e-001 -5.956907061195556e-001 -7.577347676958135e-001 2.244217747226718e-003 1.601846906252034e-003
6.800000000000000e+008 2.290471816750905e-003 1.500643334418264e-003 -6.201705590337935e-001 -7.373040642712985e-001 -6.201705590337935e-001 -7.373040642712985e-001 2.290471816750905e-003 1.500643334418264e-003
6.900000000000000e+008 2.325643494387575e-003 1.395905565412450e-003 -6.439487906031597e-001 -7.160865739582689e-001 -6.439487906031597e-001 -7.160865739582689e-001 2.325643494387575e-003 1.395905565412450e-003
7.000000000000000e+008 2.349490778592034e-003 1.288587022379592e-003 -6.670003026672252e-001 -6.941063674487376e-001 -6.670003026672252e-001 -6.941063674487376e-001 2.349490778592034e-003 1.288587022379592e-003
7.100000000000000e+008 2.361849720642018e-003 1.179654286743186e-003 -6.893008195722172e-001 -6.713883083891694e-001 -6.893008195722172e-001 -6.713883083891694e-001 2.361849720642018e-003 1.179654286743186e-003
7.200000000000000e+008 2.362634806957087e-003 1.070080893436705e-003 -7.108269128898003e-001 -6.479580254558817e-001 -7.108269128898003e-001 -6.479580254558817e-001 2.362634806957087e-003 1.070080893436705e-003
7.300000000000000e+008 2.351838860179978e-003 9.608411615900810e-004 -7.315560252000808e-001 -6.238418836828248e-001 -7.315560252000808e-001 -6.238418836828248e-001 2.351838860179978e-003 9.608411615900810e-004
7.400000000000000e+008 2.329532468430706e-003 8.529040967787144e-004 -7.514664929178172e-001 -5.990669550713290e-001 -7.514664929178172e-001 -5.990669550713290e-001 2.329532468430706e-003 8.529040967787144e-004
7.500000000000000e+008 2.295862954639460e-003 7.472273995114935e-004 -7.705375681416078e-001 -5.736609885119168e-001 -7.705375681416078e-001 -5.736609885119168e-001 2.295862954639460e-003 7.472273995114935e-004
7.600000000000000e+008 2.251052900189565e-003 6.447516131013931e-004 -7.887494395065255e-001 -5.476523790489267e-001 -7.887494395065255e-001 -5.476523790489267e-001 2.251052900189565e-003 6.447516131013931e-004
7.700000000000000e+008 2.195398239253188e-003 5.463944423792782e-004 -8.060832520214751e-001 -5.210701365192291e-001 -8.060832520214751e-001 -5.210701365192291e-001 2.195398239253188e-003 5.463944423792782e-004
7.800000000000000e+008 2.129265942188097e-003 4.530452729565506e-004 -8.225211258733833e-001 -4.939438535968539e-001 -8.225211258733833e-001 -4.939438535968539e-001 2.129265942188097e-003 4.530452729565506e-004
7.900000000000000e+008 2.053091308167332e-003 3.655599188785874e-004 -8.380461741811386e-001 -4.663036732759181e-001 -8.380461741811386e-001 -4.663036732759181e-001 2.053091308167332e-003 3.655599188785874e-004
8.000000000000000e+008 1.967374888856677e-003 2.847556245798915e-004 -8.526425196831073e-001 -4.381802558247313e-001 -8.526425196831073e-001 -4.381802558247313e-001 1.967374888856677e-003 2.847556245798915e-004
8.100000000000000e+008 1.872679066424188e-003 2.114063450650976e-004 -8.662953103429245e-001 -4.096047452444651e-001 -8.662953103429245e-001 -4.096047452444651e-001 1.872679066424188e-003 2.114063450650976e-004
8.200000000000000e+008 1.769624310468565e-003 1.462383261885097e-004 -8.789907338591968e-001 -3.806087352662503e-001 -8.789907338591968e-001 -3.806087352662503e-001 1.769624310468565e-003 1.462383261885097e-004
8.300000000000000e+008 1.658885139604549e-003 8.992600483651852e-005 -8.907160310656789e-001 -3.512242349210007e-001 -8.907160310656789e-001 -3.512242349210007e-001 1.658885139604549e-003 8.992600483651852e-005
8.400000000000000e+008 1.541185814409318e-003 4.308824668218031e-005 -9.014595082094700e-001 -3.214836337167160e-001 -9.014595082094700e-001 -3.214836337167160e-001 1.541185814409318e-003 4.308824668218031e-005
8.500000000000000e+008 1.417295789275297e-003 6.284937082826910e-006 -9.112105480957360e-001 -2.914196664584049e-001 -9.112105480957360e-001 -2.914196664584049e-001 1.417295789275297e-003 6.284937082826910e-006
8.600000000000000e+008 1.288024951375366e-003 -1.998606148361257e-005 -9.199596200884830e-001 -2.610653777461582e-001 -9.199596200884830e-001 -2.610653777461582e-001 1.288024951375366e-003 -1.998606148361257e-005
8.700000000000000e+008 1.154218675470053e-003 -3.529157416399008e-005 -9.276982889579186e-001 -2.304540861872568e-001 -9.276982889579186e-001 -2.304540861872568e-001 1.154218675470053e-003 -3.529157416399008e-005
8.800000000000000e+008 1.016752723664083e-003 -3.926539153145604e-005 -9.344192225659707e-001 -1.996193483585170e-001 -9.344192225659707e-001 -1.996193483585170e-001 1.016752723664083e-003 -3.926539153145604e-005
8.900000000000000e+008 8.765280194469316e-004 -3.161015343019230e-005 -9.401161983825840e-001 -1.685949225554230e-001 -9.401161983825840e-001 -1.685949225554230e-001 8.765280194469316e-004 -3.161015343019230e-005
9.000000000000000e+008 7.344653254512945e-004 -1.209883395773740e-005 -9.447841088264966e-001 -1.374147323648068e-001 -9.447841088264966e-001 -1.374147323648068e-001 7.344653254512945e-004 -1.209883395773740e-005
9.100000000000000e+008 5.914998543176120e-004 1.942417524981022e-005 -9.484189654252545e-001 -1.061128300981541e-001 -9.484189654252545e-001 -1.061128300981541e-001 5.914998543176120e-004 1.942417524981022e-005
9.200000000000000e+008 4.485758418850683e-004 6.304238422644893e-005 -9.510179017903472e-001 -7.472336012279271e-002 -9.510179017903472e-001 -7.472336012279271e-002 4.485758418850683e-004 6.304238422644893e-005
9.300000000000000e+008 3.066411116311452e-004 1.187669251775765e-004 -9.525791754044318e-001 -4.328052212843225e-002 -9.525791754044318e-001 -4.328052212843225e-002 3.066411116311452e-004 1.187669251775765e-004
9.400000000000000e+008 1.666416588669284e-004 1.865366711234665e-004 -9.531021682187595e-001 -1.181853436670063e-002 -9.531021682187595e-001 -1.181853436670063e-002 1.666416588669284e-004 1.865366711234665e-004
