! Touchstone generated by fitter/viewer 
# HZ S  RI R 5.000000e+001
! 
1.000000000000000e+007 6.586810518530384e-003 1.563376315380750e-003 9.921308237043364e-001 -3.665130609426905e-002 9.921308237043364e-001 -3.665130609426905e-002 6.586810518530384e-003 1.563376315380750e-003
2.000000000000000e+007 7.502103130014537e-003 1.689530946335789e-003 9.887385241453903e-001 -7.118499484491703e-002 9.887385241453903e-001 -7.118499484491703e-002 7.502103130014537e-003 1.689530946335789e-003
3.000000000000000e+007 8.140086812251979e-003 1.616903546400019e-003 9.844667137432605e-001 -1.051782014578402e-001 9.844667137432605e-001 -1.051782014578402e-001 8.140086812251979e-003 1.616903546400019e-003
4.000000000000000e+007 8.620568068780643e-003 1.451359473411878e-003 9.791960889470400e-001 -1.387726750646112e-001 9.791960889470400e-001 -1.387726750646112e-001 8.620568068780643e-003 1.451359473411878e-003
5.000000000000000e+007 8.995638913591453e-003 1.237413760184518e-003 9.728949578874762e-001 -1.720012190332645e-001 9.728949578874762e-001 -1.720012190332645e-001 8.995638913591453e-003 1.237413760184518e-003
6.000000000000000e+007 9.294636707665394e-003 9.941841690027998e-004 9.655561973744168e-001 -2.048688684868581e-001 9.655561973744168e-001 -2.048688684868581e-001 9.294636707665394e-003 9.941841690027998e-004
7.000000000000000e+007 9.533784642591026e-003 7.309633200761882e-004 9.571798779885352e-001 -2.373676117958350e-001 9.571798779885352e-001 -2.373676117958350e-001 9.533784642591026e-003 7.309633200761882e-004
8.000000000000000e+007 9.722290022393998e-003 4.539115855594397e-004 9.477696536121426e-001 -2.694809230755633e-001 9.477696536121426e-001 -2.694809230755633e-001 9.722290022393998e-003 4.539115855594397e-004
9.000000000000000e+007 9.866064303431843e-003 1.682143943475978e-004 9.373322294582365e-001 -3.011866793528997e-001 9.373322294582365e-001 -3.011866793528997e-001 9.866064303431843e-003 1.682143943475978e-004
1.000000000000000e+008 9.969633488402296e-003 -1.214869725696061e-004 9.258771549115827e-001 -3.324593478058224e-001 9.258771549115827e-001 -3.324593478058224e-001 9.969633488402296e-003 -1.214869725696061e-004
1.100000000000000e+008 1.003697295457218e-002 -4.111386190084375e-004 9.134165011706081e-001 -3.632715173288480e-001 9.134165011706081e-001 -3.632715173288480e-001 1.003697295457218e-002 -4.111386190084375e-004
1.200000000000000e+008 1.007180184977563e-002 -6.973573725527070e-004 8.999644754996014e-001 -3.935948944325419e-001 8.999644754996014e-001 -3.935948944325419e-001 1.007180184977563e-002 -6.973573725527070e-004
1.300000000000000e+008 1.007764284312696e-002 -9.774489784499275e-004 8.855370560659766e-001 -4.234009162650732e-001 8.855370560659766e-001 -4.234009162650732e-001 1.007764284312696e-002 -9.774489784499275e-004
1.400000000000000e+008 1.005779969519483e-002 -1.249362647478246e-003 8.701516893731092e-001 -4.526611130517829e-001 8.701516893731092e-001 -4.526611130517829e-001 1.005779969519483e-002 -1.249362647478246e-003
1.500000000000000e+008 1.001532051162002e-002 -1.511607297030631e-003 8.538270595291274e-001 -4.813473162675698e-001 8.538270595291274e-001 -4.813473162675698e-001 1.001532051162002e-002 -1.511607297030631e-003
1.600000000000000e+008 9.952972379645653e-003 -1.763152854089430e-003 8.365829222911269e-001 -5.094317766764930e-001 8.365829222911269e-001 -5.094317766764930e-001 9.952972379645653e-003 -1.763152854089430e-003
1.700000000000000e+008 9.873233683819760e-003 -2.003332493948209e-003 8.184399910664356e-001 -5.368872326928911e-001 8.184399910664356e-001 -5.368872326928911e-001 9.873233683819760e-003 -2.003332493948209e-003
1.800000000000000e+008 9.778302360269109e-003 -2.231754821496909e-003 7.994198615484282e-001 -5.636869535311178e-001 7.994198615484282e-001 -5.636869535311178e-001 9.778302360269109e-003 -2.231754821496909e-003
1.900000000000000e+008 9.670115705356142e-003 -2.448230065631077e-003 7.795449633385044e-001 -5.898047713024156e-001 7.795449633385044e-001 -5.898047713024156e-001 9.670115705356142e-003 -2.448230065631077e-003
2.000000000000000e+008 9.550377116443576e-003 -2.652711207232426e-003 7.588385292236937e-001 -6.152151097733141e-001 7.588385292236937e-001 -6.152151097733141e-001 9.550377116443576e-003 -2.652711207232426e-003
2.100000000000000e+008 9.420585857039532e-003 -2.845249142322252e-003 7.373245750515949e-001 -6.398930135859999e-001 7.373245750515949e-001 -6.398930135859999e-001 9.420585857039532e-003 -2.845249142322252e-003
2.200000000000000e+008 9.282066920921706e-003 -3.025960065993476e-003 7.150278851027764e-001 -6.638141794471032e-001 7.150278851027764e-001 -6.638141794471032e-001 9.282066920921706e-003 -3.025960065993476e-003
2.300000000000000e+008 9.135999015381091e-003 -3.195002921236517e-003 6.919739994353655e-001 -6.869549895157445e-001 6.919739994353655e-001 -6.869549895157445e-001 9.135999015381091e-003 -3.195002921236517e-003
2.400000000000000e+008 8.983439474581134e-003 -3.352564758193496e-003 6.681892008849135e-001 -7.092925465729215e-001 6.681892008849135e-001 -7.092925465729215e-001 8.983439474581134e-003 -3.352564758193496e-003
2.500000000000000e+008 8.825345521800809e-003 -3.498852038104895e-003 6.437005002961626e-001 -7.308047102801458e-001 6.437005002961626e-001 -7.308047102801458e-001 8.825345521800809e-003 -3.498852038104895e-003
2.600000000000000e+008 8.662591736084857e-003 -3.634086191783043e-003 6.185356192019716e-001 -7.514701337751623e-001 6.185356192019716e-001 -7.514701337751623e-001 8.662591736084857e-003 -3.634086191783043e-003
2.700000000000000e+008 8.495983872234048e-003 -3.758502042999230e-003 5.927229696052930e-001 -7.712682999061560e-001 5.927229696052930e-001 -7.712682999061560e-001 8.495983872234048e-003 -3.758502042999230e-003
2.800000000000000e+008 8.326269364231864e-003 -3.872347996885611e-003 5.662916308118452e-001 -7.901795565118428e-001 5.662916308118452e-001 -7.901795565118428e-001 8.326269364231864e-003 -3.872347996885611e-003
2.900000000000000e+008 8.154144939899521e-003 -3.975887153599192e-003 5.392713234441785e-001 -8.081851502772968e-001 5.392713234441785e-001 -8.081851502772968e-001 8.154144939899521e-003 -3.975887153599192e-003
3.000000000000000e+008 7.980261813052780e-003 -4.069398730299403e-003 5.116923808737309e-001 -8.252672588144319e-001 5.116923808737309e-001 -8.252672588144319e-001 7.980261813052780e-003 -4.069398730299403e-003
3.100000000000000e+008 7.805228917943330e-003 -4.153179358495011e-003 4.835857183602615e-001 -8.414090207218420e-001 4.835857183602615e-001 -8.414090207218420e-001 7.805228917943330e-003 -4.153179358495011e-003
3.200000000000000e+008 7.629614623876679e-003 -4.227543971483192e-003 4.549828002055413e-001 -8.565945634673348e-001 4.549828002055413e-001 -8.565945634673348e-001 7.629614623876679e-003 -4.227543971483192e-003
3.300000000000000e+008 7.453947326313992e-003 -4.292826111896792e-003 4.259156052232802e-001 -8.708090290075186e-001 4.259156052232802e-001 -8.708090290075186e-001 7.453947326313992e-003 -4.292826111896792e-003
3.400000000000000e+008 7.278715261925250e-003 -4.349377577190493e-003 3.964165908090588e-001 -8.840385971135523e-001 3.964165908090588e-001 -8.840385971135523e-001 7.278715261925250e-003 -4.349377577190493e-003
3.500000000000000e+008 7.104365844135541e-003 -4.397567385867347e-003 3.665186558687910e-001 -8.962705064128517e-001 3.665186558687910e-001 -8.962705064128517e-001 7.104365844135541e-003 -4.397567385867347e-003
3.600000000000000e+008 6.931304765890323e-003 -4.437780093810246e-003 3.362551028360832e-001 -9.074930731855141e-001 3.362551028360832e-001 -9.074930731855141e-001 6.931304765890323e-003 -4.437780093810246e-003
3.700000000000000e+008 6.759895069753386e-003 -4.470413521998033e-003 3.056595989805110e-001 -9.176957079738191e-001 3.056595989805110e-001 -9.176957079738191e-001 6.759895069753386e-003 -4.470413521998033e-003
3.800000000000000e+008 6.590456343055662e-003 -4.495875977409609e-003 2.747661371818578e-001 -9.268689300754602e-001 2.747661371818578e-001 -9.268689300754602e-001 6.590456343055662e-003 -4.495875977409609e-003
3.900000000000000e+008 6.423264158161524e-003 -4.514583060707038e-003 2.436089963206952e-001 -9.350043799978774e-001 2.436089963206952e-001 -9.350043799978774e-001 6.423264158161524e-003 -4.514583060707038e-003
4.000000000000000e+008 6.258549845053474e-003 -4.526954159496478e-003 2.122227014137234e-001 -9.420948299537036e-001 2.122227014137234e-001 -9.420948299537036e-001 6.258549845053474e-003 -4.526954159496478e-003
4.100000000000000e+008 6.096500655239034e-003 -4.533408726300129e-003 1.806419836031531e-001 -9.481341924770267e-001 1.806419836031531e-001 -9.481341924770267e-001 6.096500655239034e-003 -4.533408726300129e-003
4.200000000000000e+008 5.937260352071316e-003 -4.534362437213488e-003 1.489017400930044e-001 -9.531175272378240e-001 1.489017400930044e-001 -9.531175272378240e-001 5.937260352071316e-003 -4.534362437213488e-003
4.300000000000000e+008 5.780930242634597e-003 -4.530223321588219e-003 1.170369941113422e-001 -9.570410461283074e-001 1.170369941113422e-001 -9.570410461283074e-001 5.780930242634597e-003 -4.530223321588219e-003
4.400000000000000e+008 5.627570649913261e-003 -4.521387945813184e-003 8.508285496589664e-002 -9.599021166904213e-001 8.508285496589664e-002 -9.599021166904213e-001 5.627570649913261e-003 -4.521387945813184e-003
4.500000000000000e+008 5.477202810651782e-003 -4.508237725965639e-003 5.307447825099314e-002 -9.616992639489476e-001 5.307447825099314e-002 -9.616992639489476e-001 5.477202810651782e-003 -4.508237725965639e-003
4.600000000000000e+008 5.329811173745425e-003 -4.491135435246744e-003 2.104702625592283e-002 -9.624321707096790e-001 2.104702625592283e-002 -9.624321707096790e-001 5.329811173745425e-003 -4.491135435246744e-003
4.700000000000000e+008 5.185346065790908e-003 -4.470421963050349e-003 -1.096437138137724e-002 -9.621016763772872e-001 -1.096437138137724e-002 -9.621016763772872e-001 5.185346065790908e-003 -4.470421963050349e-003
4.800000000000000e+008 5.043726684273664e-003 -4.446413373500260e-003 -4.292465673644299e-002 -9.607097743428760e-001 -4.292465673644299e-002 -9.607097743428760e-001 5.043726684273664e-003 -4.446413373500260e-003
4.900000000000000e+008 4.904844374470807e-003 -4.419398302516663e-003 -7.479888234126929e-002 -9.582596079868850e-001 -7.479888234126929e-002 -9.582596079868850e-001 4.904844374470807e-003 -4.419398302516663e-003
5.000000000000000e+008 4.768566143233954e-003 -4.389635724072069e-003 -1.065522495762236e-001 -9.547554653390885e-001 -1.065522495762236e-001 -9.547554653390885e-001 4.768566143233954e-003 -4.389635724072069e-003
5.100000000000000e+008 4.634738361216417e-003 -4.357353108365891e-003 -1.381501466812919e-001 -9.502027724338765e-001 -1.381501466812919e-001 -9.502027724338765e-001 4.634738361216417e-003 -4.357353108365891e-003
5.200000000000000e+008 4.503190604500662e-003 -4.322744987240302e-003 -1.695581863587441e-001 -9.446080853958958e-001 -1.695581863587441e-001 -9.446080853958958e-001 4.503190604500662e-003 -4.322744987240302e-003
5.300000000000000e+008 4.373739586971293e-003 -4.285971935325873e-003 -2.007422429405776e-001 -9.379790812883679e-001 -2.007422429405776e-001 -9.379790812883679e-001 4.373739586971293e-003 -4.285971935325873e-003
5.400000000000000e+008 4.246193135806209e-003 -4.247159969147370e-003 -2.316684890949220e-001 -9.303245477540912e-001 -2.316684890949220e-001 -9.303245477540912e-001 4.246193135806209e-003 -4.247159969147370e-003
5.500000000000000e+008 4.120354164184548e-003 -4.206400360764116e-003 -2.623034320461939e-001 -9.216543714771498e-001 -2.623034320461939e-001 -9.216543714771498e-001 4.120354164184548e-003 -4.206400360764116e-003
5.600000000000000e+008 3.996024597466619e-003 -4.163749857435447e-003 -2.926139492841020e-001 -9.119795254917082e-001 -2.926139492841020e-001 -9.119795254917082e-001 3.996024597466619e-003 -4.163749857435447e-003
5.700000000000000e+008 3.873009211689316e-003 -4.119231294305602e-003 -3.225673237368054e-001 -9.013120553629846e-001 -3.225673237368054e-001 -9.013120553629846e-001 3.873009211689316e-003 -4.119231294305602e-003
5.800000000000000e+008 3.751119346091181e-003 -4.072834583145988e-003 -3.521312783835769e-001 -8.896650642644501e-001 -3.521312783835769e-001 -8.896650642644501e-001 3.751119346091181e-003 -4.072834583145988e-003
5.900000000000000e+008 3.630176454492040e-003 -4.024518056780411e-003 -3.812740102823066e-001 -8.770526969745427e-001 -3.812740102823066e-001 -8.770526969745427e-001 3.630176454492040e-003 -4.024518056780411e-003
6.000000000000000e+008 3.510015463620286e-003 -3.974210145908390e-003 -4.099642239871326e-001 -8.634901228156776e-001 -4.099642239871326e-001 -8.634901228156776e-001 3.510015463620286e-003 -3.974210145908390e-003
6.100000000000000e+008 3.390487909863071e-003 -3.921811362609651e-003 -4.381711643313917e-001 -8.489935175579837e-001 -4.381711643313917e-001 -8.489935175579837e-001 3.390487909863071e-003 -3.921811362609651e-003
6.200000000000000e+008 3.271464829333270e-003 -3.867196562834100e-003 -4.658646485510183e-001 -8.335800443100939e-001 -4.658646485510183e-001 -8.335800443100939e-001 3.271464829333270e-003 -3.867196562834100e-003
6.300000000000000e+008 3.152839379608197e-003 -3.810217458633031e-003 -4.930150977234539e-001 -8.172678334193413e-001 -4.930150977234539e-001 -8.172678334193413e-001 3.152839379608197e-003 -3.810217458633031e-003
6.400000000000000e+008 3.034529174903322e-003 -3.750705349709813e-003 -5.195935674971236e-001 -8.000759614038689e-001 -5.195935674971236e-001 -8.000759614038689e-001 3.034529174903322e-003 -3.750705349709813e-003
6.500000000000000e+008 2.916478319825555e-003 -3.688474043085255e-003 -5.455717780865278e-001 -7.820244289394803e-001 -5.455717780865278e-001 -7.820244289394803e-001 2.916478319825555e-003 -3.688474043085255e-003
6.600000000000000e+008 2.798659130132775e-003 -3.623322929201492e-003 -5.709221435080967e-001 -7.631341379244406e-001 -5.709221435080967e-001 -7.631341379244406e-001 2.798659130132775e-003 -3.623322929201492e-003
6.700000000000000e+008 2.681073532119438e-003 -3.555040182638035e-003 -5.956178000320661e-001 -7.434268676459218e-001 -5.956178000320661e-001 -7.434268676459218e-001 2.681073532119438e-003 -3.555040182638035e-003
6.800000000000000e+008 2.563754135312957e-003 -3.483406055736011e-003 -6.196326338258252e-001 -7.229252500723631e-001 -6.196326338258252e-001 -7.229252500723631e-001 2.563754135312957e-003 -3.483406055736011e-003
6.900000000000000e+008 2.446764976107185e-003 -3.408196233817902e-003 -6.429413077644282e-001 -7.016527442966102e-001 -6.429413077644282e-001 -7.016527442966102e-001 2.446764976107185e-003 -3.408196233817902e-003
7.000000000000000e+008 2.330201932740139e-003 -3.329185221290983e-003 -6.655192873842891e-001 -6.796336101553863e-001 -6.655192873842891e-001 -6.796336101553863e-001 2.330201932740139e-003 -3.329185221290983e-003
7.100000000000000e+008 2.214192814661731e-003 -3.246149728755946e-003 -6.873428659564428e-001 -6.568928810513391e-001 -6.873428659564428e-001 -6.568928810513391e-001 2.214192814661731e-003 -3.246149728755946e-003
7.200000000000000e+008 2.098897131806110e-003 -3.158872032231799e-003 -7.083891886561905e-001 -6.334563360046324e-001 -7.083891886561905e-001 -6.334563360046324e-001 2.098897131806110e-003 -3.158872032231799e-003
7.300000000000000e+008 1.984505551585358e-003 -3.067143276785320e-003 -7.286362758064716e-001 -6.093504709618146e-001 -7.286362758064716e-001 -6.093504709618146e-001 1.984505551585358e-003 -3.067143276785320e-003
7.400000000000000e+008 1.871239053552798e-003 -2.970766698159492e-003 -7.480630451728332e-001 -5.846024693904348e-001 -7.480630451728332e-001 -5.846024693904348e-001 1.871239053552798e-003 -2.970766698159492e-003
7.500000000000000e+008 1.759347793644617e-003 -2.869560737421534e-003 -7.666493332885144e-001 -5.592401721886564e-001 -7.666493332885144e-001 -5.592401721886564e-001 1.759347793644617e-003 -2.869560737421534e-003
7.600000000000000e+008 1.649109691687078e-003 -2.763362025196862e-003 -7.843759157888256e-001 -5.332920469398632e-001 -7.843759157888256e-001 -5.332920469398632e-001 1.649109691687078e-003 -2.763362025196862e-003
7.700000000000000e+008 1.540828757475743e-003 -2.652028213680237e-003 -8.012245267347368e-001 -5.067871565430107e-001 -8.012245267347368e-001 -5.067871565430107e-001 1.540828757475743e-003 -2.652028213680237e-003
7.800000000000000e+008 1.434833172166306e-003 -2.535440636308873e-003 -8.171778769063716e-001 -4.797551272502145e-001 -8.171778769063716e-001 -4.797551272502145e-001 1.434833172166306e-003 -2.535440636308873e-003
7.900000000000000e+008 1.331473142988537e-003 -2.413506776747028e-003 -8.322196710479253e-001 -4.522261161437909e-001 -8.322196710479253e-001 -4.522261161437909e-001 1.331473142988537e-003 -2.413506776747028e-003
8.000000000000000e+008 1.231118550397370e-003 -2.286162530633352e-003 -8.463346240464285e-001 -4.242307780856491e-001 -8.463346240464285e-001 -4.242307780856491e-001 1.231118550397370e-003 -2.286162530633352e-003
8.100000000000000e+008 1.134156407716414e-003 -2.153374245370190e-003 -8.595084760276605e-001 -3.958002321726453e-001 -8.595084760276605e-001 -3.958002321726453e-001 1.134156407716414e-003 -2.153374245370190e-003
8.200000000000000e+008 1.040988154106692e-003 -2.015140525100392e-003 -8.717280063535235e-001 -3.669660277321225e-001 -8.717280063535235e-001 -3.669660277321225e-001 1.040988154106692e-003 -2.015140525100392e-003
8.300000000000000e+008 9.520268023243128e-004 -1.871493789868541e-003 -8.829810465061594e-001 -3.377601098925006e-001 -8.829810465061594e-001 -3.377601098925006e-001 9.520268023243128e-004 -1.871493789868541e-003
8.400000000000000e+008 8.676939632024094e-004 -1.722501579836727e-003 -8.932564918451461e-001 -3.082147847643852e-001 -8.932564918451461e-001 -3.082147847643852e-001 8.676939632024094e-004 -1.722501579836727e-003
8.500000000000000e+008 7.884167691277755e-004 -1.568267597272759e-003 -9.025443122251937e-001 -2.783626842681657e-001 -9.025443122251937e-001 -2.783626842681657e-001 7.884167691277755e-004 -1.568267597272759e-003
8.600000000000000e+008 7.146247189745436e-004 -1.408932480861427e-003 -9.108355614628459e-001 -2.482367306446721e-001 -9.108355614628459e-001 -2.482367306446721e-001 7.146247189745436e-004 -1.408932480861427e-003
8.700000000000000e+008 6.467464670115719e-004 -1.244674308698069e-003 -9.181223856418583e-001 -2.178701006858617e-001 -9.181223856418583e-001 -2.178701006858617e-001 6.467464670115719e-004 -1.244674308698069e-003
8.800000000000000e+008 5.852065782341320e-004 -1.075708828096821e-003 -9.243980302480719e-001 -1.872961897230145e-001 -9.243980302480719e-001 -1.872961897230145e-001 5.852065782341320e-004 -1.075708828096821e-003
8.900000000000000e+008 5.304222723800933e-004 -9.022894120697767e-004 -9.296568461258102e-001 -1.565485754102731e-001 -9.296568461258102e-001 -1.565485754102731e-001 5.304222723800933e-004 -9.022894120697767e-004
9.000000000000000e+008 4.828001785714964e-004 -7.247067440231134e-004 -9.338942942490298e-001 -1.256609813417601e-001 -9.338942942490298e-001 -1.256609813417601e-001 4.828001785714964e-004 -7.247067440231134e-004
9.100000000000000e+008 4.427331221132924e-004 -5.432882338390456e-004 -9.371069493017112e-001 -9.466724054079555e-002 -9.371069493017112e-001 -9.466724054079555e-002 4.427331221132924e-004 -5.432882338390456e-004
9.200000000000000e+008 4.105969644514484e-004 -3.583971700846945e-004 -9.392925020632270e-001 -6.360125886002510e-002 -9.392925020632270e-001 -6.360125886002510e-002 4.105969644514484e-004 -3.583971700846945e-004
9.300000000000000e+008 3.867475166622336e-004 -1.704316145937869e-004 -9.404497605957081e-001 -3.249697833150431e-002 -9.404497605957081e-001 -3.249697833150431e-002 3.867475166622336e-004 -1.704316145937869e-004
9.400000000000000e+008 3.715175461416198e-004 2.017695289639875e-005 -9.405786502317233e-001 -1.388340505951950e-003 -9.405786502317233e-001 -1.388340505951950e-003 3.715175461416198e-004 2.017695289639875e-005
