! Touchstone generated by fitter/viewer 
# HZ S  RI R 5.000000e+001
! 
1.000000000000000e+007 9.271688164673941e-003 1.597682067369115e-002 9.900116708658074e-001 -3.934399589793100e-002 9.900116708658074e-001 -3.934399589793100e-002 9.271688164673941e-003 1.597682067369115e-002
2.000000000000000e+007 1.211472197084251e-002 2.997539087121235e-002 9.859201253026253e-001 -7.629005864338696e-002 9.859201253026253e-001 -7.629005864338696e-002 1.211472197084251e-002 2.997539087121235e-002
3.000000000000000e+007 1.563069710589116e-002 4.347457760557658e-002 9.806408484064563e-001 -1.125642228733366e-001 9.806408484064563e-001 -1.125642228733366e-001 1.563069710589116e-002 4.347457760557658e-002
4.000000000000000e+007 1.993079788944829e-002 5.654738942532971e-002 9.740558938412011e-001 -1.482850316386522e-001 9.740558938412011e-001 -1.482850316386522e-001 1.993079788944829e-002 5.654738942532971e-002
5.000000000000000e+007 2.503959414885959e-002 6.918434537274484e-002 9.661463824389820e-001 -1.834559911672853e-001 9.661463824389820e-001 -1.834559911672853e-001 2.503959414885959e-002 6.918434537274484e-002
6.000000000000000e+007 3.095105766624495e-002 8.134832981712628e-002 9.569247217829346e-001 -2.180506296008325e-001 9.569247217829346e-001 -2.180506296008325e-001 3.095105766624495e-002 8.134832981712628e-002
7.000000000000000e+007 3.764151691646123e-002 9.299317505472024e-002 9.464163493107852e-001 -2.520308668274764e-001 9.464163493107852e-001 -2.520308668274764e-001 3.764151691646123e-002 9.299317505472024e-002
8.000000000000000e+007 4.507618682094139e-002 1.040714313212362e-001 9.346545912515095e-001 -2.853534082115562e-001 9.346545912515095e-001 -2.853534082115562e-001 4.507618682094139e-002 1.040714313212362e-001
9.000000000000000e+007 5.321295464494580e-002 1.145375211355096e-001 9.216788442639978e-001 -3.179733005301177e-001 9.216788442639978e-001 -3.179733005301177e-001 5.321295464494580e-002 1.145375211355096e-001
1.000000000000000e+008 6.200456658914411e-002 1.243490477713893e-001 9.075334843907553e-001 -3.498462760227847e-001 9.075334843907553e-001 -3.498462760227847e-001 6.200456658914411e-002 1.243490477713893e-001
1.100000000000000e+008 7.139993861752969e-002 1.334674124441859e-001 8.922669250669448e-001 -3.809303100047264e-001 8.922669250669448e-001 -3.809303100047264e-001 7.139993861752969e-002 1.334674124441859e-001
1.200000000000000e+008 8.134502730277893e-002 1.418581709177898e-001 8.759307383371278e-001 -4.111866220836880e-001 8.759307383371278e-001 -4.111866220836880e-001 8.134502730277893e-002 1.418581709177898e-001
1.300000000000000e+008 9.178349322670298e-002 1.494912727851657e-001 8.585788437707925e-001 -4.405802878054213e-001 8.585788437707925e-001 -4.405802878054213e-001 9.178349322670298e-002 1.494912727851657e-001
1.400000000000000e+008 1.026572691381710e-001 1.563412245596296e-001 8.402667728443806e-001 -4.690805803356593e-001 8.402667728443806e-001 -4.690805803356593e-001 1.026572691381710e-001 1.563412245596296e-001
1.500000000000000e+008 1.139070814658284e-001 1.623871862451175e-001 8.210510091463095e-001 -4.966611242322134e-001 8.210510091463095e-001 -4.966611242322134e-001 1.139070814658284e-001 1.623871862451175e-001
1.600000000000000e+008 1.254729426334237e-001 1.676130040262833e-001 8.009884003454666e-001 -5.232999163701914e-001 8.009884003454666e-001 -5.232999163701914e-001 1.254729426334237e-001 1.676130040262833e-001
1.700000000000000e+008 1.372946174643464e-001 1.720071820563311e-001 7.801356365589742e-001 -5.489792510331668e-001 7.801356365589742e-001 -5.489792510331668e-001 1.372946174643464e-001 1.720071820563311e-001
1.800000000000000e+008 1.493120612672738e-001 1.755627981884197e-001 7.585487900029450e-001 -5.736855745668734e-001 7.585487900029450e-001 -5.736855745668734e-001 1.493120612672738e-001 1.755627981884197e-001
1.900000000000000e+008 1.614658255659417e-001 1.782773701247531e-001 7.362829115524168e-001 -5.974092876294025e-001 7.362829115524168e-001 -5.974092876294025e-001 1.614658255659417e-001 1.782773701247531e-001
2.000000000000000e+008 1.736974276644190e-001 1.801526794544099e-001 7.133916805705846e-001 -6.201445083972318e-001 7.133916805705846e-001 -6.201445083972318e-001 1.736974276644190e-001 1.801526794544099e-001
2.100000000000000e+008 1.859496812305238e-001 1.811945614506571e-001 6.899271049137862e-001 -6.418888070674701e-001 6.899271049137862e-001 -6.418888070674701e-001 1.859496812305238e-001 1.811945614506571e-001
2.200000000000000e+008 1.981669862985858e-001 1.814126684375939e-001 6.659392683515771e-001 -6.626429199809409e-001 6.659392683515771e-001 -6.626429199809409e-001 1.981669862985858e-001 1.814126684375939e-001
2.300000000000000e+008 2.102955782833704e-001 1.808202141531889e-001 6.414761227959820e-001 -6.824104502754129e-001 6.414761227959820e-001 -6.824104502754129e-001 2.102955782833704e-001 1.808202141531889e-001
2.400000000000000e+008 2.222837366461673e-001 1.794337059449546e-001 6.165833227631022e-001 -7.011975609189420e-001 6.165833227631022e-001 -7.011975609189420e-001 2.222837366461673e-001 1.794337059449546e-001
2.500000000000000e+008 2.340819547202946e-001 1.772726709223428e-001 5.913040994445254e-001 -7.190126651244811e-001 5.913040994445254e-001 -7.190126651244811e-001 2.340819547202946e-001 1.772726709223428e-001
2.600000000000000e+008 2.456430728811743e-001 1.743593814197301e-001 5.656791716873468e-001 -7.358661184245043e-001 5.656791716873468e-001 -7.358661184245043e-001 2.456430728811743e-001 1.743593814197301e-001
2.700000000000000e+008 2.569223777477141e-001 1.707185843406180e-001 5.397466911016966e-001 -7.517699160418830e-001 5.397466911016966e-001 -7.517699160418830e-001 2.569223777477141e-001 1.707185843406180e-001
2.800000000000000e+008 2.678776704467865e-001 1.663772381884522e-001 5.135422184549215e-001 -7.667373986067840e-001 5.135422184549215e-001 -7.667373986067840e-001 2.678776704467865e-001 1.663772381884522e-001
2.900000000000000e+008 2.784693071833698e-001 1.613642608631754e-001 4.870987284851942e-001 -7.807829687284003e-001 4.870987284851942e-001 -7.807829687284003e-001 2.784693071833698e-001 1.613642608631754e-001
3.000000000000000e+008 2.886602154575385e-001 1.557102906283839e-001 4.604466402807016e-001 -7.939218204314978e-001 4.604466402807016e-001 -7.939218204314978e-001 2.886602154575385e-001 1.557102906283839e-001
3.100000000000000e+008 2.984158892766808e-001 1.494474620395208e-001 4.336138704250292e-001 -8.061696830114681e-001 4.336138704250292e-001 -8.061696830114681e-001 2.984158892766808e-001 1.494474620395208e-001
3.200000000000000e+008 3.077043666458155e-001 1.426091980724437e-001 4.066259062026293e-001 -8.175425804493459e-001 4.066259062026293e-001 -8.175425804493459e-001 3.077043666458155e-001 1.426091980724437e-001
3.300000000000000e+008 3.164961924970602e-001 1.352300192046212e-001 3.795058962857412e-001 -8.280566071618918e-001 3.795058962857412e-001 -8.280566071618918e-001 3.164961924970602e-001 1.352300192046212e-001
3.400000000000000e+008 3.247643700555409e-001 1.273453697766840e-001 3.522747564797672e-001 -8.377277205422983e-001 3.522747564797672e-001 -8.377277205422983e-001 3.247643700555409e-001 1.273453697766840e-001
3.500000000000000e+008 3.324843034454035e-001 1.189914615970556e-001 3.249512882812292e-001 -8.465715504745999e-001 3.249512882812292e-001 -8.465715504745999e-001 3.324843034454035e-001 1.189914615970556e-001
3.600000000000000e+008 3.396337341262968e-001 1.102051344429180e-001 2.975523081943298e-001 -8.546032257784898e-001 2.975523081943298e-001 -8.546032257784898e-001 3.396337341262968e-001 1.102051344429180e-001
3.700000000000000e+008 3.461926735261132e-001 1.010237328521666e-001 2.700927859523369e-001 -8.618372173593251e-001 2.700927859523369e-001 -8.618372173593251e-001 3.461926735261132e-001 1.010237328521666e-001
3.800000000000000e+008 3.521433340065796e-001 9.148499838816163e-002 2.425859899926232e-001 -8.682871976980526e-001 2.425859899926232e-001 -8.682871976980526e-001 3.521433340065796e-001 9.148499838816163e-002
3.900000000000000e+008 3.574700600698321e-001 8.162697638686707e-002 2.150436387340241e-001 -8.739659162145951e-001 2.150436387340241e-001 -8.739659162145951e-001 3.574700600698321e-001 8.162697638686707e-002
4.000000000000000e+008 3.621592614901872e-001 7.148793605915504e-002 1.874760563977603e-001 -8.788850899724293e-001 1.874760563977603e-001 -8.788850899724293e-001 3.621592614901872e-001 7.148793605915504e-002
4.100000000000000e+008 3.661993498389218e-001 6.110630271471357e-002 1.598923322947748e-001 -8.830553091579659e-001 1.598923322947748e-001 -8.830553091579659e-001 3.661993498389218e-001 6.110630271471357e-002
4.200000000000000e+008 3.695806796626289e-001 5.052060079341941e-002 1.323004826700314e-001 -8.864859567621287e-001 1.323004826700314e-001 -8.864859567621287e-001 3.695806796626289e-001 5.052060079341941e-002
4.300000000000000e+008 3.722954953787301e-001 3.976940633091859e-002 1.047076143456021e-001 -8.891851419094682e-001 1.047076143456021e-001 -8.891851419094682e-001 3.722954953787301e-001 3.976940633091859e-002
4.400000000000000e+008 3.743378847651269e-001 2.889130744364734e-002 7.712008953764254e-002 -8.911596463185126e-001 7.712008953764254e-002 -8.911596463185126e-001 3.743378847651269e-001 2.889130744364734e-002
4.500000000000000e+008 3.757037397445472e-001 1.792487139119052e-002 4.954369133604287e-002 -8.924148834323550e-001 4.954369133604287e-002 -8.924148834323550e-001 3.757037397445472e-001 1.792487139119052e-002
4.600000000000000e+008 3.763907249969252e-001 6.908616757889125e-003 2.198378942896797e-002 -8.929548698272615e-001 2.198378942896797e-002 -8.929548698272615e-001 3.763907249969252e-001 6.908616757889125e-003
4.700000000000000e+008 3.763982547741058e-001 -4.119010711433068e-003 -5.554494273157725e-003 -8.927822085862034e-001 -5.554494273157725e-003 -8.927822085862034e-001 3.763982547741058e-001 -4.119010711433068e-003
4.800000000000000e+008 3.757274781387106e-001 -1.511966008664131e-002 -3.306612040860845e-002 -8.918980844105516e-001 -3.306612040860845e-002 -8.918980844105516e-001 3.757274781387106e-001 -1.511966008664131e-002
4.900000000000000e+008 3.743812727015892e-001 -2.605509649742402e-002 -6.054596759513072e-002 -8.903022703338381e-001 -6.054596759513072e-002 -8.903022703338381e-001 3.743812727015892e-001 -2.605509649742402e-002
5.000000000000000e+008 3.723642467881084e-001 -3.688722309639719e-002 -8.798866877732119e-002 -8.879931459936481e-001 -8.798866877732119e-002 -8.879931459936481e-001 3.723642467881084e-001 -3.688722309639719e-002
5.100000000000000e+008 3.696827498208868e-001 -4.757810517229752e-002 -1.153884487606599e-001 -8.849677275086070e-001 -1.153884487606599e-001 -8.849677275086070e-001 3.696827498208868e-001 -4.757810517229752e-002
5.200000000000000e+008 3.663448905637357e-001 -5.808999782437021e-002 -1.427389632364890e-001 -8.812217090942955e-001 -1.427389632364890e-001 -8.812217090942955e-001 3.663448905637357e-001 -5.808999782437021e-002
5.300000000000000e+008 3.623605627269728e-001 -6.838537858219214e-002 -1.700331396570405e-001 -8.767495166320820e-001 -1.700331396570405e-001 -8.767495166320820e-001 3.623605627269728e-001 -6.838537858219214e-002
5.400000000000000e+008 3.577414772865464e-001 -7.842698632118771e-002 -1.972630203943035e-001 -8.715443734754090e-001 -1.972630203943035e-001 -8.715443734754090e-001 3.577414772865464e-001 -7.842698632118771e-002
5.500000000000000e+008 3.525012007174990e-001 -8.817786778138588e-002 -2.244196087103423e-001 -8.655983788362035e-001 -2.244196087103423e-001 -8.655983788362035e-001 3.525012007174990e-001 -8.817786778138588e-002
5.600000000000000e+008 3.466551981854891e-001 -9.760143294336790e-002 -2.514927181783972e-001 -8.589025991367685e-001 -2.514927181783972e-001 -8.589025991367685e-001 3.466551981854891e-001 -9.760143294336790e-002
5.700000000000000e+008 3.402208805780984e-001 -1.066615204485080e-001 -2.784708263223871e-001 -8.514471727367050e-001 -2.784708263223871e-001 -8.514471727367050e-001 3.402208805780984e-001 -1.066615204485080e-001
5.800000000000000e+008 3.332176540908101e-001 -1.153224741676923e-001 -3.053409333853978e-001 -8.432214284469103e-001 -3.053409333853978e-001 -8.432214284469103e-001 3.332176540908101e-001 -1.153224741676923e-001
5.900000000000000e+008 3.256669709116578e-001 -1.235492319207543e-001 -3.320884272930378e-001 -8.342140182203458e-001 -3.320884272930378e-001 -8.342140182203458e-001 3.256669709116578e-001 -1.235492319207543e-001
6.000000000000000e+008 3.175923793753267e-001 -1.313074272247577e-001 -3.586969560423504e-001 -8.244130643587407e-001 -3.586969560423504e-001 -8.244130643587407e-001 3.175923793753267e-001 -1.313074272247577e-001
6.100000000000000e+008 3.090195717841808e-001 -1.385635047997910e-001 -3.851483089176488e-001 -8.138063214927237e-001 -3.851483089176488e-001 -8.138063214927237e-001 3.090195717841808e-001 -1.385635047997910e-001
6.200000000000000e+008 2.999764279236656e-001 -1.452848503831057e-001 -4.114223081070527e-001 -8.023813534769483e-001 -4.114223081070527e-001 -8.023813534769483e-001 2.999764279236656e-001 -1.452848503831057e-001
6.300000000000000e+008 2.904930521368230e-001 -1.514399351933825e-001 -4.374967124624594e-001 -7.901257251891850e-001 -4.374967124624594e-001 -7.901257251891850e-001 2.904930521368230e-001 -1.514399351933825e-001
6.400000000000000e+008 2.806018016723828e-001 -1.569984751443790e-001 -4.633471353054508e-001 -7.770272090308970e-001 -4.633471353054508e-001 -7.770272090308970e-001 2.806018016723828e-001 -1.569984751443790e-001
6.500000000000000e+008 2.703373038890760e-001 -1.619316046294901e-001 -4.889469783254049e-001 -7.630740056951837e-001 -4.889469783254049e-001 -7.630740056951837e-001 2.703373038890760e-001 -1.619316046294901e-001
6.600000000000000e+008 2.597364597923020e-001 -1.662120643851766e-001 -5.142673837364545e-001 -7.482549784957639e-001 -5.142673837364545e-001 -7.482549784957639e-001 2.597364597923020e-001 -1.662120643851766e-001
6.700000000000000e+008 2.488384313058472e-001 -1.698144025921302e-001 -5.392772069486044e-001 -7.325599002386005e-001 -5.392772069486044e-001 -7.325599002386005e-001 2.488384313058472e-001 -1.698144025921302e-001
6.800000000000000e+008 2.376846096492618e-001 -1.727151879904176e-001 -5.639430120566309e-001 -7.159797112680394e-001 -5.639430120566309e-001 -7.159797112680394e-001 2.376846096492618e-001 -1.727151879904176e-001
6.900000000000000e+008 2.263185622096050e-001 -1.748932333721341e-001 -5.882290924490754e-001 -6.985067869358723e-001 -5.882290924490754e-001 -6.985067869358723e-001 2.263185622096050e-001 -1.748932333721341e-001
7.000000000000000e+008 2.147859553733906e-001 -1.763298273778579e-001 -6.120975187796365e-001 -6.801352123302669e-001 -6.120975187796365e-001 -6.801352123302669e-001 2.147859553733906e-001 -1.763298273778579e-001
7.100000000000000e+008 2.031344509293999e-001 -1.770089720689566e-001 -6.355082164155981e-001 -6.608610616699550e-001 -6.355082164155981e-001 -6.608610616699550e-001 2.031344509293999e-001 -1.770089720689566e-001
7.200000000000000e+008 1.914135738735312e-001 -1.769176232864475e-001 -6.584190742744646e-001 -6.406826793276068e-001 -6.584190742744646e-001 -6.406826793276068e-001 1.914135738735312e-001 -1.769176232864475e-001
7.300000000000000e+008 1.796745497496917e-001 -1.760459303507395e-001 -6.807860866738497e-001 -6.196009590072573e-001 -6.807860866738497e-001 -6.196009590072573e-001 1.796745497496917e-001 -1.760459303507395e-001
7.400000000000000e+008 1.679701100509266e-001 -1.743874712195638e-001 -7.025635294458003e-001 -5.976196171787033e-001 -7.025635294458003e-001 -5.976196171787033e-001 1.679701100509266e-001 -1.743874712195638e-001
7.500000000000000e+008 1.563542646849637e-001 -1.719394788200784e-001 -7.237041711025474e-001 -5.747454564834468e-001 -7.237041711025474e-001 -5.747454564834468e-001 1.563542646849637e-001 -1.719394788200784e-001
7.600000000000000e+008 1.448820410777040e-001 -1.687030539235418e-001 -7.441595192865267e-001 -5.509886144903717e-001 -7.441595192865267e-001 -5.509886144903717e-001 1.448820410777040e-001 -1.687030539235418e-001
7.700000000000000e+008 1.336091901427446e-001 -1.646833596561943e-001 -7.638801020975565e-001 -5.263627929141408e-001 -7.638801020975565e-001 -5.263627929141408e-001 1.336091901427446e-001 -1.646833596561943e-001
7.800000000000000e+008 1.225918600767035e-001 -1.598897925576460e-001 -7.828157831722929e-001 -5.008854622351001e-001 -7.828157831722929e-001 -5.008854622351001e-001 1.225918600767035e-001 -1.598897925576460e-001
7.900000000000000e+008 1.118862397362224e-001 -1.543361250271918e-001 -8.009161086082445e-001 -4.745780365954535e-001 -8.009161086082445e-001 -4.745780365954535e-001 1.118862397362224e-001 -1.543361250271918e-001
8.000000000000000e+008 1.015481741959211e-001 -1.480406140566784e-001 -8.181306829938024e-001 -4.474660139104810e-001 -8.181306829938024e-001 -4.474660139104810e-001 1.015481741959211e-001 -1.480406140566784e-001
8.100000000000000e+008 9.163275595542175e-002 -1.410260713508255e-001 -8.344095709488387e-001 -4.195790763406004e-001 -8.344095709488387e-001 -4.195790763406004e-001 9.163275595542175e-002 -1.410260713508255e-001
8.200000000000000e+008 8.219389613199035e-002 -1.333198902934610e-001 -8.497037197232505e-001 -3.909511466316279e-001 -8.497037197232505e-001 -3.909511466316279e-001 8.219389613199035e-002 -1.333198902934610e-001
8.300000000000000e+008 7.328388081377135e-002 -1.249540257372873e-001 -8.639653975730645e-001 -3.616203963529552e-001 -8.639653975730645e-001 -3.616203963529552e-001 7.328388081377135e-002 -1.249540257372873e-001
8.400000000000000e+008 6.495291852506191e-002 -1.159649232758812e-001 -8.771486418672906e-001 -3.316292027470550e-001 -8.771486418672906e-001 -3.316292027470550e-001 6.495291852506191e-002 -1.159649232758812e-001
8.500000000000000e+008 5.724868543614625e-002 -1.063933954931724e-001 -8.892097102071351e-001 -3.010240517423258e-001 -8.892097102071351e-001 -3.010240517423258e-001 5.724868543614625e-002 -1.063933954931724e-001
8.600000000000000e+008 5.021587550290751e-002 -9.628444366387486e-002 -9.001075272954332e-001 -2.698553856611320e-001 -9.001075272954332e-001 -2.698553856611320e-001 5.021587550290751e-002 -9.628444366387486e-002
8.700000000000000e+008 4.389576311456378e-002 -8.568702447683181e-002 -9.098041199095206e-001 -2.381773952545516e-001 -9.098041199095206e-001 -2.381773952545516e-001 4.389576311456378e-002 -8.568702447683181e-002
8.800000000000000e+008 3.832578603427606e-002 -7.465376254352492e-002 -9.182650321323500e-001 -2.060477568865668e-001 -9.182650321323500e-001 -2.060477568865668e-001 3.832578603427606e-002 -7.465376254352492e-002
8.900000000000000e+008 3.353915641531924e-002 -6.324061070077650e-002 -9.254597130063346e-001 -1.735273169377701e-001 -9.254597130063346e-001 -1.735273169377701e-001 3.353915641531924e-002 -6.324061070077650e-002
9.000000000000000e+008 2.956450745073413e-002 -5.150646137969000e-002 -9.313618690063813e-001 -1.406797267620693e-001 -9.313618690063813e-001 -1.406797267620693e-001 2.956450745073413e-002 -5.150646137969000e-002
9.100000000000000e+008 2.642558276117768e-002 -3.951271354791952e-002 -9.359497741886771e-001 -1.075710327650918e-001 -9.359497741886771e-001 -1.075710327650918e-001 2.642558276117768e-002 -3.951271354791952e-002
9.200000000000000e+008 2.414097494795287e-002 -2.732280089385966e-002 -9.392065315561191e-001 -7.426922733451882e-002 -9.392065315561191e-001 -7.426922733451882e-002 2.414097494795287e-002 -2.732280089385966e-002
9.300000000000000e+008 2.272391884993275e-002 -1.500168796423396e-002 -9.411202800758893e-001 -4.084376739533463e-002 -9.411202800758893e-001 -4.084376739533463e-002 2.272391884993275e-002 -1.500168796423396e-002
9.400000000000000e+008 2.218214396803875e-002 -2.615341849030944e-003 -9.416843428658552e-001 -7.365068245253053e-003 -9.416843428658552e-001 -7.365068245253053e-003 2.218214396803875e-002 -2.615341849030944e-003
