! Touchstone generated by fitter/viewer 
# HZ S  RI R 5.000000e+001
! 
1.000000000000000e+007 3.324562599437031e-003 4.566861529862851e-004 9.953930159884770e-001 -3.555809311551934e-002 9.953930159884770e-001 -3.555809311551934e-002 3.324562599437031e-003 4.566861529862851e-004
2.050025012506253e+007 3.680603588551046e-003 2.172357765573603e-004 9.924066220109183e-001 -7.145073729960071e-002 9.924066220109183e-001 -7.145073729960071e-002 3.680603588551046e-003 2.172357765573603e-004
3.100050025012506e+007 3.852083848065124e-003 -7.994717122715301e-005 9.883305823726107e-001 -1.069114697505419e-001 9.883305823726107e-001 -1.069114697505419e-001 3.852083848065124e-003 -7.994717122715301e-005
4.150075037518759e+007 3.913727419375124e-003 -3.849734685449263e-004 9.830931599380357e-001 -1.420251878380426e-001 9.830931599380357e-001 -1.420251878380426e-001 3.913727419375124e-003 -3.849734685449263e-004
5.200100050025012e+007 3.902323797466800e-003 -6.768918807348426e-004 9.766827790970850e-001 -1.767986024443551e-001 9.766827790970850e-001 -1.767986024443551e-001 3.902323797466800e-003 -6.768918807348426e-004
6.250125062531266e+007 3.839702259981204e-003 -9.499312142201856e-004 9.691025458407026e-001 -2.112209547300389e-001 9.691025458407026e-001 -2.112209547300389e-001 3.839702259981204e-003 -9.499312142201856e-004
7.300150075037518e+007 3.737741075452217e-003 -1.202918998260332e-003 9.603585780389018e-001 -2.452722456181769e-001 9.603585780389018e-001 -2.452722456181769e-001 3.737741075452217e-003 -1.202918998260332e-003
8.350175087543772e+007 3.603228634342925e-003 -1.434926099713714e-003 9.504589500406930e-001 -2.789257795983681e-001 9.504589500406930e-001 -2.789257795983681e-001 3.603228634342925e-003 -1.434926099713714e-003
9.400200100050025e+007 3.440938402081040e-003 -1.644460062371531e-003 9.394142016248953e-001 -3.121504653662572e-001 9.394142016248953e-001 -3.121504653662572e-001 3.440938402081040e-003 -1.644460062371531e-003
1.045022511255628e+008 3.255066987871813e-003 -1.829779364489406e-003 9.272375091019517e-001 -3.449127382176357e-001 9.272375091019517e-001 -3.449127382176357e-001 3.255066987871813e-003 -1.829779364489406e-003
1.150025012506253e+008 3.049728433028753e-003 -1.989319283589676e-003 9.139444916131714e-001 -3.771779102341707e-001 9.139444916131714e-001 -3.771779102341707e-001 3.049728433028753e-003 -1.989319283589676e-003
1.255027513756878e+008 2.829020849942077e-003 -2.121960129635044e-003 8.995528739862344e-001 -4.089110163085450e-001 8.995528739862344e-001 -4.089110163085450e-001 2.829020849942077e-003 -2.121960129635044e-003
1.360030015007504e+008 2.596943768035764e-003 -2.227130030313447e-003 8.840821501407971e-001 -4.400773039380891e-001 8.840821501407971e-001 -4.400773039380891e-001 2.596943768035764e-003 -2.227130030313447e-003
1.465032516258129e+008 2.357292046213044e-003 -2.304796301246009e-003 8.675533066085875e-001 -4.706424991806933e-001 8.675533066085875e-001 -4.706424991806933e-001 2.357292046213044e-003 -2.304796301246009e-003
1.570035017508754e+008 2.113573388645040e-003 -2.355397470780632e-003 8.499886184361865e-001 -5.005729431477258e-001 8.499886184361865e-001 -5.005729431477258e-001 2.113573388645040e-003 -2.355397470780632e-003
1.675037518759380e+008 1.868960457882651e-003 -2.379752270016741e-003 8.314115093107045e-001 -5.298356596010944e-001 8.314115093107045e-001 -5.298356596010944e-001 1.868960457882651e-003 -2.379752270016741e-003
1.780040020010005e+008 1.626274067673350e-003 -2.378967297505153e-003 8.118464613848390e-001 -5.583983900242758e-001 8.118464613848390e-001 -5.583983900242758e-001 1.626274067673350e-003 -2.378967297505153e-003
1.885042521260630e+008 1.387989424370906e-003 -2.354354637942097e-003 7.913189601940660e-001 -5.862296167265871e-001 7.913189601940660e-001 -5.862296167265871e-001 1.387989424370906e-003 -2.354354637942097e-003
1.990045022511255e+008 1.156257164776742e-003 -2.307364067885768e-003 7.698554623279662e-001 -6.132985847258722e-001 7.698554623279662e-001 -6.132985847258722e-001 1.156257164776742e-003 -2.307364067885768e-003
2.095047523761881e+008 9.329323203562945e-004 -2.239530585386104e-003 7.474833763416248e-001 -6.395753273055813e-001 7.474833763416248e-001 -6.395753273055813e-001 9.329323203562945e-004 -2.239530585386104e-003
2.200050025012506e+008 7.196061081877758e-004 -2.152435928896247e-003 7.242310500228992e-001 -6.650306968132882e-001 7.242310500228992e-001 -6.650306968132882e-001 7.196061081877758e-004 -2.152435928896247e-003
2.305052526263132e+008 5.176370968439370e-004 -2.047681822594980e-003 7.001277593083525e-001 -6.896364004973271e-001 7.001277593083525e-001 -6.896364004973271e-001 5.176370968439370e-004 -2.047681822594980e-003
2.410055027513757e+008 3.281796404545068e-004 -1.926872435477627e-003 6.752036958242453e-001 -7.133650403448323e-001 6.752036958242453e-001 -7.133650403448323e-001 3.281796404545068e-004 -1.926872435477627e-003
2.515057528764382e+008 1.522084870562157e-004 -1.791603666420183e-003 6.494899512683909e-001 -7.361901555934188e-001 6.494899512683909e-001 -7.361901555934188e-001 1.522084870562157e-004 -1.791603666420183e-003
2.620060030015007e+008 -9.460817901096874e-006 -1.643457175119218e-003 6.230184977228483e-001 -7.580862665937932e-001 6.230184977228483e-001 -7.580862665937932e-001 -9.460817901096874e-006 -1.643457175119218e-003
2.725062531265633e+008 -1.561556397275954e-004 -1.483997453279551e-003 5.958221635777093e-001 -7.790289188514981e-001 5.958221635777093e-001 -7.790289188514981e-001 -1.561556397275954e-004 -1.483997453279551e-003
2.830065032516258e+008 -2.873336939490656e-004 -1.314770605144384e-003 5.679346051249508e-001 -7.989947262842140e-001 5.679346051249508e-001 -7.989947262842140e-001 -2.873336939490656e-004 -1.314770605144384e-003
2.935067533766884e+008 -4.025736837083294e-004 -1.137303846779731e-003 5.393902741078749e-001 -8.179614129468797e-001 5.393902741078749e-001 -8.179614129468797e-001 -4.025736837083294e-004 -1.137303846779731e-003
3.040070035017509e+008 -5.015685418618965e-004 -9.531050243668949e-004 5.102243816326457e-001 -8.359078526747620e-001 5.102243816326457e-001 -8.359078526747620e-001 -5.015685418618965e-004 -9.531050243668949e-004
3.145072536268134e+008 -5.841206857721826e-004 -7.636616895739887e-004 4.804728588986994e-001 -8.528141062634387e-001 4.804728588986994e-001 -8.528141062634387e-001 -5.841206857721826e-004 -7.636616895739887e-004
3.250075037518759e+008 -6.501387317419116e-004 -5.704394576869713e-004 4.501723152099819e-001 -8.686614559416704e-001 4.501723152099819e-001 -8.686614559416704e-001 -6.501387317419116e-004 -5.704394576869713e-004
3.355077538769385e+008 -6.996351759860353e-004 -3.748795174249763e-004 4.193599937069652e-001 -8.834324369999229e-001 4.193599937069652e-001 -8.834324369999229e-001 -6.996351759860353e-004 -3.748795174249763e-004
3.460080040020010e+008 -7.327246185702130e-004 -1.783952671527303e-004 3.880737252227022e-001 -8.971108665176188e-001 3.880737252227022e-001 -8.971108665176188e-001 -7.327246185702130e-004 -1.783952671527303e-004
3.565082541270635e+008 -7.496221783036550e-004 1.763187259603390e-005 3.563518806228987e-001 -9.096818691904610e-001 3.563518806228987e-001 -9.096818691904610e-001 -7.496221783036550e-004 1.763187259603390e-005
3.670085042521260e+008 -7.506418155618366e-004 2.118573694657409e-004 3.242333219454324e-001 -9.211319002996878e-001 3.242333219454324e-001 -9.211319002996878e-001 -7.506418155618366e-004 2.118573694657409e-004
3.775087543771886e+008 -7.361943436494656e-004 4.029790796998501e-004 2.917573526120456e-001 -9.314487658918867e-001 2.917573526120456e-001 -9.314487658918867e-001 -7.361943436494656e-004 4.029790796998501e-004
3.880090045022511e+008 -7.067849662747427e-004 5.897431882447584e-004 2.589636669458337e-001 -9.406216402543041e-001 2.589636669458337e-001 -9.406216402543041e-001 -7.067849662747427e-004 5.897431882447584e-004
3.985092546273136e+008 -6.630102284885808e-004 7.709504313055125e-004 2.258922991934383e-001 -9.486410807792025e-001 2.258922991934383e-001 -9.486410807792025e-001 -6.630102284885808e-004 7.709504313055125e-004
4.090095047523762e+008 -6.055543111567197e-004 9.454624450939787e-004 1.925835722207906e-001 -9.554990403139229e-001 1.925835722207906e-001 -9.554990403139229e-001 -6.055543111567197e-004 9.454624450939787e-004
4.195097548774387e+008 -5.351846349594958e-004 1.112208091066106e-003 1.590780460256513e-001 -9.611888770925968e-001 1.590780460256513e-001 -9.611888770925968e-001 -5.351846349594958e-004 1.112208091066106e-003
4.300100050025013e+008 -4.527467697534870e-004 1.270189618277115e-003 1.254164661887236e-001 -9.657053623422329e-001 1.254164661887236e-001 -9.657053623422329e-001 -4.527467697534870e-004 1.270189618277115e-003
4.405102551275638e+008 -3.591586693996174e-004 1.418488536287913e-003 9.163971236740597e-002 -9.690446856511199e-001 9.163971236740597e-002 -9.690446856511199e-001 -3.591586693996174e-004 1.418488536287913e-003
4.510105052526263e+008 -2.554042715583460e-004 1.556271086316788e-003 5.778874692168561e-002 -9.712044581818656e-001 5.778874692168561e-002 -9.712044581818656e-001 -2.554042715583460e-004 1.556271086316788e-003
4.615107553776888e+008 -1.425265171057788e-004 1.682793213283026e-003 2.390456374997935e-002 -9.721837138054428e-001 2.390456374997935e-002 -9.721837138054428e-001 -1.425265171057788e-004 1.682793213283026e-003
4.720110055027514e+008 -2.161985527893151e-005 1.797404956503408e-003 -9.971862596697561e-003 -9.719829082266722e-001 -9.971862596697561e-003 -9.719829082266722e-001 -2.161985527893151e-005 1.797404956503408e-003
4.825112556278139e+008 1.061776910583623e-004 1.899554191659923e-003 -4.379962746130529e-002 -9.706039161658916e-001 -4.379962746130529e-002 -9.706039161658916e-001 1.061776910583623e-004 1.899554191659923e-003
4.930115057528764e+008 2.396928199885906e-004 1.988789670985138e-003 -7.753794623297919e-002 -9.680500266563017e-001 -7.753794623297919e-002 -9.680500266563017e-001 2.396928199885906e-004 1.988789670985138e-003
5.035117558779389e+008 3.777255216352859e-004 2.064763322213177e-003 -1.111462040542911e-001 -9.643259365116842e-001 -1.111462040542911e-001 -9.643259365116842e-001 3.777255216352859e-004 2.064763322213177e-003
5.140120060030015e+008 5.190578410009250e-004 2.127231779587696e-003 -1.445840050364660e-001 -9.594377420149867e-001 -1.445840050364660e-001 -9.594377420149867e-001 5.190578410009250e-004 2.127231779587696e-003
5.245122561280640e+008 6.624627479870915e-004 2.176057132025853e-003 -1.778112209380701e-001 -9.533929288745601e-001 -1.778112209380701e-001 -9.533929288745601e-001 6.624627479870915e-004 2.176057132025853e-003
5.350125062531266e+008 8.067130315189131e-004 2.211206884370568e-003 -2.107880392646638e-001 -9.462003604917285e-001 -2.107880392646638e-001 -9.462003604917285e-001 8.067130315189131e-004 2.211206884370568e-003
5.455127563781891e+008 9.505901373154657e-004 2.232753137497240e-003 -2.434750107483630e-001 -9.378702645807363e-001 -2.434750107483630e-001 -9.378702645807363e-001 9.505901373154657e-004 2.232753137497240e-003
5.560130065032516e+008 1.092892872293305e-003 2.240871001897008e-003 -2.758330961673271e-001 -9.284142181799902e-001 -2.758330961673271e-001 -9.284142181799902e-001 1.092892872293305e-003 2.240871001897008e-003
5.665132566283141e+008 1.232445902786483e-003 2.235836267238364e-003 -3.078237124659593e-001 -9.178451310918377e-001 -3.078237124659593e-001 -9.178451310918377e-001 1.232445902786483e-003 2.235836267238364e-003
5.770135067533767e+008 1.368107978466759e-003 2.218022357362537e-003 -3.394087781372223e-001 -9.061772277868203e-001 -3.394087781372223e-001 -9.061772277868203e-001 1.368107978466759e-003 2.218022357362537e-003
5.875137568784392e+008 1.498779818991824e-003 2.187896606217654e-003 -3.705507578288779e-001 -8.934260278074250e-001 -3.705507578288779e-001 -8.934260278074250e-001 1.498779818991824e-003 2.187896606217654e-003
5.980140070035018e+008 1.623411605832681e-003 2.146015895436628e-003 -4.012127061358684e-001 -8.796083247057484e-001 -4.012127061358684e-001 -8.796083247057484e-001 1.623411605832681e-003 2.146015895436628e-003
6.085142571285642e+008 1.741010027364043e-003 2.093021698655445e-003 -4.313583105413340e-001 -8.647421635491659e-001 -4.313583105413340e-001 -8.647421635491659e-001 1.741010027364043e-003 2.093021698655445e-003
6.190145072536268e+008 1.850644831053905e-003 2.029634581303632e-003 -4.609519334691369e-001 -8.488468170279891e-001 -4.609519334691369e-001 -8.488468170279891e-001 1.850644831053905e-003 2.029634581303632e-003
6.295147573786893e+008 1.951454842376577e-003 1.956648207523531e-003 -4.899586534110402e-001 -8.319427601992402e-001 -4.899586534110402e-001 -8.319427601992402e-001 1.951454842376577e-003 1.956648207523531e-003
6.400150075037519e+008 2.042653415857854e-003 1.874922908139842e-003 -5.183443050921166e-001 -8.140516439009413e-001 -5.183443050921166e-001 -8.140516439009413e-001 2.042653415857854e-003 1.874922908139842e-003
6.505152576288143e+008 2.123533289366764e-003 1.785378865259502e-003 -5.460755186383460e-001 -7.951962668717642e-001 -5.460755186383460e-001 -7.951962668717642e-001 2.123533289366764e-003 1.785378865259502e-003
6.610155077538769e+008 2.193470818377508e-003 1.688988970164439e-003 -5.731197577108708e-001 -7.754005466114416e-001 -5.731197577108708e-001 -7.754005466114416e-001 2.193470818377508e-003 1.688988970164439e-003
6.715157578789394e+008 2.251929572376410e-003 1.586771411743488e-003 -5.994453565719152e-001 -7.546894890179889e-001 -5.994453565719152e-001 -7.546894890179889e-001 2.251929572376410e-003 1.586771411743488e-003
6.820160080040020e+008 2.298463280872243e-003 1.479782052797642e-003 -6.250215560480069e-001 -7.330891568385125e-001 -6.250215560480069e-001 -7.330891568385125e-001 2.298463280872243e-003 1.479782052797642e-003
6.925162581290646e+008 2.332718121549782e-003 1.369106651225395e-003 -6.498185383568094e-001 -7.106266369711715e-001 -6.498185383568094e-001 -7.106266369711715e-001 2.332718121549782e-003 1.369106651225395e-003
7.030165082541270e+008 2.354434347968670e-003 1.255852982365816e-003 -6.738074607646659e-001 -6.873300066566808e-001 -6.738074607646659e-001 -6.873300066566808e-001 2.354434347968670e-003 1.255852982365816e-003
7.135167583791896e+008 2.363447258841522e-003 1.141142917695059e-003 -6.969604880427649e-001 -6.632282985985859e-001 -6.969604880427649e-001 -6.632282985985859e-001 2.363447258841522e-003 1.141142917695059e-003
7.240170085042521e+008 2.359687515303688e-003 1.026104513673149e-003 -7.192508236907329e-001 -6.383514650524409e-001 -7.192508236907329e-001 -6.383514650524409e-001 2.359687515303688e-003 1.026104513673149e-003
7.345172586293147e+008 2.343180816713475e-003 9.118641628553046e-004 -7.406527398974465e-001 -6.127303409248562e-001 -7.406527398974465e-001 -6.127303409248562e-001 2.343180816713475e-003 9.118641628553046e-004
7.450175087543771e+008 2.314046949396853e-003 7.995388574339866e-004 -7.611416062098438e-001 -5.863966059242916e-001 -7.611416062098438e-001 -5.863966059242916e-001 2.314046949396853e-003 7.995388574339866e-004
7.555177588794397e+008 2.272498226340458e-003 6.902286132223697e-004 -7.806939168816348e-001 -5.593827458063028e-001 -7.806939168816348e-001 -5.593827458063028e-001 2.272498226340458e-003 6.902286132223697e-004
7.660180090045022e+008 2.218837339182711e-003 5.850090997234725e-004 -7.992873168749000e-001 -5.317220127568318e-001 -7.992873168749000e-001 -5.317220127568318e-001 2.218837339182711e-003 5.850090997234725e-004
7.765182591295648e+008 2.153454646905417e-003 4.849245193969606e-004 -8.169006264887854e-001 -5.034483849579233e-001 -8.169006264887854e-001 -5.034483849579233e-001 2.153454646905417e-003 4.849245193969606e-004
7.870185092546272e+008 2.076824928445853e-003 3.909807765580126e-004 -8.335138645907101e-001 -4.745965253810748e-001 -8.335138645907101e-001 -4.745965253810748e-001 2.076824928445853e-003 3.909807765580126e-004
7.975187593796898e+008 1.989503628961997e-003 3.041389735330736e-004 -8.491082704267783e-001 -4.452017398542152e-001 -8.491082704267783e-001 -4.452017398542152e-001 1.989503628961997e-003 3.041389735330736e-004
8.080190095047524e+008 1.892122631782511e-003 2.253092687916029e-004 -8.636663239894058e-001 -4.152999344489989e-001 -8.636663239894058e-001 -4.152999344489989e-001 1.892122631782511e-003 2.253092687916029e-004
8.185192596298149e+008 1.785385590054811e-003 1.553451287754708e-004 -8.771717649215096e-001 -3.849275722358985e-001 -8.771717649215096e-001 -3.849275722358985e-001 1.785385590054811e-003 1.553451287754708e-004
8.290195097548775e+008 1.670062853897814e-003 9.503800209082980e-005 -8.896096099380016e-001 -3.541216294551682e-001 -8.896096099380016e-001 -3.541216294551682e-001 1.670062853897814e-003 9.503800209082980e-005
8.395197598799399e+008 1.546986030343200e-003 4.511244161095156e-005 -9.009661687467377e-001 -3.229195511524702e-001 -9.009661687467377e-001 -3.229195511524702e-001 1.546986030343200e-003 4.511244161095156e-005
8.500200100050025e+008 1.417042214640896e-003 6.221696903312634e-006 -9.112290584525223e-001 -2.913592063285051e-001 -9.112290584525223e-001 -2.913592063285051e-001 1.417042214640896e-003 6.221696903312634e-006
8.605202601300650e+008 1.281167932506877e-003 -2.105620377894071e-005 -9.203872164292419e-001 -2.594788426526045e-001 -9.203872164292419e-001 -2.594788426526045e-001 1.281167932506877e-003 -2.105620377894071e-005
8.710205102551276e+008 1.140342833702568e-003 -3.622186585780304e-005 -9.284309116467061e-001 -2.273170407907225e-001 -9.284309116467061e-001 -2.273170407907225e-001 1.140342833702568e-003 -3.622186585780304e-005
8.815207603801900e+008 9.955831778830637e-004 -3.885742222243301e-005 -9.353517544403056e-001 -1.949126683988079e-001 -9.353517544403056e-001 -1.949126683988079e-001 9.955831778830637e-004 -3.885742222243301e-005
8.920210105052526e+008 8.479351540092717e-004 -2.862889867025881e-005 -9.411427047131360e-001 -1.623048338329428e-001 -9.411427047131360e-001 -1.623048338329428e-001 8.479351540092717e-004 -2.862889867025881e-005
9.025212606303151e+008 6.984680747308403e-004 -5.288044314520020e-006 -9.457980785618404e-001 -1.295328396280789e-001 -9.457980785618404e-001 -1.295328396280789e-001 6.984680747308403e-004 -5.288044314520020e-006
9.130215107553777e+008 5.482674870868065e-004 3.132637666738029e-005 -9.493135533189984e-001 -9.663613579752604e-002 -9.493135533189984e-001 -9.663613579752604e-002 5.482674870868065e-004 3.132637666738029e-005
9.235217608804402e+008 3.984282405690154e-004 8.128783256090333e-005 -9.516861710065269e-001 -6.365427300574435e-002 -9.516861710065269e-001 -6.365427300574435e-002 3.984282405690154e-004 8.128783256090333e-005
9.340220110055027e+008 2.500475531364010e-004 1.445818086023043e-004 -9.529143401962024e-001 -3.062685566716495e-002 -9.529143401962024e-001 -3.062685566716495e-002 2.500475531364010e-004 1.445818086023043e-004
9.445222611305653e+008 1.042181150903154e-004 2.211061232466931e-004 -9.529978362750851e-001 2.406504975903758e-003 -9.529978362750851e-001 2.406504975903758e-003 1.042181150903154e-004 2.211061232466931e-004
9.550225112556278e+008 -3.797873010680242e-005 3.106717682604919e-004 -9.519378001152916e-001 3.540623774308113e-002 -9.519378001152916e-001 3.540623774308113e-002 -3.797873010680242e-005 3.106717682604919e-004
9.655227613806903e+008 -1.754796900150790e-004 4.130042619976536e-004 -9.497367351493087e-001 6.833285832013031e-002 -9.497367351493087e-001 6.833285832013031e-002 -1.754796900150790e-004 4.130042619976536e-004
9.760230115057528e+008 -3.072460755129125e-004 5.277455026377838e-004 -9.463985028537230e-001 1.011470159241098e-001 -9.463985028537230e-001 1.011470159241098e-001 -3.072460755129125e-004 5.277455026377838e-004
9.865232616308154e+008 -4.322701656613859e-004 6.544561056937928e-004 -9.419283166460187e-001 1.338095397760461e-001 -9.419283166460187e-001 1.338095397760461e-001 -4.322701656613859e-004 6.544561056937928e-004
